
SetupTitle, output RollOut
PrimitiveTest, I/V Sweep
TestParameter, Context.MainFrame, B1500A
TestParameter, Channel.UnitType, SMU, SMU, SMU
TestParameter, Channel.Unit, SMU2:HR, SMU3:MP, SMU4:MP
TestParameter, Channel.IName, ID, IG, IS
TestParameter, Channel.VName, VD, VG, VS
TestParameter, Channel.Mode, V, V, COMMON
TestParameter, Channel.Func, VAR1, VAR2, CONST
TestParameter, Channel.Index, 
TestParameter, Channel.Time, 
TestParameter, Measurement.Port.Unit, SMU2:HR, SMU3:MP, SMU4:MP
TestParameter, Measurement.Port.SeriesResistor, NONE, NONE, NONE
TestParameter, Measurement.Port.Filter, ON, ON, ON
TestParameter, Measurement.Port.OutputVoltageComparison, 0, 0, 0
TestParameter, Measurement.Primary.Locus, Single
TestParameter, Measurement.Primary.Scale, LINEAR
TestParameter, Measurement.Primary.Start, 0
TestParameter, Measurement.Primary.Stop, 5
TestParameter, Measurement.Primary.Step, 0.1
TestParameter, Measurement.Primary.Compliance, 0.01
TestParameter, Measurement.Primary.PowerCompliance, 0
TestParameter, Measurement.Aborting.Condition, CONTINUE AT ANY
TestParameter, Measurement.PostOutput.Value, START
TestParameter, Measurement.PostOutput.Retention, OFF
TestParameter, Measurement.Secondary.Start, 0
TestParameter, Measurement.Secondary.Count, 7
TestParameter, Measurement.Secondary.Step, 0.5
TestParameter, Measurement.Secondary.Compliance, 1E-06
TestParameter, Measurement.Secondary.PowerCompliance, 0
TestParameter, Measurement.Bias.Source, 0, 0, 0
TestParameter, Measurement.Bias.Compliance, 0.01, 1E-06, 0.1
TestParameter, Measurement.Monitor.Unit, SMU2:HR, SMU3:MP, SMU4:MP
TestParameter, Measurement.Monitor.Adc, HR ADC, HR ADC, HR ADC
TestParameter, Measurement.Monitor.Measurement, Compliance Side, Compliance Side, Compliance Side
TestParameter, Measurement.Monitor.RangingMode, LIMITED, LIMITED, LIMITED
TestParameter, Measurement.Monitor.RangeBoundary, 100pA, 1nA, 1nA
TestParameter, Measurement.Monitor.RangeRating, BY FULL RANGE, BY FULL RANGE, BY FULL RANGE
TestParameter, Measurement.Monitor.RangeRatingCoeff, 50, 50, 50
TestParameter, Measurement.Timing.Hold, 0.5
TestParameter, Measurement.Timing.Delay, 0.05
TestParameter, Measurement.Adc.HighSpeed.Mode, AUTO
TestParameter, Measurement.Adc.HighSpeed.Coeff, 1
TestParameter, Measurement.Adc.HighResolution.AutoZero, OFF
TestParameter, Measurement.Adc.HighResolution.Mode, AUTO
TestParameter, Measurement.Adc.HighResolution.Coeff, 6
TestParameter, Measurement.WaitTime.Source.Coeff, 1
TestParameter, Measurement.WaitTime.Source.Offset, 0
TestParameter, Measurement.WaitTime.Monitor.Coeff, 1
TestParameter, Measurement.WaitTime.Monitor.Offset, 0
TestParameter, Function.Analysis.Name, absIg, absId
TestParameter, Function.Analysis.Unit, A, A
TestParameter, Function.Analysis.Definition, abs(IG), abs(ID)
TestParameter, Output.Graph.Enabled, true
TestParameter, Output.Graph.AutoScaling, false
TestParameter, Output.Graph.XAxis.Data, VD
TestParameter, Output.Graph.XAxis.Scale, Linear
TestParameter, Output.Graph.XAxis.Left, 0
TestParameter, Output.Graph.XAxis.Right, 8
TestParameter, Output.Graph.XAxis.RunTimeAutoScale, true
TestParameter, Output.Graph.YAxis.Data, absId, absIg, IS
TestParameter, Output.Graph.YAxis.Scale, Linear, Log, Linear
TestParameter, Output.Graph.YAxis.Bottom, 0, 0, -0.1
TestParameter, Output.Graph.YAxis.Top, 1, 1, 0.1
TestParameter, Output.Graph.YAxis.Group, , , 
TestParameter, Output.Graph.YAxis.RunTimeAutoScale, true, true, true
TestParameter, Output.List.Data, VG, IG, ID, IS, IS, VD, absIg, absId
TestParameter, AutoAnalysis.Interpolation, false
TestParameter, AutoAnalysis.Line1.Enabled, false
TestParameter, AutoAnalysis.Line1.Type, 1
TestParameter, AutoAnalysis.Line1.Fix, True
TestParameter, AutoAnalysis.Line1.YAxis, 0
TestParameter, AutoAnalysis.Line1.Point1.Type, 0
TestParameter, AutoAnalysis.Line1.Point1.XY.X, 
TestParameter, AutoAnalysis.Line1.Point1.XY.Y, 
TestParameter, AutoAnalysis.Line1.Point1.Data.Var, 
TestParameter, AutoAnalysis.Line1.Point1.Data.Condition, 
TestParameter, AutoAnalysis.Line1.Point1.Data.Start, false
TestParameter, AutoAnalysis.Line1.Point1.Data.StartVar, 
TestParameter, AutoAnalysis.Line1.Point1.Data.StartCondition, 
TestParameter, AutoAnalysis.Line1.Point2.Type, 0
TestParameter, AutoAnalysis.Line1.Point2.XY.X, 
TestParameter, AutoAnalysis.Line1.Point2.XY.Y, 
TestParameter, AutoAnalysis.Line1.Point2.Data.Var, 
TestParameter, AutoAnalysis.Line1.Point2.Data.Condition, 
TestParameter, AutoAnalysis.Line1.Point2.Data.Start, false
TestParameter, AutoAnalysis.Line1.Point2.Data.StartVar, 
TestParameter, AutoAnalysis.Line1.Point2.Data.StartCondition, 
TestParameter, AutoAnalysis.Line1.GradientExpr, 0
TestParameter, AutoAnalysis.Line2.Enabled, false
TestParameter, AutoAnalysis.Line2.Type, 1
TestParameter, AutoAnalysis.Line2.Fix, True
TestParameter, AutoAnalysis.Line2.YAxis, 0
TestParameter, AutoAnalysis.Line2.Point1.Type, 0
TestParameter, AutoAnalysis.Line2.Point1.XY.X, 
TestParameter, AutoAnalysis.Line2.Point1.XY.Y, 
TestParameter, AutoAnalysis.Line2.Point1.Data.Var, 
TestParameter, AutoAnalysis.Line2.Point1.Data.Condition, 
TestParameter, AutoAnalysis.Line2.Point1.Data.Start, false
TestParameter, AutoAnalysis.Line2.Point1.Data.StartVar, 
TestParameter, AutoAnalysis.Line2.Point1.Data.StartCondition, 
TestParameter, AutoAnalysis.Line2.Point2.Type, 0
TestParameter, AutoAnalysis.Line2.Point2.XY.X, 
TestParameter, AutoAnalysis.Line2.Point2.XY.Y, 
TestParameter, AutoAnalysis.Line2.Point2.Data.Var, 
TestParameter, AutoAnalysis.Line2.Point2.Data.Condition, 
TestParameter, AutoAnalysis.Line2.Point2.Data.Start, false
TestParameter, AutoAnalysis.Line2.Point2.Data.StartVar, 
TestParameter, AutoAnalysis.Line2.Point2.Data.StartCondition, 
TestParameter, AutoAnalysis.Line2.GradientExpr, 0
TestParameter, AutoAnalysis.Marker.Enabled, false
TestParameter, AutoAnalysis.Marker.Data.Var, 
TestParameter, AutoAnalysis.Marker.Data.Condition, 
TestParameter, AutoAnalysis.Marker.Data.Start, false
TestParameter, AutoAnalysis.Marker.Data.StartVar, 
TestParameter, AutoAnalysis.Marker.Data.StartCondition, 
MetaData, TestRecord.EntryPoint, true
MetaData, TestRecord.RecordTime, 07/03/2019 12:29:19
MetaData, TestRecord.TestTarget, 6-13
MetaData, TestRecord.IterationIndex, 1
MetaData, TestRecord.Preservation, true
MetaData, TestRecord.Flag, 
MetaData, TestRecord.Remarks, good
MetaData, TestRecord.LinkKey, ce9c1393-6e90-4ddf-ad93-b7d62f3d2228
Dimension1, 51, 51, 51, 51, 51, 51, 51
Dimension2, 7, 7, 7, 7, 7, 7, 7
DataName, VD, VG, ID, IG, IS, absIg, absId
DataValue, 0, 0, -1.0112E-12, 1.5210000000000002E-11, 8.0350000000000012E-11, 1.5210000000000002E-11, 1.0112E-12
DataValue, 0.1, 0, 1.1777E-11, -1.6300000000000001E-12, -1.0410000000000001E-11, 1.6300000000000001E-12, 1.1777E-11
DataValue, 0.2, 0, 9.6799999999999991E-12, 1.249E-11, -1.221E-11, 1.249E-11, 9.6799999999999991E-12
DataValue, 0.3, 0, 8.5456E-12, 4.716E-11, -7.1300000000000005E-12, 4.716E-11, 8.5456E-12
DataValue, 0.4, 0, 1.9804599999999998E-11, -5.065E-11, -2.0710000000000002E-11, 5.065E-11, 1.9804599999999998E-11
DataValue, 0.5, 0, 9.8504E-12, 5.3630000000000006E-11, -1.1100000000000001E-12, 5.3630000000000006E-11, 9.8504E-12
DataValue, 0.6, 0, 1.03596E-11, 2.5700000000000002E-11, 4.669E-11, 2.5700000000000002E-11, 1.03596E-11
DataValue, 0.70000000000000007, 0, 2.31608E-11, -1.4E-12, -7.789E-11, 1.4E-12, 2.31608E-11
DataValue, 0.8, 0, 1.9261E-11, -1.3500000000000001E-12, -1.703E-11, 1.3500000000000001E-12, 1.9261E-11
DataValue, 0.9, 0, 2.381E-11, -3.2180000000000005E-11, -2.1600000000000002E-11, 3.2180000000000005E-11, 2.381E-11
DataValue, 1, 0, 1.6409999999999998E-11, 4.5100000000000005E-11, -1.8200000000000002E-11, 4.5100000000000005E-11, 1.6409999999999998E-11
DataValue, 1.1, 0, 2.7394E-11, -5.1110000000000005E-11, -2.6560000000000003E-11, 5.1110000000000005E-11, 2.7394E-11
DataValue, 1.2, 0, 1.78288E-11, 5.2830000000000007E-11, -9.03E-12, 5.2830000000000007E-11, 1.78288E-11
DataValue, 1.3, 0, 1.82554E-11, 2.917E-11, 3.536E-11, 2.917E-11, 1.82554E-11
DataValue, 1.4000000000000001, 0, 3.14298E-11, -2.5800000000000003E-12, -9.006000000000001E-11, 2.5800000000000003E-12, 3.14298E-11
DataValue, 1.5, 0, 2.74796E-11, -3.8000000000000005E-13, -2.6270000000000003E-11, 3.8000000000000005E-13, 2.74796E-11
DataValue, 1.6, 0, 3.24296E-11, -3.077E-11, -2.8070000000000003E-11, 3.077E-11, 3.24296E-11
DataValue, 1.7, 0, 2.50082E-11, 4.3800000000000006E-11, -2.5520000000000003E-11, 4.3800000000000006E-11, 2.50082E-11
DataValue, 1.8, 0, 3.6322E-11, -5.1140000000000004E-11, -3.7860000000000005E-11, 5.1140000000000004E-11, 3.6322E-11
DataValue, 1.9000000000000001, 0, 2.68434E-11, 5.3070000000000004E-11, -1.906E-11, 5.3070000000000004E-11, 2.68434E-11
DataValue, 2, 0, 2.7510599999999998E-11, 2.3260000000000002E-11, 3.096E-11, 2.3260000000000002E-11, 2.7510599999999998E-11
DataValue, 2.1, 0, 4.0896E-11, -1.6700000000000002E-12, -9.1830000000000008E-11, 1.6700000000000002E-12, 4.0896E-11
DataValue, 2.2, 0, 3.78962E-11, -3.85E-12, -3.548E-11, 3.85E-12, 3.78962E-11
DataValue, 2.3000000000000003, 0, 4.2577199999999996E-11, -3.617E-11, -3.991E-11, 3.617E-11, 4.2577199999999996E-11
DataValue, 2.4, 0, 3.4943E-11, 4.406E-11, -3.649E-11, 4.406E-11, 3.4943E-11
DataValue, 2.5, 0, 4.64606E-11, -5.201E-11, -4.5640000000000003E-11, 5.201E-11, 4.64606E-11
DataValue, 2.6, 0, 3.72532E-11, 5.3340000000000007E-11, -2.943E-11, 5.3340000000000007E-11, 3.72532E-11
DataValue, 2.7, 0, 3.82088E-11, 2.238E-11, 2.187E-11, 2.238E-11, 3.82088E-11
DataValue, 2.8000000000000003, 0, 5.13646E-11, -2.85E-12, -1.0411E-10, 2.85E-12, 5.13646E-11
DataValue, 2.9, 0, 4.86792E-11, -3.3200000000000004E-12, -4.7880000000000007E-11, 3.3200000000000004E-12, 4.86792E-11
DataValue, 3, 0, 5.33678E-11, -3.7050000000000004E-11, -5.1950000000000005E-11, 3.7050000000000004E-11, 5.33678E-11
DataValue, 3.1, 0, 4.56876E-11, 4.6710000000000006E-11, -4.5800000000000006E-11, 4.6710000000000006E-11, 4.56876E-11
DataValue, 3.2, 0, 5.78422E-11, -5.302E-11, -6.255E-11, 5.302E-11, 5.78422E-11
DataValue, 3.3000000000000003, 0, 6.02678E-11, -3.75E-11, -1.0493E-10, 3.75E-11, 6.02678E-11
DataValue, 3.4, 0, 4.99632E-11, 1.2900000000000002E-12, 1.7800000000000003E-11, 1.2900000000000002E-12, 4.99632E-11
DataValue, 3.5, 0, 5.77982E-11, -1.9700000000000003E-12, -5.7670000000000006E-11, 1.9700000000000003E-12, 5.77982E-11
DataValue, 3.6, 0, 5.6372799999999996E-11, 1.801E-11, -5.736E-11, 1.801E-11, 5.6372799999999996E-11
DataValue, 3.7, 0, 5.5957799999999996E-11, 4.905E-11, -5.6200000000000004E-11, 4.905E-11, 5.5957799999999996E-11
DataValue, 3.8000000000000003, 0, 6.84074E-11, -5.4170000000000005E-11, -7.404000000000001E-11, 5.4170000000000005E-11, 6.84074E-11
DataValue, 3.9, 0, 7.0722E-11, -3.041E-11, -1.2293E-10, 3.041E-11, 7.0722E-11
DataValue, 4, 0, 6.0604E-11, 3.4E-13, 1E-13, 3.4E-13, 6.0604E-11
DataValue, 4.1, 0, 6.83112E-11, -1.6000000000000003E-13, -6.54E-11, 1.6000000000000003E-13, 6.83112E-11
DataValue, 4.2, 0, 6.65374E-11, 2.447E-11, -6.677E-11, 2.447E-11, 6.65374E-11
DataValue, 4.3, 0, 7.61504E-11, -4.09E-11, -7.397E-11, 4.09E-11, 7.61504E-11
DataValue, 4.4, 0, 6.81962E-11, 4.77E-11, -6.9470000000000007E-11, 4.77E-11, 6.81962E-11
DataValue, 4.5, 0, 8.0407E-11, -5.284E-11, -8.449000000000001E-11, 5.284E-11, 8.0407E-11
DataValue, 4.6000000000000005, 0, 8.27638E-11, -3.4210000000000004E-11, -1.303E-10, 3.4210000000000004E-11, 8.27638E-11
DataValue, 4.7, 0, 7.2913999999999992E-11, 1.6000000000000003E-13, -1.238E-11, 1.6000000000000003E-13, 7.2913999999999992E-11
DataValue, 4.8, 0, 8.00458E-11, 1.4E-13, -8.0240000000000012E-11, 1.4E-13, 8.00458E-11
DataValue, 4.9, 0, 7.86332E-11, 2.4790000000000002E-11, -8.018E-11, 2.4790000000000002E-11, 7.86332E-11
DataValue, 5, 0, 8.86478E-11, -4.18E-11, -8.588E-11, 4.18E-11, 8.86478E-11
DataValue, 0, 0.5, -1.20752E-11, 5.1E-13, -5.5E-12, 5.1E-13, 1.20752E-11
DataValue, 0.1, 0.5, 3.2559E-09, -4.7E-13, -3.0496E-09, 4.7E-13, 3.2559E-09
DataValue, 0.2, 0.5, 3.5125E-09, 8.1000000000000008E-13, -3.4433E-09, 8.1000000000000008E-13, 3.5125E-09
DataValue, 0.3, 0.5, 3.4207E-09, -5.1660000000000006E-11, -3.4087E-09, 5.1660000000000006E-11, 3.4207E-09
DataValue, 0.4, 0.5, 3.3004E-09, 2.8400000000000004E-12, -3.2422E-09, 2.8400000000000004E-12, 3.3004E-09
DataValue, 0.5, 0.5, 3.2669E-09, 1.18E-12, -3.2332E-09, 1.18E-12, 3.2669E-09
DataValue, 0.6, 0.5, 3.1648E-09, -5.2850000000000004E-11, -3.1628E-09, 5.2850000000000004E-11, 3.1648E-09
DataValue, 0.70000000000000007, 0.5, 3.0813E-09, 2.59E-12, -3.0109E-09, 2.59E-12, 3.0813E-09
DataValue, 0.8, 0.5, 3.0526E-09, 8.6000000000000007E-13, -3.0177E-09, 8.6000000000000007E-13, 3.0526E-09
DataValue, 0.9, 0.5, 2.9708E-09, -5.2980000000000007E-11, -2.9712E-09, 5.2980000000000007E-11, 2.9708E-09
DataValue, 1, 0.5, 2.8971E-09, 1.64E-12, -2.8435E-09, 1.64E-12, 2.8971E-09
DataValue, 1.1, 0.5, 2.9071E-09, 2.1500000000000003E-12, -2.8742E-09, 2.1500000000000003E-12, 2.9071E-09
DataValue, 1.2, 0.5, 2.8397E-09, -5.3920000000000006E-11, -2.8432E-09, 5.3920000000000006E-11, 2.8397E-09
DataValue, 1.3, 0.5, 2.7679E-09, 1.7700000000000001E-12, -2.7132E-09, 1.7700000000000001E-12, 2.7679E-09
DataValue, 1.4000000000000001, 0.5, 2.7972E-09, 2.9300000000000002E-12, -2.7641E-09, 2.9300000000000002E-12, 2.7972E-09
DataValue, 1.5, 0.5, 2.7145E-09, -5.077E-11, -2.7221E-09, 5.077E-11, 2.7145E-09
DataValue, 1.6, 0.5, 2.6706E-09, 6.5000000000000006E-13, -2.6068E-09, 6.5000000000000006E-13, 2.6706E-09
DataValue, 1.7, 0.5, 2.7004E-09, -1.3500000000000001E-12, -2.6527E-09, 1.3500000000000001E-12, 2.7004E-09
DataValue, 1.8, 0.5, 2.6203E-09, -5.2120000000000003E-11, -2.6263E-09, 5.2120000000000003E-11, 2.6203E-09
DataValue, 1.9000000000000001, 0.5, 2.5812E-09, 8.4000000000000006E-13, -2.5143E-09, 8.4000000000000006E-13, 2.5812E-09
DataValue, 2, 0.5, 2.6314E-09, -1.09E-12, -2.5807E-09, 1.09E-12, 2.6314E-09
DataValue, 2.1, 0.5, 2.5642E-09, -5.16E-11, -2.5649E-09, 5.16E-11, 2.5642E-09
DataValue, 2.2, 0.5, 2.5142E-09, 2.1700000000000002E-12, -2.4414E-09, 2.1700000000000002E-12, 2.5142E-09
DataValue, 2.3000000000000003, 0.5, 2.5589E-09, -1.23E-12, -2.5049E-09, 1.23E-12, 2.5589E-09
DataValue, 2.4, 0.5, 2.4904E-09, -5.2680000000000006E-11, -2.4865E-09, 5.2680000000000006E-11, 2.4904E-09
DataValue, 2.5, 0.5, 2.4451E-09, 1.17E-12, -2.3753E-09, 1.17E-12, 2.4451E-09
DataValue, 2.6, 0.5, 2.4933E-09, -1.4800000000000002E-12, -2.4319E-09, 1.4800000000000002E-12, 2.4933E-09
DataValue, 2.7, 0.5, 2.4452E-09, -5.3300000000000006E-11, -2.4419E-09, 5.3300000000000006E-11, 2.4452E-09
DataValue, 2.8000000000000003, 0.5, 2.4064E-09, 1.1000000000000002E-12, -2.3229E-09, 1.1000000000000002E-12, 2.4064E-09
DataValue, 2.9, 0.5, 2.444E-09, -1.22E-12, -2.4001E-09, 1.22E-12, 2.444E-09
DataValue, 3, 0.5, 2.3876E-09, -5.2680000000000006E-11, -2.3921E-09, 5.2680000000000006E-11, 2.3876E-09
DataValue, 3.1, 0.5, 2.3623E-09, 5.9E-13, -2.2966E-09, 5.9E-13, 2.3623E-09
DataValue, 3.2, 0.5, 2.4023E-09, -2.6E-13, -2.3569E-09, 2.6E-13, 2.4023E-09
DataValue, 3.3000000000000003, 0.5, 2.349E-09, -5.4070000000000007E-11, -2.3591E-09, 5.4070000000000007E-11, 2.349E-09
DataValue, 3.4, 0.5, 2.3087E-09, 7.7000000000000005E-13, -2.2544E-09, 7.7000000000000005E-13, 2.3087E-09
DataValue, 3.5, 0.5, 2.3637E-09, 2.7E-13, -2.3246E-09, 2.7E-13, 2.3637E-09
DataValue, 3.6, 0.5, 2.3078E-09, -5.3920000000000006E-11, -2.3128E-09, 5.3920000000000006E-11, 2.3078E-09
DataValue, 3.7, 0.5, 2.2817E-09, 3.3E-13, -2.219E-09, 3.3E-13, 2.2817E-09
DataValue, 3.8000000000000003, 0.5, 2.3232E-09, 1.5200000000000002E-12, -2.284E-09, 1.5200000000000002E-12, 2.3232E-09
DataValue, 3.9, 0.5, 2.2774E-09, -5.4160000000000003E-11, -2.2833E-09, 5.4160000000000003E-11, 2.2774E-09
DataValue, 4, 0.5, 2.2344E-09, 8.9E-13, -2.172E-09, 8.9E-13, 2.2344E-09
DataValue, 4.1, 0.5, 2.2875E-09, 7.3E-13, -2.2466E-09, 7.3E-13, 2.2875E-09
DataValue, 4.2, 0.5, 2.2473E-09, -5.4610000000000006E-11, -2.2494E-09, 5.4610000000000006E-11, 2.2473E-09
DataValue, 4.3, 0.5, 2.2104E-09, 1.5800000000000001E-12, -2.1582E-09, 1.5800000000000001E-12, 2.2104E-09
DataValue, 4.4, 0.5, 2.2588E-09, 1.4900000000000001E-12, -2.2277E-09, 1.4900000000000001E-12, 2.2588E-09
DataValue, 4.5, 0.5, 2.2254E-09, -5.484E-11, -2.2326E-09, 5.484E-11, 2.2254E-09
DataValue, 4.6000000000000005, 0.5, 2.1865E-09, 3.6000000000000003E-13, -2.1274E-09, 3.6000000000000003E-13, 2.1865E-09
DataValue, 4.7, 0.5, 2.2308E-09, 5.6600000000000005E-12, -2.196E-09, 5.6600000000000005E-12, 2.2308E-09
DataValue, 4.8, 0.5, 2.1921E-09, -5.2680000000000006E-11, -2.2029E-09, 5.2680000000000006E-11, 2.1921E-09
DataValue, 4.9, 0.5, 2.1546E-09, -3.0000000000000003E-13, -2.1016E-09, 3.0000000000000003E-13, 2.1546E-09
DataValue, 5, 0.5, 2.2064E-09, 7.51E-12, -2.1732E-09, 7.51E-12, 2.2064E-09
DataValue, 0, 1, -2.2958E-11, -4.742E-11, 1.6490000000000003E-11, 4.742E-11, 2.2958E-11
DataValue, 0.1, 1, 2.12294E-08, -9.6000000000000015E-13, -1.9623399999999998E-08, 9.6000000000000015E-13, 2.12294E-08
DataValue, 0.2, 1, 2.2761599999999997E-08, -1.3400000000000002E-12, -2.26712E-08, 1.3400000000000002E-12, 2.2761599999999997E-08
DataValue, 0.3, 1, 2.27522E-08, 1.9200000000000003E-12, -2.2691799999999998E-08, 1.9200000000000003E-12, 2.27522E-08
DataValue, 0.4, 1, 2.2428599999999997E-08, -2.01E-12, -2.23352E-08, 2.01E-12, 2.2428599999999997E-08
DataValue, 0.5, 1, 2.19868E-08, 2.6100000000000004E-12, -2.18766E-08, 2.6100000000000004E-12, 2.19868E-08
DataValue, 0.6, 1, 2.1639999999999997E-08, -2.29E-12, -2.1554E-08, 2.29E-12, 2.1639999999999997E-08
DataValue, 0.70000000000000007, 1, 2.1260799999999997E-08, 4.2500000000000007E-12, -2.1127599999999997E-08, 4.2500000000000007E-12, 2.1260799999999997E-08
DataValue, 0.8, 1, 2.0913199999999998E-08, -1.533E-11, -2.08488E-08, 1.533E-11, 2.0913199999999998E-08
DataValue, 0.9, 1, 2.05464E-08, 2.824E-11, -2.0517799999999998E-08, 2.824E-11, 2.05464E-08
DataValue, 1, 1, 2.0277999999999998E-08, -4.1640000000000004E-11, -2.0263599999999997E-08, 4.1640000000000004E-11, 2.0277999999999998E-08
DataValue, 1.1, 1, 2.0037999999999997E-08, 5.1540000000000004E-11, -1.9993E-08, 5.1540000000000004E-11, 2.0037999999999997E-08
DataValue, 1.2, 1, 1.9716E-08, -5.4640000000000005E-11, -1.96778E-08, 5.4640000000000005E-11, 1.9716E-08
DataValue, 1.3, 1, 1.9541399999999998E-08, 5.0710000000000005E-11, -1.9482599999999998E-08, 5.0710000000000005E-11, 1.9541399999999998E-08
DataValue, 1.4000000000000001, 1, 1.93472E-08, -4.9540000000000004E-11, -1.9310999999999997E-08, 4.9540000000000004E-11, 1.93472E-08
DataValue, 1.5, 1, 1.91224E-08, 4.486E-11, -1.9116599999999997E-08, 4.486E-11, 1.91224E-08
DataValue, 1.6, 1, 1.8885999999999998E-08, -3.471E-11, -1.8901399999999997E-08, 3.471E-11, 1.8885999999999998E-08
DataValue, 1.7, 1, 1.88214E-08, 2.429E-11, -1.8821799999999997E-08, 2.429E-11, 1.88214E-08
DataValue, 1.8, 1, 1.8544199999999998E-08, -1.3390000000000002E-11, -1.85132E-08, 1.3390000000000002E-11, 1.8544199999999998E-08
DataValue, 1.9000000000000001, 1, 1.8483599999999997E-08, 4.6900000000000004E-12, -1.8517E-08, 4.6900000000000004E-12, 1.8483599999999997E-08
DataValue, 2, 1, 1.82816E-08, -6.0000000000000007E-13, -1.8294399999999997E-08, 6.0000000000000007E-13, 1.82816E-08
DataValue, 2.1, 1, 1.8231199999999997E-08, -1.7100000000000002E-12, -1.82546E-08, 1.7100000000000002E-12, 1.8231199999999997E-08
DataValue, 2.2, 1, 1.79822E-08, 3.8000000000000005E-13, -1.7957E-08, 3.8000000000000005E-13, 1.79822E-08
DataValue, 2.3000000000000003, 1, 1.7975199999999998E-08, -1.83E-12, -1.7957799999999997E-08, 1.83E-12, 1.7975199999999998E-08
DataValue, 2.4, 1, 1.7779999999999998E-08, 5.6E-13, -1.77224E-08, 5.6E-13, 1.7779999999999998E-08
DataValue, 2.5, 1, 1.77074E-08, -2.79E-12, -1.77802E-08, 2.79E-12, 1.77074E-08
DataValue, 2.6, 1, 1.7537799999999997E-08, 6.6E-13, -1.7569199999999998E-08, 6.6E-13, 1.7537799999999997E-08
DataValue, 2.7, 1, 1.7537799999999997E-08, -2.8600000000000003E-12, -1.7549199999999998E-08, 2.8600000000000003E-12, 1.7537799999999997E-08
