
SetupTitle, TFT lin RollOut
PrimitiveTest, I/V Sweep
TestParameter, Context.MainFrame, B1500A
TestParameter, Channel.UnitType, SMU, SMU, SMU
TestParameter, Channel.Unit, SMU2:HR, SMU3:MP, SMU4:MP
TestParameter, Channel.IName, ID, IG, IS
TestParameter, Channel.VName, VD, VG, VS
TestParameter, Channel.Mode, V, V, COMMON
TestParameter, Channel.Func, CONST, VAR1, CONST
TestParameter, Channel.Index, 
TestParameter, Channel.Time, 
TestParameter, Measurement.Port.Unit, SMU2:HR, SMU3:MP, SMU4:MP
TestParameter, Measurement.Port.SeriesResistor, NONE, NONE, NONE
TestParameter, Measurement.Port.Filter, ON, ON, ON
TestParameter, Measurement.Port.OutputVoltageComparison, 0, 0, 0
TestParameter, Measurement.Primary.Locus, Double
TestParameter, Measurement.Primary.Scale, LINEAR
TestParameter, Measurement.Primary.Start, -2
TestParameter, Measurement.Primary.Stop, 5
TestParameter, Measurement.Primary.Step, 0.07
TestParameter, Measurement.Primary.Compliance, 0.001
TestParameter, Measurement.Primary.PowerCompliance, 0
TestParameter, Measurement.Aborting.Condition, CONTINUE AT ANY
TestParameter, Measurement.PostOutput.Value, START
TestParameter, Measurement.PostOutput.Retention, OFF
TestParameter, Measurement.Bias.Source, 0.1, -2, 0
TestParameter, Measurement.Bias.Compliance, 0.0001, 0.001, 0.1
TestParameter, Measurement.Monitor.Unit, SMU2:HR, SMU3:MP, SMU4:MP
TestParameter, Measurement.Monitor.Adc, HR ADC, HR ADC, HR ADC
TestParameter, Measurement.Monitor.Measurement, Compliance Side, Compliance Side, Compliance Side
TestParameter, Measurement.Monitor.RangingMode, LIMITED, LIMITED, LIMITED
TestParameter, Measurement.Monitor.RangeBoundary, 100pA, 1nA, 1nA
TestParameter, Measurement.Monitor.RangeRating, BY FULL RANGE, BY FULL RANGE, BY FULL RANGE
TestParameter, Measurement.Monitor.RangeRatingCoeff, 50, 50, 50
TestParameter, Measurement.Timing.Hold, 0.5
TestParameter, Measurement.Timing.Delay, 0.05
TestParameter, Measurement.Adc.HighSpeed.Mode, AUTO
TestParameter, Measurement.Adc.HighSpeed.Coeff, 1
TestParameter, Measurement.Adc.HighResolution.AutoZero, OFF
TestParameter, Measurement.Adc.HighResolution.Mode, AUTO
TestParameter, Measurement.Adc.HighResolution.Coeff, 6
TestParameter, Measurement.WaitTime.Source.Coeff, 1
TestParameter, Measurement.WaitTime.Source.Offset, 0
TestParameter, Measurement.WaitTime.Monitor.Coeff, 1
TestParameter, Measurement.WaitTime.Monitor.Offset, 0
TestParameter, Function.Analysis.Name, dIddVg, absIg, absId
TestParameter, Function.Analysis.Unit, S, A, A
TestParameter, Function.Analysis.Definition, delta(ID)/delta(VG), abs(IG), abs(ID)
TestParameter, Output.Graph.Enabled, true
TestParameter, Output.Graph.AutoScaling, false
TestParameter, Output.Graph.XAxis.Data, VG
TestParameter, Output.Graph.XAxis.Scale, Linear
TestParameter, Output.Graph.XAxis.Left, -2
TestParameter, Output.Graph.XAxis.Right, 6
TestParameter, Output.Graph.XAxis.RunTimeAutoScale, true
TestParameter, Output.Graph.YAxis.Data, absId, absIg, dIddVg, IS
TestParameter, Output.Graph.YAxis.Scale, Log, Log, Linear, Linear
TestParameter, Output.Graph.YAxis.Bottom, 0, 0, 0, -0.1
TestParameter, Output.Graph.YAxis.Top, 1, 1, 1, 0.1
TestParameter, Output.Graph.YAxis.Group, , , , 
TestParameter, Output.Graph.YAxis.RunTimeAutoScale, true, true, true, false
TestParameter, Output.List.Data, VG, IG, ID, IS, VD, dIddVg, absIg, absId
TestParameter, AutoAnalysis.Interpolation, false
TestParameter, AutoAnalysis.Line1.Enabled, false
TestParameter, AutoAnalysis.Line1.Type, 1
TestParameter, AutoAnalysis.Line1.Fix, True
TestParameter, AutoAnalysis.Line1.YAxis, 0
TestParameter, AutoAnalysis.Line1.Point1.Type, 0
TestParameter, AutoAnalysis.Line1.Point1.XY.X, 
TestParameter, AutoAnalysis.Line1.Point1.XY.Y, 
TestParameter, AutoAnalysis.Line1.Point1.Data.Var, 
TestParameter, AutoAnalysis.Line1.Point1.Data.Condition, 
TestParameter, AutoAnalysis.Line1.Point1.Data.Start, false
TestParameter, AutoAnalysis.Line1.Point1.Data.StartVar, 
TestParameter, AutoAnalysis.Line1.Point1.Data.StartCondition, 
TestParameter, AutoAnalysis.Line1.Point2.Type, 0
TestParameter, AutoAnalysis.Line1.Point2.XY.X, 
TestParameter, AutoAnalysis.Line1.Point2.XY.Y, 
TestParameter, AutoAnalysis.Line1.Point2.Data.Var, 
TestParameter, AutoAnalysis.Line1.Point2.Data.Condition, 
TestParameter, AutoAnalysis.Line1.Point2.Data.Start, false
TestParameter, AutoAnalysis.Line1.Point2.Data.StartVar, 
TestParameter, AutoAnalysis.Line1.Point2.Data.StartCondition, 
TestParameter, AutoAnalysis.Line1.GradientExpr, 0
TestParameter, AutoAnalysis.Line2.Enabled, false
TestParameter, AutoAnalysis.Line2.Type, 1
TestParameter, AutoAnalysis.Line2.Fix, True
TestParameter, AutoAnalysis.Line2.YAxis, 0
TestParameter, AutoAnalysis.Line2.Point1.Type, 0
TestParameter, AutoAnalysis.Line2.Point1.XY.X, 
TestParameter, AutoAnalysis.Line2.Point1.XY.Y, 
TestParameter, AutoAnalysis.Line2.Point1.Data.Var, 
TestParameter, AutoAnalysis.Line2.Point1.Data.Condition, 
TestParameter, AutoAnalysis.Line2.Point1.Data.Start, false
TestParameter, AutoAnalysis.Line2.Point1.Data.StartVar, 
TestParameter, AutoAnalysis.Line2.Point1.Data.StartCondition, 
TestParameter, AutoAnalysis.Line2.Point2.Type, 0
TestParameter, AutoAnalysis.Line2.Point2.XY.X, 
TestParameter, AutoAnalysis.Line2.Point2.XY.Y, 
TestParameter, AutoAnalysis.Line2.Point2.Data.Var, 
TestParameter, AutoAnalysis.Line2.Point2.Data.Condition, 
TestParameter, AutoAnalysis.Line2.Point2.Data.Start, false
TestParameter, AutoAnalysis.Line2.Point2.Data.StartVar, 
TestParameter, AutoAnalysis.Line2.Point2.Data.StartCondition, 
TestParameter, AutoAnalysis.Line2.GradientExpr, 0
TestParameter, AutoAnalysis.Marker.Enabled, false
TestParameter, AutoAnalysis.Marker.Data.Var, 
TestParameter, AutoAnalysis.Marker.Data.Condition, 
TestParameter, AutoAnalysis.Marker.Data.Start, false
TestParameter, AutoAnalysis.Marker.Data.StartVar, 
TestParameter, AutoAnalysis.Marker.Data.StartCondition, 
MetaData, TestRecord.EntryPoint, true
MetaData, TestRecord.RecordTime, 07/03/2019 12:24:32
MetaData, TestRecord.TestTarget, 6-15
MetaData, TestRecord.IterationIndex, 1
MetaData, TestRecord.Preservation, true
MetaData, TestRecord.Flag, 
MetaData, TestRecord.Remarks, good
MetaData, TestRecord.LinkKey, 35a3a1ca-d385-47cf-b92b-f4580d72f30c
Dimension1, 202, 202, 202, 202, 202, 202, 202, 202
Dimension2, 1, 1, 1, 1, 1, 1, 1, 1
DataName, VG, VD, ID, IG, IS, dIddVg, absIg, absId
DataValue, -2, 0.1, 1.639E-12, 1.8000000000000002E-12, 7.119E-11, 1.985714285714284E-11, 1.8000000000000002E-12, 1.639E-12
DataValue, -1.93, 0.1, 3.029E-12, -7.970000000000001E-12, -6.8E-13, -4.1588571428571456E-11, 7.970000000000001E-12, 3.029E-12
DataValue, -1.86, 0.1, -4.1834E-12, 5.0280000000000006E-11, 5.5100000000000006E-12, 2.842285714285716E-11, 5.0280000000000006E-11, 4.1834E-12
DataValue, -1.79, 0.1, 7.0082E-12, -3.0800000000000002E-12, -8.4680000000000012E-11, 3.3732857142857114E-11, 3.0800000000000002E-12, 7.0082E-12
DataValue, -1.72, 0.1, 5.392E-13, -6.3E-13, -1.04E-12, -1.3524285714285724E-11, 6.3E-13, 5.392E-13
DataValue, -1.6500000000000001, 0.1, 5.1148E-12, -4.4780000000000006E-11, -2.9300000000000002E-12, 4.5000000000000032E-11, 4.4780000000000006E-11, 5.1148E-12
DataValue, -1.58, 0.1, 6.8392E-12, -2.074E-11, -7.3540000000000012E-11, -4.4745714285714247E-11, 2.074E-11, 6.8392E-12
DataValue, -1.51, 0.1, -1.1496E-12, 0, 2.4300000000000003E-12, -1.0601428571428566E-11, 0, 1.1496E-12
DataValue, -1.44, 0.1, 5.355E-12, -5.0490000000000005E-11, -4.7600000000000007E-12, 5.5808571428571473E-11, 5.0490000000000005E-11, 5.355E-12
DataValue, -1.37, 0.1, 6.6636E-12, -1.106E-11, -7.91E-11, -3.9545714285714313E-11, 1.106E-11, 6.6636E-12
DataValue, -1.3, 0.1, -1.814E-13, 1.46E-12, 1.3900000000000001E-12, -8.6599999999999926E-12, 1.46E-12, 1.814E-13
DataValue, -1.23, 0.1, 5.4512E-12, -5.2720000000000006E-11, -6.5900000000000008E-12, -4.0499999999999964E-11, 5.2720000000000006E-11, 5.4512E-12
DataValue, -1.16, 0.1, -5.8514E-12, 2.11E-12, 8.144E-11, -3.3344285714285739E-11, 2.11E-12, 5.8514E-12
DataValue, -1.09, 0.1, 7.83E-13, -1.4E-13, 9.9E-13, 8.9114285714285747E-12, 1.4E-13, 7.83E-13
DataValue, -1.02, 0.1, -4.6038E-12, 4.676E-11, 2.4000000000000003E-12, -4.9872857142857135E-11, 4.676E-11, 4.6038E-12
DataValue, -0.95000000000000007, 0.1, -6.1992E-12, 1.622E-11, 7.4700000000000011E-11, 3.9672857142857147E-11, 1.622E-11, 6.1992E-12
DataValue, -0.88, 0.1, 9.504E-13, -7.4000000000000008E-13, -3.7000000000000004E-13, 5.8642857142857123E-12, 7.4000000000000008E-13, 9.504E-13
DataValue, -0.81, 0.1, -5.3782E-12, 5.2540000000000007E-11, 4.43E-12, 3.5785714285714278E-11, 5.2540000000000007E-11, 5.3782E-12
DataValue, -0.74, 0.1, 5.9603999999999995E-12, -1.6600000000000002E-12, -8.3060000000000008E-11, 3.4182857142857142E-11, 1.6600000000000002E-12, 5.9603999999999995E-12
DataValue, -0.67, 0.1, -5.926E-13, 9.1000000000000016E-13, -3.8000000000000005E-13, -8.5842857142857128E-12, 9.1000000000000016E-13, 5.926E-13
DataValue, -0.6, 0.1, 4.7585999999999995E-12, -4.603E-11, -1.7200000000000001E-12, 4.9701428571428565E-11, 4.603E-11, 4.7585999999999995E-12
DataValue, -0.53, 0.1, 6.3656E-12, -1.4160000000000001E-11, -7.883E-11, -3.0562857142857146E-11, 1.4160000000000001E-11, 6.3656E-12
DataValue, -0.46, 0.1, 4.798E-13, 2.04E-12, -1.1000000000000002E-12, 4.6447142857142849E-11, 2.04E-12, 4.798E-13
DataValue, -0.39, 0.1, 1.28682E-11, -5.0310000000000005E-11, -1.1330000000000001E-11, 2.3293285714285707E-10, 5.0310000000000005E-11, 1.28682E-11
DataValue, -0.32, 0.1, 3.30904E-11, -7.1400000000000007E-12, -1.0737000000000001E-10, 3.9058E-10, 7.1400000000000007E-12, 3.30904E-11
DataValue, -0.25, 0.1, 6.75494E-11, -1.13E-12, -6.956E-11, 6.0864000000000008E-10, 1.13E-12, 6.75494E-11
DataValue, -0.18, 0.1, 1.1830000000000002E-10, 3.528E-11, -6.734000000000001E-11, 1.3011471428571427E-09, 3.528E-11, 1.1830000000000002E-10
DataValue, -0.11, 0.1, 2.4971E-10, -7.5E-13, -2.4783E-10, 1.3743571428571429E-09, 7.5E-13, 2.4971E-10
DataValue, -0.04, 0.1, 3.1071E-10, -2.3320000000000003E-11, -3.2912000000000005E-10, 1.8782857142857144E-09, 2.3320000000000003E-11, 3.1071E-10
DataValue, 0.03, 0.1, 5.1267E-10, 4.807E-11, -4.6923E-10, 3.8577857142857153E-09, 4.807E-11, 5.1267E-10
DataValue, 0.1, 0.1, 8.508000000000001E-10, -5E-13, -7.7027000000000007E-10, 6.4637857142857131E-09, 5E-13, 8.508000000000001E-10
DataValue, 0.17, 0.1, 1.4176E-09, -7.9000000000000007E-13, -1.2413E-09, 1.1067142857142859E-08, 7.9000000000000007E-13, 1.4176E-09
DataValue, 0.24, 0.1, 2.4002E-09, 1.0100000000000001E-12, -2.3319E-09, 1.4477857142857146E-08, 1.0100000000000001E-12, 2.4002E-09
DataValue, 0.31, 0.1, 3.4445E-09, -5.2890000000000004E-11, -3.4069E-09, 1.5485E-08, 5.2890000000000004E-11, 3.4445E-09
DataValue, 0.38, 0.1, 4.5681E-09, 3.18E-12, -4.4259E-09, 1.7616428571428571E-08, 3.18E-12, 4.5681E-09
DataValue, 0.45, 0.1, 5.9108E-09, 1.3E-13, -5.4897E-09, 1.9542857142857138E-08, 1.3E-13, 5.9108E-09
DataValue, 0.52, 0.1, 7.3041E-09, 2.7560000000000003E-11, -6.9054E-09, 1.9765000000000005E-08, 2.7560000000000003E-11, 7.3041E-09
DataValue, 0.59, 0.1, 8.6779E-09, 2.9300000000000002E-12, -8.4153E-09, 2.6420714285714279E-08, 2.9300000000000002E-12, 8.6779E-09
DataValue, 0.66, 0.1, 1.1003E-08, 2.8800000000000002E-12, -1.0856399999999998E-08, 4.0186428571428561E-08, 2.8800000000000002E-12, 1.1003E-08
DataValue, 0.73, 0.1, 1.4303999999999999E-08, 3.51E-12, -1.4089799999999998E-08, 5.3212857142857135E-08, 3.51E-12, 1.4303999999999999E-08
DataValue, 0.8, 0.1, 1.84528E-08, -3.3710000000000006E-11, -1.82622E-08, 6.7558571428571429E-08, 3.3710000000000006E-11, 1.84528E-08
DataValue, 0.87, 0.1, 2.37622E-08, 4.337E-11, -2.34852E-08, 8.5208571428571432E-08, 4.337E-11, 2.37622E-08
DataValue, 0.94000000000000006, 0.1, 3.0382E-08, 2.51E-12, -3.00312E-08, 1.0772142857142855E-07, 2.51E-12, 3.0382E-08
DataValue, 1.01, 0.1, 3.88432E-08, -4.4000000000000004E-13, -3.8387399999999993E-08, 1.3621428571428569E-07, 4.4000000000000004E-13, 3.88432E-08
DataValue, 1.08, 0.1, 4.9452E-08, 5.5150000000000005E-11, -4.8921399999999994E-08, 1.7261714285714271E-07, 5.5150000000000005E-11, 4.9452E-08
DataValue, 1.1500000000000001, 0.1, 6.30096E-08, -1.9580000000000002E-11, -6.23576E-08, 2.1852000000000008E-07, 1.9580000000000002E-11, 6.30096E-08
DataValue, 1.22, 0.1, 8.0044799999999989E-08, 6.0000000000000007E-13, -7.92732E-08, 2.7250285714285737E-07, 6.0000000000000007E-13, 8.0044799999999989E-08
DataValue, 1.29, 0.1, 1.0116E-07, 1.2900000000000002E-12, -1.0072E-07, 3.3810857142857115E-07, 1.2900000000000002E-12, 1.0116E-07
DataValue, 1.36, 0.1, 1.2738E-07, 5.1100000000000006E-12, -1.2648E-07, 4.1100000000000017E-07, 5.1100000000000006E-12, 1.2738E-07
DataValue, 1.43, 0.1, 1.5869999999999999E-07, 3.853E-11, -1.5792E-07, 4.91571428571429E-07, 3.853E-11, 1.5869999999999999E-07
DataValue, 1.5, 0.1, 1.962E-07, 1E-12, -1.9526E-07, 5.7714285714285674E-07, 1E-12, 1.962E-07
DataValue, 1.57, 0.1, 2.395E-07, -5.5040000000000005E-11, -2.3886E-07, 6.6699999999999929E-07, 5.5040000000000005E-11, 2.395E-07
DataValue, 1.6400000000000001, 0.1, 2.8958E-07, 2.59E-12, -2.887E-07, 7.5985714285714322E-07, 2.59E-12, 2.8958E-07
DataValue, 1.71, 0.1, 3.4587999999999997E-07, 1.59E-11, -3.452E-07, 8.5585714285714366E-07, 1.59E-11, 3.4587999999999997E-07
DataValue, 1.78, 0.1, 4.094E-07, 2.5940000000000003E-11, -4.0878E-07, 9.4828571428571368E-07, 2.5940000000000003E-11, 4.094E-07
DataValue, 1.85, 0.1, 4.7864E-07, -3.4E-13, -4.7814E-07, 1.029428571428572E-06, 3.4E-13, 4.7864E-07
DataValue, 1.92, 0.1, 5.5352E-07, -5.2970000000000006E-11, -5.5276E-07, 1.1104285714285722E-06, 5.2970000000000006E-11, 5.5352E-07
DataValue, 1.99, 0.1, 6.341E-07, 2.24E-12, -6.3314E-07, 1.1864285714285703E-06, 2.24E-12, 6.341E-07
DataValue, 2.06, 0.1, 7.1962E-07, 3.0360000000000006E-11, -7.1906E-07, 1.2578571428571438E-06, 3.0360000000000006E-11, 7.1962E-07
DataValue, 2.13, 0.1, 8.102E-07, 1.637E-11, -8.0918E-07, 1.3202857142857128E-06, 1.637E-11, 8.102E-07
DataValue, 2.2, 0.1, 9.0445999999999993E-07, 3.9000000000000005E-13, -9.0386E-07, 1.3777142857142851E-06, 3.9000000000000005E-13, 9.0445999999999993E-07
DataValue, 2.27, 0.1, 1.00308E-06, -5.0850000000000004E-11, -1.00272E-06, 1.4337142857142887E-06, 5.0850000000000004E-11, 1.00308E-06
DataValue, 2.34, 0.1, 1.10518E-06, 3.7400000000000006E-12, -1.1047E-06, 1.4765714285714272E-06, 3.7400000000000006E-12, 1.10518E-06
DataValue, 2.41, 0.1, 1.2098E-06, 9.3E-13, -1.2064000000000002E-06, 1.5108571428571425E-06, 9.3E-13, 1.2098E-06
DataValue, 2.48, 0.1, 1.3167E-06, 4.1500000000000007E-12, -1.3165000000000002E-06, 1.5721428571428558E-06, 4.1500000000000007E-12, 1.3167E-06
DataValue, 2.5500000000000003, 0.1, 1.4299E-06, 5.5740000000000006E-11, -1.43E-06, 1.6342857142857131E-06, 5.5740000000000006E-11, 1.4299E-06
DataValue, 2.62, 0.1, 1.5455E-06, 3.3E-13, -1.5459E-06, 1.6650000000000048E-06, 3.3E-13, 1.5455E-06
DataValue, 2.69, 0.1, 1.6630000000000002E-06, -5.139E-11, -1.6635000000000003E-06, 1.6964285714285703E-06, 5.139E-11, 1.6630000000000002E-06
DataValue, 2.7600000000000002, 0.1, 1.7830000000000001E-06, 3.85E-12, -1.7828000000000001E-06, 1.722142857142855E-06, 3.85E-12, 1.7830000000000001E-06
DataValue, 2.83, 0.1, 1.9041000000000001E-06, 5.412E-11, -1.9046000000000002E-06, 1.7464285714285751E-06, 5.412E-11, 1.9041000000000001E-06
DataValue, 2.9, 0.1, 2.0275E-06, 1.2000000000000001E-12, -2.0276000000000003E-06, 1.7699999999999983E-06, 1.2000000000000001E-12, 2.0275E-06
DataValue, 2.97, 0.1, 2.1519E-06, -4.7460000000000003E-11, -2.1522000000000003E-06, 1.7857142857142853E-06, 4.7460000000000003E-11, 2.1519E-06
DataValue, 3.04, 0.1, 2.2775000000000002E-06, 4.0900000000000005E-12, -2.2776000000000004E-06, 1.8007142857142904E-06, 4.0900000000000005E-12, 2.2775000000000002E-06
DataValue, 3.11, 0.1, 2.404E-06, 5.1150000000000006E-11, -2.4038E-06, 1.8064285714285709E-06, 5.1150000000000006E-11, 2.404E-06
DataValue, 3.18, 0.1, 2.5304000000000004E-06, 1.5700000000000002E-12, -2.5306000000000004E-06, 1.809285714285714E-06, 1.5700000000000002E-12, 2.5304000000000004E-06
DataValue, 3.25, 0.1, 2.6573000000000004E-06, -4.425E-11, -2.6579000000000004E-06, 1.8207142857142832E-06, 4.425E-11, 2.6573000000000004E-06
DataValue, 3.3200000000000003, 0.1, 2.7853000000000003E-06, 4.88E-12, -2.7857000000000003E-06, 1.8299999999999967E-06, 4.88E-12, 2.7853000000000003E-06
DataValue, 3.39, 0.1, 2.9135E-06, 4.792E-11, -2.9137E-06, 1.8335714285714328E-06, 4.792E-11, 2.9135E-06
DataValue, 3.46, 0.1, 3.0420000000000003E-06, 1.3400000000000002E-12, -3.0423000000000005E-06, 1.8321428571428554E-06, 1.3400000000000002E-12, 3.0420000000000003E-06
DataValue, 3.5300000000000002, 0.1, 3.17E-06, -4.0870000000000003E-11, -3.1703000000000004E-06, 1.8328571428571427E-06, 4.0870000000000003E-11, 3.17E-06
DataValue, 3.6, 0.1, 3.2986000000000005E-06, 4.73E-12, -3.2991000000000003E-06, 1.8400000000000063E-06, 4.73E-12, 3.2986000000000005E-06
DataValue, 3.67, 0.1, 3.4276000000000004E-06, 4.4410000000000005E-11, -3.4278000000000005E-06, 1.8399999999999974E-06, 4.4410000000000005E-11, 3.4276000000000004E-06
DataValue, 3.74, 0.1, 3.5562000000000004E-06, 1.2500000000000001E-12, -3.5565E-06, 1.8407142857142847E-06, 1.2500000000000001E-12, 3.5562000000000004E-06
DataValue, 3.81, 0.1, 3.6853000000000005E-06, -3.973E-11, -3.6857000000000006E-06, 1.8378571428571476E-06, 3.973E-11, 3.6853000000000005E-06
DataValue, 3.88, 0.1, 3.8135000000000004E-06, 5.09E-12, -3.8139000000000004E-06, 1.8364285714285702E-06, 5.09E-12, 3.8135000000000004E-06
DataValue, 3.95, 0.1, 3.9424000000000006E-06, 4.5140000000000005E-11, -3.9427E-06, 1.8407142857142758E-06, 4.5140000000000005E-11, 3.9424000000000006E-06
DataValue, 4.0200000000000005, 0.1, 4.0712E-06, 9.2000000000000012E-13, -4.0713E-06, 1.8307142857142867E-06, 9.2000000000000012E-13, 4.0712E-06
DataValue, 4.09, 0.1, 4.1987E-06, -3.7530000000000005E-11, -4.1991E-06, 1.8285714285714371E-06, 3.7530000000000005E-11, 4.1987E-06
DataValue, 4.16, 0.1, 4.3272000000000007E-06, 5.619E-11, -4.3265000000000008E-06, 1.8264285714285635E-06, 5.619E-11, 4.3272000000000007E-06
DataValue, 4.23, 0.1, 4.4544E-06, 1.74E-12, -4.4542000000000005E-06, 1.8142857142857156E-06, 1.74E-12, 4.4544E-06
DataValue, 4.3, 0.1, 4.5812E-06, -4.606E-11, -4.5821000000000006E-06, 1.8192857142857205E-06, 4.606E-11, 4.5812E-06
DataValue, 4.37, 0.1, 4.7091E-06, 5.1100000000000006E-12, -4.709E-06, 1.8214285714285648E-06, 5.1100000000000006E-12, 4.7091E-06
DataValue, 4.44, 0.1, 4.8362E-06, 5.0020000000000005E-11, -4.8364000000000008E-06, 1.81571428571429E-06, 5.0020000000000005E-11, 4.8362E-06
DataValue, 4.51, 0.1, 4.9633E-06, 1.08E-12, -4.9630000000000006E-06, 1.8078571428571483E-06, 1.08E-12, 4.9633E-06
DataValue, 4.58, 0.1, 5.0893000000000006E-06, -4.261E-11, -5.0894000000000008E-06, 1.805714285714281E-06, 4.261E-11, 5.0893000000000006E-06
DataValue, 4.65, 0.1, 5.2161000000000008E-06, 5.7590000000000005E-11, -5.214E-06, 1.7900000000000023E-06, 5.7590000000000005E-11, 5.2161000000000008E-06
DataValue, 4.72, 0.1, 5.3399E-06, 2.9E-12, -5.3392000000000005E-06, 1.7771428571428617E-06, 2.9E-12, 5.3399E-06
DataValue, 4.79, 0.1, 5.4649000000000008E-06, -4.949E-11, -5.4648000000000006E-06, 1.7857142857142795E-06, 4.949E-11, 5.4649000000000008E-06
DataValue, 4.86, 0.1, 5.5899000000000005E-06, 5.1200000000000008E-12, -5.5896000000000007E-06, 1.7850000000000037E-06, 5.1200000000000008E-12, 5.5899000000000005E-06
DataValue, 4.93, 0.1, 5.7148000000000007E-06, 5.6330000000000007E-11, -5.7142E-06, 1.7757142857142932E-06, 5.6330000000000007E-11, 5.7148000000000007E-06
DataValue, 5, 0.1, 5.8385000000000009E-06, 2.85E-12, -5.8379000000000005E-06, 1.7085714285714168E-06, 2.85E-12, 5.8385000000000009E-06
DataValue, 5, 0.1, 5.8344E-06, 2.2000000000000003E-12, -5.8337000000000006E-06, 1.9828571428571388E-06, 2.2000000000000003E-12, 5.8344E-06
DataValue, 4.93, 0.1, 5.6997000000000007E-06, -5.2360000000000007E-11, -5.6991E-06, 1.9285714285714327E-06, 5.2360000000000007E-11, 5.6997000000000007E-06
