
SetupTitle, TFT sat RollOut
PrimitiveTest, I/V Sweep
TestParameter, Context.MainFrame, B1500A
TestParameter, Channel.UnitType, SMU, SMU, SMU
TestParameter, Channel.Unit, SMU2:HR, SMU3:MP, SMU4:MP
TestParameter, Channel.IName, ID, IG, IS
TestParameter, Channel.VName, VD, VG, VS
TestParameter, Channel.Mode, V, V, COMMON
TestParameter, Channel.Func, CONST, VAR1, CONST
TestParameter, Channel.Index, 
TestParameter, Channel.Time, 
TestParameter, Measurement.Port.Unit, SMU2:HR, SMU3:MP, SMU4:MP
TestParameter, Measurement.Port.SeriesResistor, NONE, NONE, NONE
TestParameter, Measurement.Port.Filter, ON, ON, ON
TestParameter, Measurement.Port.OutputVoltageComparison, 0, 0, 0
TestParameter, Measurement.Primary.Locus, Double
TestParameter, Measurement.Primary.Scale, LINEAR
TestParameter, Measurement.Primary.Start, -2
TestParameter, Measurement.Primary.Stop, 3
TestParameter, Measurement.Primary.Step, 0.05
TestParameter, Measurement.Primary.Compliance, 1E-06
TestParameter, Measurement.Primary.PowerCompliance, 0
TestParameter, Measurement.Aborting.Condition, CONTINUE AT ANY
TestParameter, Measurement.PostOutput.Value, START
TestParameter, Measurement.PostOutput.Retention, OFF
TestParameter, Measurement.Bias.Source, 3, -2, 0
TestParameter, Measurement.Bias.Compliance, 0.001, 1E-06, 0.1
TestParameter, Measurement.Monitor.Unit, SMU2:HR, SMU3:MP, SMU4:MP
TestParameter, Measurement.Monitor.Adc, HR ADC, HR ADC, HR ADC
TestParameter, Measurement.Monitor.Measurement, Compliance Side, Compliance Side, Compliance Side
TestParameter, Measurement.Monitor.RangingMode, LIMITED, LIMITED, LIMITED
TestParameter, Measurement.Monitor.RangeBoundary, 100pA, 1nA, 1nA
TestParameter, Measurement.Monitor.RangeRating, BY FULL RANGE, BY FULL RANGE, BY FULL RANGE
TestParameter, Measurement.Monitor.RangeRatingCoeff, 50, 50, 50
TestParameter, Measurement.Timing.Hold, 0.5
TestParameter, Measurement.Timing.Delay, 0.05
TestParameter, Measurement.Adc.HighSpeed.Mode, AUTO
TestParameter, Measurement.Adc.HighSpeed.Coeff, 1
TestParameter, Measurement.Adc.HighResolution.AutoZero, OFF
TestParameter, Measurement.Adc.HighResolution.Mode, AUTO
TestParameter, Measurement.Adc.HighResolution.Coeff, 6
TestParameter, Measurement.WaitTime.Source.Coeff, 1
TestParameter, Measurement.WaitTime.Source.Offset, 0
TestParameter, Measurement.WaitTime.Monitor.Coeff, 1
TestParameter, Measurement.WaitTime.Monitor.Offset, 0
TestParameter, Function.Analysis.Name, dIddVg, absIg, absId
TestParameter, Function.Analysis.Unit, S, A, A
TestParameter, Function.Analysis.Definition, (delta(sqrt(ID))/delta(VG))^2, abs(IG), abs(ID)
TestParameter, Output.Graph.Enabled, true
TestParameter, Output.Graph.AutoScaling, false
TestParameter, Output.Graph.XAxis.Data, VG
TestParameter, Output.Graph.XAxis.Scale, Linear
TestParameter, Output.Graph.XAxis.Left, -2
TestParameter, Output.Graph.XAxis.Right, 6
TestParameter, Output.Graph.XAxis.RunTimeAutoScale, true
TestParameter, Output.Graph.YAxis.Data, absId, absIg, dIddVg, IS
TestParameter, Output.Graph.YAxis.Scale, Log, Log, Linear, Linear
TestParameter, Output.Graph.YAxis.Bottom, 0, 0, 0, -0.1
TestParameter, Output.Graph.YAxis.Top, 1, 1, 1, 0.1
TestParameter, Output.Graph.YAxis.Group, , , , 
TestParameter, Output.Graph.YAxis.RunTimeAutoScale, true, true, true, false
TestParameter, Output.List.Data, VG, IG, ID, IS, VD, dIddVg, absIg, absId
TestParameter, AutoAnalysis.Interpolation, false
TestParameter, AutoAnalysis.Line1.Enabled, false
TestParameter, AutoAnalysis.Line1.Type, 1
TestParameter, AutoAnalysis.Line1.Fix, True
TestParameter, AutoAnalysis.Line1.YAxis, 0
TestParameter, AutoAnalysis.Line1.Point1.Type, 0
TestParameter, AutoAnalysis.Line1.Point1.XY.X, 
TestParameter, AutoAnalysis.Line1.Point1.XY.Y, 
TestParameter, AutoAnalysis.Line1.Point1.Data.Var, 
TestParameter, AutoAnalysis.Line1.Point1.Data.Condition, 
TestParameter, AutoAnalysis.Line1.Point1.Data.Start, false
TestParameter, AutoAnalysis.Line1.Point1.Data.StartVar, 
TestParameter, AutoAnalysis.Line1.Point1.Data.StartCondition, 
TestParameter, AutoAnalysis.Line1.Point2.Type, 0
TestParameter, AutoAnalysis.Line1.Point2.XY.X, 
TestParameter, AutoAnalysis.Line1.Point2.XY.Y, 
TestParameter, AutoAnalysis.Line1.Point2.Data.Var, 
TestParameter, AutoAnalysis.Line1.Point2.Data.Condition, 
TestParameter, AutoAnalysis.Line1.Point2.Data.Start, false
TestParameter, AutoAnalysis.Line1.Point2.Data.StartVar, 
TestParameter, AutoAnalysis.Line1.Point2.Data.StartCondition, 
TestParameter, AutoAnalysis.Line1.GradientExpr, 0
TestParameter, AutoAnalysis.Line2.Enabled, false
TestParameter, AutoAnalysis.Line2.Type, 1
TestParameter, AutoAnalysis.Line2.Fix, True
TestParameter, AutoAnalysis.Line2.YAxis, 0
TestParameter, AutoAnalysis.Line2.Point1.Type, 0
TestParameter, AutoAnalysis.Line2.Point1.XY.X, 
TestParameter, AutoAnalysis.Line2.Point1.XY.Y, 
TestParameter, AutoAnalysis.Line2.Point1.Data.Var, 
TestParameter, AutoAnalysis.Line2.Point1.Data.Condition, 
TestParameter, AutoAnalysis.Line2.Point1.Data.Start, false
TestParameter, AutoAnalysis.Line2.Point1.Data.StartVar, 
TestParameter, AutoAnalysis.Line2.Point1.Data.StartCondition, 
TestParameter, AutoAnalysis.Line2.Point2.Type, 0
TestParameter, AutoAnalysis.Line2.Point2.XY.X, 
TestParameter, AutoAnalysis.Line2.Point2.XY.Y, 
TestParameter, AutoAnalysis.Line2.Point2.Data.Var, 
TestParameter, AutoAnalysis.Line2.Point2.Data.Condition, 
TestParameter, AutoAnalysis.Line2.Point2.Data.Start, false
TestParameter, AutoAnalysis.Line2.Point2.Data.StartVar, 
TestParameter, AutoAnalysis.Line2.Point2.Data.StartCondition, 
TestParameter, AutoAnalysis.Line2.GradientExpr, 0
TestParameter, AutoAnalysis.Marker.Enabled, false
TestParameter, AutoAnalysis.Marker.Data.Var, 
TestParameter, AutoAnalysis.Marker.Data.Condition, 
TestParameter, AutoAnalysis.Marker.Data.Start, false
TestParameter, AutoAnalysis.Marker.Data.StartVar, 
TestParameter, AutoAnalysis.Marker.Data.StartCondition, 
MetaData, TestRecord.EntryPoint, true
MetaData, TestRecord.RecordTime, 07/03/2019 11:19:46
MetaData, TestRecord.TestTarget, 6-42
MetaData, TestRecord.IterationIndex, 1
MetaData, TestRecord.Preservation, true
MetaData, TestRecord.Flag, 
MetaData, TestRecord.Remarks, good
MetaData, TestRecord.LinkKey, 50c43192-64f4-4a33-97b6-67f20b5381d7
Dimension1, 202, 202, 202, 202, 202, 202, 202, 202
Dimension2, 1, 1, 1, 1, 1, 1, 1, 1
DataName, VG, VD, ID, IG, IS, dIddVg, absIg, absId
DataValue, -2, 3, 8.5350000000000008E-11, -1.0709E-10, -5.9E-13, 1.7365853028842806E-08, 1.0709E-10, 8.5350000000000008E-11
DataValue, -1.95, 3, 7.02E-12, -5.2100000000000006E-11, 2.2500000000000003E-12, 6.9178378569814413E-10, 5.2100000000000006E-11, 7.02E-12
DataValue, -1.9000000000000001, 3, 4.367E-11, -2.522E-11, 5.5090000000000007E-11, 3.7758420627622606E-09, 2.522E-11, 4.367E-11
DataValue, -1.85, 3, 7.734E-11, -3.7230000000000004E-11, -8.5000000000000011E-13, 1.1895222707873623E-11, 3.7230000000000004E-11, 7.734E-11
DataValue, -1.8, 3, 3.92306E-11, -4.4410000000000005E-11, 7.0480000000000011E-11, 4.1408509276003784E-10, 4.4410000000000005E-11, 3.92306E-11
DataValue, -1.75, 3, 4.56896E-11, -4.5430000000000005E-11, 4.36E-12, 9.7896765065139742E-11, 4.5430000000000005E-11, 4.56896E-11
DataValue, -1.7, 3, 5.2604E-11, -9.4190000000000013E-11, 3.2200000000000004E-12, 1.6537608509246808E-11, 9.4190000000000013E-11, 5.2604E-11
DataValue, -1.6500000000000001, 3, 5.13526E-11, -6E-11, -6.04E-11, 4.5114891856794124E-11, 6E-11, 5.13526E-11
DataValue, -1.6, 3, 4.3312E-11, -4.1680000000000005E-11, 3.5000000000000004E-12, 2.6545502188933897E-11, 4.1680000000000005E-11, 4.3312E-11
DataValue, -1.55, 3, 4.42338E-11, -8.6260000000000008E-11, 1.5000000000000002E-13, 7.3386485183630708E-11, 8.6260000000000008E-11, 4.42338E-11
DataValue, -1.5, 3, 3.27702E-11, -3.9320000000000006E-11, 6.943E-11, 1.2160769208781653E-11, 3.9320000000000006E-11, 3.27702E-11
DataValue, -1.45, 3, 3.97168E-11, -3.8840000000000005E-11, 1.98E-12, 6.7134648809864163E-13, 3.8840000000000005E-11, 3.97168E-11
DataValue, -1.4000000000000001, 3, 3.3715E-11, 7.8000000000000011E-13, -1.6800000000000001E-12, 5.7469253110796589E-11, 7.8000000000000011E-13, 3.3715E-11
DataValue, -1.35, 3, 3.07364E-11, -1.139E-11, 5.1850000000000007E-11, 6.3897202109043852E-12, 1.139E-11, 3.07364E-11
DataValue, -1.3, 3, 3.67144E-11, -3.449E-11, -2.8800000000000002E-12, 1.7541828087461047E-11, 3.449E-11, 3.67144E-11
DataValue, -1.25, 3, 2.62678E-11, 9.7200000000000014E-12, -1.7000000000000002E-12, 1.587892223353756E-10, 9.7200000000000014E-12, 2.62678E-11
DataValue, -1.2, 3, 2.30316E-11, -1.0700000000000001E-11, 5.901E-11, 6.5991326982599055E-12, 1.0700000000000001E-11, 2.30316E-11
DataValue, -1.1500000000000001, 3, 2.8966999999999998E-11, -2.715E-11, -3.6900000000000006E-12, 7.1699438186751131E-12, 2.715E-11, 2.8966999999999998E-11
DataValue, -1.1, 3, 2.0533199999999998E-11, 1.883E-11, -1.6300000000000001E-12, 1.1158051731398191E-10, 1.883E-11, 2.0533199999999998E-11
DataValue, -1.05, 3, 1.87124E-11, -8.52E-12, 5.6650000000000006E-11, 2.8785567229167153E-11, 8.52E-12, 1.87124E-11
DataValue, -1, 3, 2.56834E-11, -2.551E-11, 2.3000000000000003E-13, 8.1452850506165646E-15, 2.551E-11, 2.56834E-11
DataValue, -0.95000000000000007, 3, 1.8634399999999998E-11, 1.9970000000000003E-11, -1.22E-12, 1.1879145706715623E-10, 1.9970000000000003E-11, 1.8634399999999998E-11
DataValue, -0.9, 3, 1.58242E-11, -6.97E-12, 6.086000000000001E-11, 1.3225535112653923E-11, 6.97E-12, 1.58242E-11
DataValue, -0.85, 3, 2.1906399999999998E-11, -2.229E-11, -3.9300000000000004E-12, 2.6601167679292996E-12, 2.229E-11, 2.1906399999999998E-11
DataValue, -0.8, 3, 1.45532E-11, 2.6790000000000002E-11, -1.3900000000000001E-12, 1.251431803959376E-11, 2.6790000000000002E-11, 1.45532E-11
DataValue, -0.75, 3, 2.5343E-11, -2.07E-11, -6.965E-11, 2.5776235781408404E-11, 2.07E-11, 2.5343E-11
DataValue, -0.70000000000000007, 3, 1.86846E-11, -1.8580000000000002E-11, -3.2600000000000002E-12, 2.5541410117571861E-10, 1.8580000000000002E-11, 1.86846E-11
DataValue, -0.65, 3, 1.18062E-11, 3.1550000000000003E-11, -1.18E-12, 1.8748595184186462E-11, 3.1550000000000003E-11, 1.18062E-11
DataValue, -0.6, 3, 2.26154E-11, -1.733E-11, -7.1340000000000009E-11, 3.4880404249966343E-11, 1.733E-11, 2.26154E-11
DataValue, -0.55, 3, 1.62136E-11, -1.4740000000000002E-11, -2.5000000000000003E-12, 2.0181963376208196E-12, 1.4740000000000002E-11, 1.62136E-11
DataValue, -0.5, 3, 2.12844E-11, -5.0700000000000003E-11, -1.51E-12, 1.6727566209711026E-10, 5.0700000000000003E-11, 2.12844E-11
DataValue, -0.45, 3, 2.8302E-11, -3.907E-11, -5.85E-11, 2.0894930785333374E-10, 3.907E-11, 2.8302E-11
DataValue, -0.4, 3, 3.67116E-11, -1.2140000000000001E-11, -1.9950000000000003E-11, 1.9251590659939008E-09, 1.2140000000000001E-11, 3.67116E-11
DataValue, -0.35000000000000003, 3, 9.4238E-11, -5.484E-11, -7.48E-11, 8.7612110838268531E-09, 5.484E-11, 9.4238E-11
DataValue, -0.3, 3, 2.3775000000000003E-10, 1.343E-11, -2.0790000000000003E-10, 1.678636883989249E-08, 1.343E-11, 2.3775000000000003E-10
DataValue, -0.25, 3, 5.1365000000000008E-10, -4.519E-11, -5.3622E-10, 1.8958170651526611E-08, 4.519E-11, 5.1365000000000008E-10
DataValue, -0.2, 3, 8.5194000000000006E-10, -1.026E-11, -8.3848000000000009E-10, 1.5774666165950897E-08, 1.026E-11, 8.5194000000000006E-10
DataValue, -0.15, 3, 1.2407E-09, 3.8840000000000005E-11, -1.2126E-09, 1.6289801947044892E-08, 3.8840000000000005E-11, 1.2407E-09
DataValue, -0.1, 3, 1.7599E-09, -5.7800000000000008E-12, -1.6818E-09, 1.5731493614013203E-08, 5.7800000000000008E-12, 1.7599E-09
DataValue, -0.05, 3, 2.2816E-09, -1.1930000000000001E-11, -2.2163E-09, 9.0763512228399216E-09, 1.1930000000000001E-11, 2.2816E-09
DataValue, 0, 3, 2.65E-09, -3.8620000000000005E-11, -2.6279E-09, 6.3547716559952509E-09, 3.8620000000000005E-11, 2.65E-09
DataValue, 0.05, 3, 3.1067E-09, 2.837E-11, -3.0388E-09, 7.8853464819729191E-09, 2.837E-11, 3.1067E-09
DataValue, 0.1, 3, 3.6431E-09, -8.9900000000000011E-12, -3.6243E-09, 7.1920550959821556E-09, 8.9900000000000011E-12, 3.6431E-09
DataValue, 0.15, 3, 4.124E-09, -1.322E-11, -4.1093E-09, 7.74854925384766E-09, 1.322E-11, 4.124E-09
DataValue, 0.2, 3, 4.7832E-09, 4.4E-11, -4.7239E-09, 1.0704715577189217E-08, 4.4E-11, 4.7832E-09
DataValue, 0.25, 3, 5.5599E-09, -8.87E-12, -5.5351E-09, 1.1597753982020887E-08, 8.87E-12, 5.5599E-09
DataValue, 0.3, 3, 6.3888E-09, -5.63E-12, -6.3418E-09, 1.4027076520466687E-08, 5.63E-12, 6.3888E-09
DataValue, 0.35000000000000003, 3, 7.4664E-09, 3.868E-11, -7.1275E-09, 1.592784689006355E-08, 3.868E-11, 7.4664E-09
DataValue, 0.4, 3, 8.5656E-09, 2.7510000000000004E-11, -8.2144E-09, 1.1763512783907976E-08, 2.7510000000000004E-11, 8.5656E-09
DataValue, 0.45, 3, 9.4584E-09, 4.432E-11, -9.1547E-09, 5.9154267415748651E-09, 4.432E-11, 9.4584E-09
DataValue, 0.5, 3, 1.0048399999999999E-08, 4.2890000000000006E-11, -9.7798E-09, 2.1175419369156044E-08, 4.2890000000000006E-11, 1.0048399999999999E-08
DataValue, 0.55, 3, 1.2500599999999999E-08, -2.8600000000000003E-12, -1.2310599999999998E-08, 4.823750530739258E-08, 2.8600000000000003E-12, 1.2500599999999999E-08
DataValue, 0.6, 3, 1.4934E-08, -1.59E-12, -1.4826399999999998E-08, 5.09349230935002E-08, 1.59E-12, 1.4934E-08
DataValue, 0.65, 3, 1.80566E-08, -6.1800000000000007E-12, -1.78228E-08, 5.9686675155215144E-08, 6.1800000000000007E-12, 1.80566E-08
DataValue, 0.70000000000000007, 3, 2.1502E-08, 4.6480000000000004E-11, -2.11944E-08, 6.3963732867003E-08, 4.6480000000000004E-11, 2.1502E-08
DataValue, 0.75, 3, 2.5493199999999996E-08, -1.149E-11, -2.5291799999999998E-08, 7.8676078080751569E-08, 1.149E-11, 2.5493199999999996E-08
DataValue, 0.8, 3, 3.0514799999999995E-08, -5.3000000000000004E-12, -3.0219999999999995E-08, 9.4795130439877621E-08, 5.3000000000000004E-12, 3.0514799999999995E-08
DataValue, 0.85, 3, 3.6272999999999997E-08, 1.93E-11, -3.58124E-08, 1.0999229805245928E-07, 1.93E-11, 3.6272999999999997E-08
DataValue, 0.9, 3, 4.32016E-08, -4.6310000000000006E-11, -4.2780599999999996E-08, 1.2682521223877756E-07, 4.6310000000000006E-11, 4.32016E-08
DataValue, 0.95000000000000007, 3, 5.1106399999999996E-08, -3.66E-12, -5.0726399999999996E-08, 1.5280380935844612E-07, 3.66E-12, 5.1106399999999996E-08
DataValue, 1, 3, 6.0979399999999988E-08, 3.9000000000000005E-13, -6.0378599999999992E-08, 1.8746467065259652E-07, 3.9000000000000005E-13, 6.0979399999999988E-08
DataValue, 1.05, 3, 7.255719999999999E-08, -5.022E-11, -7.2010199999999992E-08, 2.0646525639984825E-07, 5.022E-11, 7.255719999999999E-08
DataValue, 1.1, 3, 8.54852E-08, -5.3340000000000007E-11, -8.449E-08, 2.4386917372038182E-07, 5.3340000000000007E-11, 8.54852E-08
DataValue, 1.1500000000000001, 3, 1.016E-07, -5.128E-11, -1.009E-07, 3.0867195967491843E-07, 5.128E-11, 1.016E-07
DataValue, 1.2, 3, 1.2106E-07, 1.4E-13, -1.2032E-07, 3.5984625628804563E-07, 1.4E-13, 1.2106E-07
DataValue, 1.25, 3, 1.4344E-07, 2.3430000000000003E-11, -1.4254E-07, 4.0724278537927449E-07, 2.3430000000000003E-11, 1.4344E-07
DataValue, 1.3, 3, 1.6954E-07, 1.372E-11, -1.688E-07, 4.6313203642457195E-07, 1.372E-11, 1.6954E-07
DataValue, 1.35, 3, 1.9961999999999998E-07, -1.3500000000000001E-12, -1.9954E-07, 5.4128805117939032E-07, 1.3500000000000001E-12, 1.9961999999999998E-07
DataValue, 1.4000000000000001, 3, 2.3554E-07, -4.7690000000000005E-11, -2.3423999999999999E-07, 6.2389583256194875E-07, 4.7690000000000005E-11, 2.3554E-07
DataValue, 1.45, 3, 2.7644E-07, 1.1500000000000002E-12, -2.7558E-07, 6.9808450149535179E-07, 1.1500000000000002E-12, 2.7644E-07
DataValue, 1.5, 3, 3.2362E-07, 4.1390000000000005E-11, -3.2282E-07, 7.84456736700167E-07, 4.1390000000000005E-11, 3.2362E-07
DataValue, 1.55, 3, 3.7742E-07, 3.7400000000000006E-12, -3.7678E-07, 8.812657189218649E-07, 3.7400000000000006E-12, 3.7742E-07
DataValue, 1.6, 3, 4.3924E-07, -7.9000000000000007E-13, -4.381E-07, 9.8258076483669027E-07, 7.9000000000000007E-13, 4.3924E-07
DataValue, 1.6500000000000001, 3, 5.0904E-07, -3.638E-11, -5.0774E-07, 1.0978148936181139E-06, 3.638E-11, 5.0904E-07
DataValue, 1.7, 3, 5.891E-07, 2.67E-12, -5.875E-07, 1.2142312223626954E-06, 2.67E-12, 5.891E-07
DataValue, 1.75, 3, 6.7842E-07, 5.19E-11, -6.7776E-07, 1.3634725964983858E-06, 5.19E-11, 6.7842E-07
DataValue, 1.8, 3, 7.8198E-07, 8.6000000000000007E-13, -7.8008E-07, 1.515629761153458E-06, 8.6000000000000007E-13, 7.8198E-07
DataValue, 1.85, 3, 8.9638E-07, -1.231E-11, -8.9434E-07, 1.4807428268971966E-06, 1.231E-11, 8.9638E-07
DataValue, 1.9000000000000001, 3, 1.012E-06, 4.166E-11, -1.0039E-06, 1.6606414153993449E-06, 4.166E-11, 1.012E-06
DataValue, 1.95, 3, 1.157E-06, -1.0300000000000001E-11, -1.1557000000000002E-06, 2.0778738213496961E-06, 1.0300000000000001E-11, 1.157E-06
DataValue, 2, 3, 1.3228E-06, 6.81E-12, -1.3201E-06, 2.3452024343963061E-06, 6.81E-12, 1.3228E-06
DataValue, 2.05, 3, 1.5099000000000002E-06, 1.0400000000000001E-11, -1.5080000000000002E-06, 2.5120603352683814E-06, 1.0400000000000001E-11, 1.5099000000000002E-06
DataValue, 2.1, 3, 1.7125000000000001E-06, -5.8600000000000005E-12, -1.7102000000000002E-06, 2.7068653220206846E-06, 5.8600000000000005E-12, 1.7125000000000001E-06
DataValue, 2.15, 3, 1.9413000000000004E-06, -4.72E-12, -1.9368000000000002E-06, 3.013793904203884E-06, 4.72E-12, 1.9413000000000004E-06
DataValue, 2.2, 3, 2.1970000000000003E-06, 1.498E-11, -2.1903E-06, 3.3125481872673639E-06, 1.498E-11, 2.1970000000000003E-06
DataValue, 2.25, 3, 2.4816E-06, 6.41E-12, -2.4775000000000004E-06, 3.6584700688779294E-06, 6.41E-12, 2.4816E-06
DataValue, 2.3000000000000003, 3, 2.8006000000000003E-06, -1.58E-11, -2.7941000000000005E-06, 4.01326041276123E-06, 1.58E-11, 2.8006000000000003E-06
DataValue, 2.35, 3, 3.1529000000000003E-06, 8.9E-13, -3.1505E-06, 4.4527973902698613E-06, 8.9E-13, 3.1529000000000003E-06
DataValue, 2.4, 3, 3.5514000000000004E-06, 2.5560000000000003E-11, -3.5442000000000003E-06, 4.887706712306728E-06, 2.5560000000000003E-11, 3.5514000000000004E-06
DataValue, 2.45, 3, 3.9869000000000007E-06, 2.8400000000000004E-12, -3.9821E-06, 5.3033070776689619E-06, 2.8400000000000004E-12, 3.9869000000000007E-06
DataValue, 2.5, 3, 4.4724000000000006E-06, -2.646E-11, -4.4669E-06, 5.7833404284426466E-06, 2.646E-11, 4.4724000000000006E-06
DataValue, 2.5500000000000003, 3, 5.0051000000000006E-06, 2.2000000000000003E-12, -4.9934E-06, 6.2003752751254254E-06, 2.2000000000000003E-12, 5.0051000000000006E-06
DataValue, 2.6, 3, 5.5876000000000005E-06, 3.369E-11, -5.5765000000000007E-06, 6.7407694754662E-06, 3.369E-11, 5.5876000000000005E-06
DataValue, 2.65, 3, 6.2342E-06, 1.3000000000000001E-12, -6.2211000000000005E-06, 7.2484569418304139E-06, 1.3000000000000001E-12, 6.2342E-06
DataValue, 2.7, 3, 6.932900000000001E-06, -3.3560000000000005E-11, -6.9223000000000006E-06, 7.6461854888912155E-06, 3.3560000000000005E-11, 6.932900000000001E-06
DataValue, 2.75, 3, 7.6915E-06, 3.1E-12, -7.6745E-06, 8.0605112006006481E-06, 3.1E-12, 7.6915E-06
DataValue, 2.8000000000000003, 3, 8.5086E-06, 4.341E-11, -8.4872E-06, 8.5073243633120141E-06, 4.341E-11, 8.5086E-06
DataValue, 2.85, 3, 9.3944000000000011E-06, 5.8000000000000005E-13, -9.3730000000000016E-06, 8.802633895418093E-06, 5.8000000000000005E-13, 9.3944000000000011E-06
DataValue, 2.9, 3, 1.03275E-05, -4.5290000000000006E-11, -1.0306200000000001E-05, 7.9305069681008228E-06, 4.5290000000000006E-11, 1.03275E-05
DataValue, 2.95, 3, 1.1200000000000001E-05, -4.3720000000000005E-11, -1.1046E-05, 8.31495495560579E-06, 4.3720000000000005E-11, 1.1200000000000001E-05
DataValue, 3, 3, 1.2264E-05, 4.82E-12, -1.224E-05, 6.5370495131670084E-06, 4.82E-12, 1.2264E-05
DataValue, 3, 3, 1.2072E-05, 3.5700000000000003E-12, -1.2068E-05, 2.4861838503204422E-05, 3.5700000000000003E-12, 1.2072E-05
DataValue, 2.95, 3, 1.058E-05, 2.531E-11, -1.0588000000000001E-05, 1.6986157898205293E-05, 2.531E-11, 1.058E-05
DataValue, 2.9, 3, 9.3779E-06, -3.2580000000000005E-11, -9.4092000000000013E-06, 1.3400495138147975E-05, 3.2580000000000005E-11, 9.3779E-06
