
SetupTitle, output RollOut
PrimitiveTest, I/V Sweep
TestParameter, Context.MainFrame, B1500A
TestParameter, Channel.UnitType, SMU, SMU, SMU
TestParameter, Channel.Unit, SMU2:HR, SMU3:MP, SMU4:MP
TestParameter, Channel.IName, ID, IG, IS
TestParameter, Channel.VName, VD, VG, VS
TestParameter, Channel.Mode, V, V, COMMON
TestParameter, Channel.Func, VAR1, VAR2, CONST
TestParameter, Channel.Index, 
TestParameter, Channel.Time, 
TestParameter, Measurement.Port.Unit, SMU2:HR, SMU3:MP, SMU4:MP
TestParameter, Measurement.Port.SeriesResistor, NONE, NONE, NONE
TestParameter, Measurement.Port.Filter, ON, ON, ON
TestParameter, Measurement.Port.OutputVoltageComparison, 0, 0, 0
TestParameter, Measurement.Primary.Locus, Single
TestParameter, Measurement.Primary.Scale, LINEAR
TestParameter, Measurement.Primary.Start, 0
TestParameter, Measurement.Primary.Stop, 5
TestParameter, Measurement.Primary.Step, 0.1
TestParameter, Measurement.Primary.Compliance, 0.01
TestParameter, Measurement.Primary.PowerCompliance, 0
TestParameter, Measurement.Aborting.Condition, CONTINUE AT ANY
TestParameter, Measurement.PostOutput.Value, START
TestParameter, Measurement.PostOutput.Retention, OFF
TestParameter, Measurement.Secondary.Start, 0
TestParameter, Measurement.Secondary.Count, 7
TestParameter, Measurement.Secondary.Step, 0.5
TestParameter, Measurement.Secondary.Compliance, 1E-06
TestParameter, Measurement.Secondary.PowerCompliance, 0
TestParameter, Measurement.Bias.Source, 0, 0, 0
TestParameter, Measurement.Bias.Compliance, 0.01, 1E-06, 0.1
TestParameter, Measurement.Monitor.Unit, SMU2:HR, SMU3:MP, SMU4:MP
TestParameter, Measurement.Monitor.Adc, HR ADC, HR ADC, HR ADC
TestParameter, Measurement.Monitor.Measurement, Compliance Side, Compliance Side, Compliance Side
TestParameter, Measurement.Monitor.RangingMode, LIMITED, LIMITED, LIMITED
TestParameter, Measurement.Monitor.RangeBoundary, 100pA, 1nA, 1nA
TestParameter, Measurement.Monitor.RangeRating, BY FULL RANGE, BY FULL RANGE, BY FULL RANGE
TestParameter, Measurement.Monitor.RangeRatingCoeff, 50, 50, 50
TestParameter, Measurement.Timing.Hold, 0.5
TestParameter, Measurement.Timing.Delay, 0.05
TestParameter, Measurement.Adc.HighSpeed.Mode, AUTO
TestParameter, Measurement.Adc.HighSpeed.Coeff, 1
TestParameter, Measurement.Adc.HighResolution.AutoZero, OFF
TestParameter, Measurement.Adc.HighResolution.Mode, AUTO
TestParameter, Measurement.Adc.HighResolution.Coeff, 6
TestParameter, Measurement.WaitTime.Source.Coeff, 1
TestParameter, Measurement.WaitTime.Source.Offset, 0
TestParameter, Measurement.WaitTime.Monitor.Coeff, 1
TestParameter, Measurement.WaitTime.Monitor.Offset, 0
TestParameter, Function.Analysis.Name, absIg, absId
TestParameter, Function.Analysis.Unit, A, A
TestParameter, Function.Analysis.Definition, abs(IG), abs(ID)
TestParameter, Output.Graph.Enabled, true
TestParameter, Output.Graph.AutoScaling, false
TestParameter, Output.Graph.XAxis.Data, VD
TestParameter, Output.Graph.XAxis.Scale, Linear
TestParameter, Output.Graph.XAxis.Left, 0
TestParameter, Output.Graph.XAxis.Right, 8
TestParameter, Output.Graph.XAxis.RunTimeAutoScale, true
TestParameter, Output.Graph.YAxis.Data, absId, absIg, IS
TestParameter, Output.Graph.YAxis.Scale, Linear, Log, Linear
TestParameter, Output.Graph.YAxis.Bottom, 0, 0, -0.1
TestParameter, Output.Graph.YAxis.Top, 1, 1, 0.1
TestParameter, Output.Graph.YAxis.Group, , , 
TestParameter, Output.Graph.YAxis.RunTimeAutoScale, true, true, true
TestParameter, Output.List.Data, VG, IG, ID, IS, IS, VD, absIg, absId
TestParameter, AutoAnalysis.Interpolation, false
TestParameter, AutoAnalysis.Line1.Enabled, false
TestParameter, AutoAnalysis.Line1.Type, 1
TestParameter, AutoAnalysis.Line1.Fix, True
TestParameter, AutoAnalysis.Line1.YAxis, 0
TestParameter, AutoAnalysis.Line1.Point1.Type, 0
TestParameter, AutoAnalysis.Line1.Point1.XY.X, 
TestParameter, AutoAnalysis.Line1.Point1.XY.Y, 
TestParameter, AutoAnalysis.Line1.Point1.Data.Var, 
TestParameter, AutoAnalysis.Line1.Point1.Data.Condition, 
TestParameter, AutoAnalysis.Line1.Point1.Data.Start, false
TestParameter, AutoAnalysis.Line1.Point1.Data.StartVar, 
TestParameter, AutoAnalysis.Line1.Point1.Data.StartCondition, 
TestParameter, AutoAnalysis.Line1.Point2.Type, 0
TestParameter, AutoAnalysis.Line1.Point2.XY.X, 
TestParameter, AutoAnalysis.Line1.Point2.XY.Y, 
TestParameter, AutoAnalysis.Line1.Point2.Data.Var, 
TestParameter, AutoAnalysis.Line1.Point2.Data.Condition, 
TestParameter, AutoAnalysis.Line1.Point2.Data.Start, false
TestParameter, AutoAnalysis.Line1.Point2.Data.StartVar, 
TestParameter, AutoAnalysis.Line1.Point2.Data.StartCondition, 
TestParameter, AutoAnalysis.Line1.GradientExpr, 0
TestParameter, AutoAnalysis.Line2.Enabled, false
TestParameter, AutoAnalysis.Line2.Type, 1
TestParameter, AutoAnalysis.Line2.Fix, True
TestParameter, AutoAnalysis.Line2.YAxis, 0
TestParameter, AutoAnalysis.Line2.Point1.Type, 0
TestParameter, AutoAnalysis.Line2.Point1.XY.X, 
TestParameter, AutoAnalysis.Line2.Point1.XY.Y, 
TestParameter, AutoAnalysis.Line2.Point1.Data.Var, 
TestParameter, AutoAnalysis.Line2.Point1.Data.Condition, 
TestParameter, AutoAnalysis.Line2.Point1.Data.Start, false
TestParameter, AutoAnalysis.Line2.Point1.Data.StartVar, 
TestParameter, AutoAnalysis.Line2.Point1.Data.StartCondition, 
TestParameter, AutoAnalysis.Line2.Point2.Type, 0
TestParameter, AutoAnalysis.Line2.Point2.XY.X, 
TestParameter, AutoAnalysis.Line2.Point2.XY.Y, 
TestParameter, AutoAnalysis.Line2.Point2.Data.Var, 
TestParameter, AutoAnalysis.Line2.Point2.Data.Condition, 
TestParameter, AutoAnalysis.Line2.Point2.Data.Start, false
TestParameter, AutoAnalysis.Line2.Point2.Data.StartVar, 
TestParameter, AutoAnalysis.Line2.Point2.Data.StartCondition, 
TestParameter, AutoAnalysis.Line2.GradientExpr, 0
TestParameter, AutoAnalysis.Marker.Enabled, false
TestParameter, AutoAnalysis.Marker.Data.Var, 
TestParameter, AutoAnalysis.Marker.Data.Condition, 
TestParameter, AutoAnalysis.Marker.Data.Start, false
TestParameter, AutoAnalysis.Marker.Data.StartVar, 
TestParameter, AutoAnalysis.Marker.Data.StartCondition, 
MetaData, TestRecord.EntryPoint, true
MetaData, TestRecord.RecordTime, 07/03/2019 12:17:27
MetaData, TestRecord.TestTarget, 6-46
MetaData, TestRecord.IterationIndex, 1
MetaData, TestRecord.Preservation, true
MetaData, TestRecord.Flag, 
MetaData, TestRecord.Remarks, good
MetaData, TestRecord.LinkKey, 904b48c7-cd4c-423a-bcfe-4d555bd58fd2
Dimension1, 51, 51, 51, 51, 51, 51, 51
Dimension2, 7, 7, 7, 7, 7, 7, 7
DataName, VD, VG, ID, IG, IS, absIg, absId
DataValue, 0, 0, 4.5894E-12, 1.2800000000000002E-12, 1.959E-11, 1.2800000000000002E-12, 4.5894E-12
DataValue, 0.1, 0, 5.3158E-12, -3.0100000000000003E-12, -1.22E-12, 3.0100000000000003E-12, 5.3158E-12
DataValue, 0.2, 0, 9.4116E-12, -4.247E-11, -5.13E-12, 4.247E-11, 9.4116E-12
DataValue, 0.3, 0, 8.734E-13, 5.1650000000000004E-11, -5.79E-12, 5.1650000000000004E-11, 8.734E-13
DataValue, 0.4, 0, 1.1893E-11, -5.4910000000000007E-11, -1.0210000000000001E-11, 5.4910000000000007E-11, 1.1893E-11
DataValue, 0.5, 0, 1.3390999999999999E-11, -2.2280000000000003E-11, -6.654000000000001E-11, 2.2280000000000003E-11, 1.3390999999999999E-11
DataValue, 0.6, 0, 3.5702E-12, 7E-14, 3.721E-11, 7E-14, 3.5702E-12
DataValue, 0.70000000000000007, 0, 8.3863999999999991E-12, 1.12E-12, -4.88E-12, 1.12E-12, 8.3863999999999991E-12
DataValue, 0.8, 0, 1.34928E-11, -2.4940000000000003E-11, -9.67E-12, 2.4940000000000003E-11, 1.34928E-11
DataValue, 0.9, 0, 6.997E-12, 4.225E-11, -1.2830000000000001E-11, 4.225E-11, 6.997E-12
DataValue, 1, 0, 1.72756E-11, -5.2200000000000005E-11, -1.1960000000000002E-11, 5.2200000000000005E-11, 1.72756E-11
DataValue, 1.1, 0, 8.2624E-12, 5.3490000000000007E-11, -6.3900000000000008E-12, 5.3490000000000007E-11, 8.2624E-12
DataValue, 1.2, 0, 8.8126E-12, 2.083E-11, 4.4110000000000003E-11, 2.083E-11, 8.8126E-12
DataValue, 1.3, 0, 2.0727E-11, -2.57E-12, -6.062E-11, 2.57E-12, 2.0727E-11
DataValue, 1.4000000000000001, 0, 1.83944E-11, -2.3200000000000002E-12, -1.621E-11, 2.3200000000000002E-12, 1.83944E-11
DataValue, 1.5, 0, 1.57562E-11, 2.1170000000000003E-11, -2.11E-11, 2.1170000000000003E-11, 1.57562E-11
DataValue, 1.6, 0, 2.4648999999999998E-11, -3.9890000000000004E-11, -1.702E-11, 3.9890000000000004E-11, 2.4648999999999998E-11
DataValue, 1.7, 0, 1.7475E-11, 4.895E-11, -1.9780000000000002E-11, 4.895E-11, 1.7475E-11
DataValue, 1.8, 0, 2.9496E-11, -5.681E-11, -2.4230000000000003E-11, 5.681E-11, 2.9496E-11
DataValue, 1.9000000000000001, 0, 3.24404E-11, -3.1630000000000005E-11, -7.7770000000000006E-11, 3.1630000000000005E-11, 3.24404E-11
DataValue, 2, 0, 2.4211E-11, -2.54E-12, 2.613E-11, 2.54E-12, 2.4211E-11
DataValue, 2.1, 0, 3.10458E-11, -4.6500000000000006E-12, -2.56E-11, 4.6500000000000006E-12, 3.10458E-11
DataValue, 2.2, 0, 3.834E-11, -2.5360000000000003E-11, -2.6500000000000002E-11, 2.5360000000000003E-11, 3.834E-11
DataValue, 2.3000000000000003, 0, 3.47326E-11, 2.673E-11, -3.18E-11, 2.673E-11, 3.47326E-11
DataValue, 2.4, 0, 4.6286999999999996E-11, -5.743E-11, -2.927E-11, 5.743E-11, 4.6286999999999996E-11
DataValue, 2.5, 0, 3.93242E-11, 4.2880000000000005E-11, -3.164E-11, 4.2880000000000005E-11, 3.93242E-11
DataValue, 2.6, 0, 4.1387599999999996E-11, 1.7870000000000002E-11, 1.2320000000000001E-11, 1.7870000000000002E-11, 4.1387599999999996E-11
DataValue, 2.7, 0, 5.483E-11, -1.46E-11, -9.5020000000000012E-11, 1.46E-11, 5.483E-11
DataValue, 2.8000000000000003, 0, 5.378E-11, -1.4090000000000002E-11, -4.0730000000000004E-11, 1.4090000000000002E-11, 5.378E-11
DataValue, 2.9, 0, 5.17274E-11, 3.2E-12, -4.195E-11, 3.2E-12, 5.17274E-11
DataValue, 3, 0, 6.05552E-11, -4.946E-11, -4.2110000000000004E-11, 4.946E-11, 6.05552E-11
DataValue, 3.1, 0, 5.404E-11, 3.5160000000000004E-11, -4.515E-11, 3.5160000000000004E-11, 5.404E-11
DataValue, 3.2, 0, 6.63592E-11, -6.808E-11, -4.8930000000000006E-11, 6.808E-11, 6.63592E-11
DataValue, 3.3000000000000003, 0, 6.94278E-11, -4.395E-11, -9.9440000000000008E-11, 4.395E-11, 6.94278E-11
DataValue, 3.4, 0, 6.08374E-11, -1.3080000000000002E-11, 2.1500000000000003E-12, 1.3080000000000002E-11, 6.08374E-11
DataValue, 3.5, 0, 6.69856E-11, -1.3040000000000001E-11, -5.208E-11, 1.3040000000000001E-11, 6.69856E-11
DataValue, 3.6, 0, 7.39118E-11, -3.135E-11, -5.2570000000000006E-11, 3.135E-11, 7.39118E-11
DataValue, 3.7, 0, 7.00162E-11, 1.7580000000000002E-11, -5.916E-11, 1.7580000000000002E-11, 7.00162E-11
DataValue, 3.8000000000000003, 0, 8.14018E-11, -6.349E-11, -5.7000000000000004E-11, 6.349E-11, 8.14018E-11
DataValue, 3.9, 0, 7.4369E-11, 3.685E-11, -6.239E-11, 3.685E-11, 7.4369E-11
DataValue, 4, 0, 7.65516E-11, 1.1440000000000001E-11, -1.2E-11, 1.1440000000000001E-11, 7.65516E-11
DataValue, 4.1, 0, 9.04212E-11, -2.0890000000000002E-11, -1.1975E-10, 2.0890000000000002E-11, 9.04212E-11
DataValue, 4.2, 0, 8.97586E-11, -2.116E-11, -7.198E-11, 2.116E-11, 8.97586E-11
DataValue, 4.3, 0, 8.86182E-11, -6.9000000000000009E-13, -7.223E-11, 6.9000000000000009E-13, 8.86182E-11
DataValue, 4.4, 0, 9.8784E-11, -6.002E-11, -7.232E-11, 6.002E-11, 9.8784E-11
DataValue, 4.5, 0, 1.2806000000000002E-10, -1.497E-11, -7.6300000000000011E-11, 1.497E-11, 1.2806000000000002E-10
DataValue, 4.6000000000000005, 0, 1.0195000000000001E-10, -7.679E-11, -9.017000000000001E-11, 7.679E-11, 1.0195000000000001E-10
DataValue, 4.7, 0, 1.1596E-10, 5.1700000000000008E-12, -7.778E-11, 5.1700000000000008E-12, 1.1596E-10
DataValue, 4.8, 0, 1.0866E-10, -6.301000000000001E-11, -1.1766E-10, 6.301000000000001E-11, 1.0866E-10
DataValue, 4.9, 0, 1.0843000000000001E-10, 1.9910000000000002E-11, -8.064E-11, 1.9910000000000002E-11, 1.0843000000000001E-10
DataValue, 5, 0, 1.1652E-10, -4.009E-11, -1.4448E-10, 4.009E-11, 1.1652E-10
DataValue, 0, 0.5, -1.3274E-12, -1.301E-11, 7.701E-11, 1.301E-11, 1.3274E-12
DataValue, 0.1, 0.5, 2.6655E-09, -8.06E-12, -2.6081E-09, 8.06E-12, 2.6655E-09
DataValue, 0.2, 0.5, 2.8667E-09, -5.3660000000000005E-11, -2.8637E-09, 5.3660000000000005E-11, 2.8667E-09
DataValue, 0.3, 0.5, 2.7903E-09, 1.8200000000000003E-12, -2.7318E-09, 1.8200000000000003E-12, 2.7903E-09
DataValue, 0.4, 0.5, 2.7802E-09, 6.3300000000000007E-12, -2.7461E-09, 6.3300000000000007E-12, 2.7802E-09
DataValue, 0.5, 0.5, 2.6723E-09, -5.4030000000000006E-11, -2.679E-09, 5.4030000000000006E-11, 2.6723E-09
DataValue, 0.6, 0.5, 2.5819E-09, 2.18E-12, -2.5297E-09, 2.18E-12, 2.5819E-09
DataValue, 0.70000000000000007, 0.5, 2.5815E-09, 8.54E-12, -2.5527E-09, 8.54E-12, 2.5815E-09
DataValue, 0.8, 0.5, 2.4919E-09, -5.201E-11, -2.4943E-09, 5.201E-11, 2.4919E-09
DataValue, 0.9, 0.5, 2.4264E-09, 2.26E-12, -2.3772E-09, 2.26E-12, 2.4264E-09
DataValue, 1, 0.5, 2.4345E-09, 9.6100000000000013E-12, -2.4047E-09, 9.6100000000000013E-12, 2.4345E-09
DataValue, 1.1, 0.5, 2.379E-09, -5.1520000000000007E-11, -2.3826E-09, 5.1520000000000007E-11, 2.379E-09
DataValue, 1.2, 0.5, 2.3007E-09, 6.9000000000000009E-13, -2.263E-09, 6.9000000000000009E-13, 2.3007E-09
DataValue, 1.3, 0.5, 2.3166E-09, 1.637E-11, -2.288E-09, 1.637E-11, 2.3166E-09
DataValue, 1.4000000000000001, 0.5, 2.2694E-09, -4.3E-11, -2.2862E-09, 4.3E-11, 2.2694E-09
DataValue, 1.5, 0.5, 2.2024E-09, 5.5000000000000008E-13, -2.175E-09, 5.5000000000000008E-13, 2.2024E-09
DataValue, 1.6, 0.5, 2.2367E-09, 2.0400000000000002E-11, -2.2087E-09, 2.0400000000000002E-11, 2.2367E-09
DataValue, 1.7, 0.5, 2.1918E-09, -3.8110000000000005E-11, -2.212E-09, 3.8110000000000005E-11, 2.1918E-09
DataValue, 1.8, 0.5, 2.1193E-09, 1.8000000000000002E-13, -2.0962E-09, 1.8000000000000002E-13, 2.1193E-09
DataValue, 1.9000000000000001, 0.5, 2.1608E-09, 2.4960000000000004E-11, -2.1366E-09, 2.4960000000000004E-11, 2.1608E-09
DataValue, 2, 0.5, 2.1199E-09, -3.6400000000000005E-11, -2.1439E-09, 3.6400000000000005E-11, 2.1199E-09
DataValue, 2.1, 0.5, 2.0603E-09, -1.5800000000000001E-12, -2.0418E-09, 1.5800000000000001E-12, 2.0603E-09
DataValue, 2.2, 0.5, 2.0972E-09, 2.5390000000000002E-11, -2.0833E-09, 2.5390000000000002E-11, 2.0972E-09
DataValue, 2.3000000000000003, 0.5, 2.0687E-09, -3.2030000000000005E-11, -2.0894E-09, 3.2030000000000005E-11, 2.0687E-09
DataValue, 2.4, 0.5, 2.003E-09, -1.8400000000000002E-12, -2.0076E-09, 1.8400000000000002E-12, 2.003E-09
DataValue, 2.5, 0.5, 2.044E-09, 3.4220000000000006E-11, -2.029E-09, 3.4220000000000006E-11, 2.044E-09
DataValue, 2.6, 0.5, 2.0327E-09, -2.331E-11, -2.0742E-09, 2.331E-11, 2.0327E-09
DataValue, 2.7, 0.5, 1.9653E-09, -3.9400000000000006E-12, -1.9826E-09, 3.9400000000000006E-12, 1.9653E-09
DataValue, 2.8000000000000003, 0.5, 2.0065E-09, 3.565E-11, -1.9889E-09, 3.565E-11, 2.0065E-09
DataValue, 2.9, 0.5, 1.9914E-09, -2.0040000000000003E-11, -2.0399E-09, 2.0040000000000003E-11, 1.9914E-09
DataValue, 3, 0.5, 1.9284E-09, -7.2800000000000013E-12, -1.9452E-09, 7.2800000000000013E-12, 1.9284E-09
DataValue, 3.1, 0.5, 1.9623E-09, 3.7490000000000004E-11, -1.9534E-09, 3.7490000000000004E-11, 1.9623E-09
DataValue, 3.2, 0.5, 1.952E-09, -1.8530000000000003E-11, -1.9916E-09, 1.8530000000000003E-11, 1.952E-09
DataValue, 3.3000000000000003, 0.5, 1.8983E-09, -1.382E-11, -1.9139E-09, 1.382E-11, 1.8983E-09
DataValue, 3.4, 0.5, 1.9355E-09, 3.3670000000000005E-11, -1.9164E-09, 3.3670000000000005E-11, 1.9355E-09
DataValue, 3.5, 0.5, 1.9366E-09, -2.116E-11, -1.9704E-09, 2.116E-11, 1.9366E-09
DataValue, 3.6, 0.5, 1.8745E-09, -1.934E-11, -1.8931E-09, 1.934E-11, 1.8745E-09
DataValue, 3.7, 0.5, 1.9104E-09, 3.022E-11, -1.8839E-09, 3.022E-11, 1.9104E-09
DataValue, 3.8000000000000003, 0.5, 1.9064E-09, -2.44E-11, -1.9388E-09, 2.44E-11, 1.9064E-09
DataValue, 3.9, 0.5, 1.8555E-09, -2.2660000000000002E-11, -1.8645E-09, 2.2660000000000002E-11, 1.8555E-09
DataValue, 4, 0.5, 1.8782E-09, 2.813E-11, -1.8582E-09, 2.813E-11, 1.8782E-09
DataValue, 4.1, 0.5, 1.8865E-09, -2.8010000000000002E-11, -1.9163E-09, 2.8010000000000002E-11, 1.8865E-09
DataValue, 4.2, 0.5, 1.8341E-09, -2.342E-11, -1.8441E-09, 2.342E-11, 1.8341E-09
DataValue, 4.3, 0.5, 1.8637E-09, 2.7480000000000002E-11, -1.8345E-09, 2.7480000000000002E-11, 1.8637E-09
DataValue, 4.4, 0.5, 1.867E-09, -2.7290000000000003E-11, -1.898E-09, 2.7290000000000003E-11, 1.867E-09
DataValue, 4.5, 0.5, 1.8101E-09, -2.502E-11, -1.8217E-09, 2.502E-11, 1.8101E-09
DataValue, 4.6000000000000005, 0.5, 1.8399E-09, 2.8520000000000002E-11, -1.8244E-09, 2.8520000000000002E-11, 1.8399E-09
DataValue, 4.7, 0.5, 1.8525E-09, -2.7300000000000002E-11, -1.8852E-09, 2.7300000000000002E-11, 1.8525E-09
DataValue, 4.8, 0.5, 1.7938E-09, -2.7390000000000002E-11, -1.8022E-09, 2.7390000000000002E-11, 1.7938E-09
DataValue, 4.9, 0.5, 1.8197E-09, 2.8090000000000003E-11, -1.7922E-09, 2.8090000000000003E-11, 1.8197E-09
DataValue, 5, 0.5, 1.8401E-09, -2.857E-11, -1.8642E-09, 2.857E-11, 1.8401E-09
DataValue, 0, 1, -2.8553E-11, 3.758E-11, 4.33E-11, 3.758E-11, 2.8553E-11
DataValue, 0.1, 1, 1.65142E-08, 3.4400000000000003E-12, -1.5459399999999998E-08, 3.4400000000000003E-12, 1.65142E-08
DataValue, 0.2, 1, 1.7668799999999997E-08, 3.77E-12, -1.7578199999999998E-08, 3.77E-12, 1.7668799999999997E-08
DataValue, 0.3, 1, 1.77318E-08, 2.3000000000000003E-13, -1.7717E-08, 2.3000000000000003E-13, 1.77318E-08
DataValue, 0.4, 1, 1.73514E-08, 2.85E-12, -1.7341199999999997E-08, 2.85E-12, 1.73514E-08
DataValue, 0.5, 1, 1.70838E-08, -5.8000000000000005E-13, -1.7119E-08, 5.8000000000000005E-13, 1.70838E-08
DataValue, 0.6, 1, 1.6742E-08, 2.36E-12, -1.6673E-08, 2.36E-12, 1.6742E-08
DataValue, 0.70000000000000007, 1, 1.6473799999999998E-08, -2.6600000000000004E-12, -1.6462E-08, 2.6600000000000004E-12, 1.6473799999999998E-08
DataValue, 0.8, 1, 1.6179599999999998E-08, 1.5600000000000002E-12, -1.6116799999999997E-08, 1.5600000000000002E-12, 1.6179599999999998E-08
DataValue, 0.9, 1, 1.59536E-08, -3.15E-12, -1.5958399999999998E-08, 3.15E-12, 1.59536E-08
DataValue, 1, 1, 1.5619999999999997E-08, 8.75E-12, -1.5654E-08, 8.75E-12, 1.5619999999999997E-08
DataValue, 1.1, 1, 1.54888E-08, -2.0440000000000003E-11, -1.5464E-08, 2.0440000000000003E-11, 1.54888E-08
DataValue, 1.2, 1, 1.5325E-08, 3.033E-11, -1.5331999999999998E-08, 3.033E-11, 1.5325E-08
DataValue, 1.3, 1, 1.5202399999999998E-08, -4.039E-11, -1.5164E-08, 4.039E-11, 1.5202399999999998E-08
DataValue, 1.4000000000000001, 1, 1.4977399999999998E-08, 4.894E-11, -1.49652E-08, 4.894E-11, 1.4977399999999998E-08
DataValue, 1.5, 1, 1.4839799999999998E-08, -5.5840000000000004E-11, -1.4822199999999998E-08, 5.5840000000000004E-11, 1.4839799999999998E-08
DataValue, 1.6, 1, 1.4705799999999999E-08, 5.2830000000000007E-11, -1.4696399999999998E-08, 5.2830000000000007E-11, 1.4705799999999999E-08
DataValue, 1.7, 1, 1.4584399999999999E-08, -5.3670000000000007E-11, -1.4596999999999998E-08, 5.3670000000000007E-11, 1.4584399999999999E-08
DataValue, 1.8, 1, 1.4497999999999999E-08, 4.8160000000000005E-11, -1.4491799999999999E-08, 4.8160000000000005E-11, 1.4497999999999999E-08
DataValue, 1.9000000000000001, 1, 1.43958E-08, -4.156E-11, -1.4334599999999999E-08, 4.156E-11, 1.43958E-08
DataValue, 2, 1, 1.4322599999999999E-08, 2.868E-11, -1.43526E-08, 2.868E-11, 1.4322599999999999E-08
DataValue, 2.1, 1, 1.4152199999999999E-08, -2.258E-11, -1.4176599999999998E-08, 2.258E-11, 1.4152199999999999E-08
DataValue, 2.2, 1, 1.4074999999999999E-08, 1.025E-11, -1.4074999999999999E-08, 1.025E-11, 1.4074999999999999E-08
DataValue, 2.3000000000000003, 1, 1.3995399999999999E-08, -5.6600000000000005E-12, -1.3990799999999999E-08, 5.6600000000000005E-12, 1.3995399999999999E-08
DataValue, 2.4, 1, 1.3915E-08, 4.1E-13, -1.3924799999999998E-08, 4.1E-13, 1.3915E-08
DataValue, 2.5, 1, 1.3790799999999998E-08, -1.3900000000000001E-12, -1.38134E-08, 1.3900000000000001E-12, 1.3790799999999998E-08
DataValue, 2.6, 1, 1.3784999999999999E-08, -3.23E-12, -1.38238E-08, 3.23E-12, 1.3784999999999999E-08
DataValue, 2.7, 1, 1.36812E-08, -1.0100000000000001E-12, -1.3684799999999999E-08, 1.0100000000000001E-12, 1.36812E-08
DataValue, 2.8000000000000003, 1, 1.3714599999999999E-08, -5.1000000000000005E-12, -1.3754799999999999E-08, 5.1000000000000005E-12, 1.3714599999999999E-08
