
SetupTitle, TFT sat RollOut
PrimitiveTest, I/V Sweep
TestParameter, Context.MainFrame, B1500A
TestParameter, Channel.UnitType, SMU, SMU, SMU
TestParameter, Channel.Unit, SMU2:HR, SMU3:MP, SMU4:MP
TestParameter, Channel.IName, ID, IG, IS
TestParameter, Channel.VName, VD, VG, VS
TestParameter, Channel.Mode, V, V, COMMON
TestParameter, Channel.Func, CONST, VAR1, CONST
TestParameter, Channel.Index, 
TestParameter, Channel.Time, 
TestParameter, Measurement.Port.Unit, SMU2:HR, SMU3:MP, SMU4:MP
TestParameter, Measurement.Port.SeriesResistor, NONE, NONE, NONE
TestParameter, Measurement.Port.Filter, ON, ON, ON
TestParameter, Measurement.Port.OutputVoltageComparison, 0, 0, 0
TestParameter, Measurement.Primary.Locus, Double
TestParameter, Measurement.Primary.Scale, LINEAR
TestParameter, Measurement.Primary.Start, -2
TestParameter, Measurement.Primary.Stop, 5
TestParameter, Measurement.Primary.Step, 0.07
TestParameter, Measurement.Primary.Compliance, 1E-06
TestParameter, Measurement.Primary.PowerCompliance, 0
TestParameter, Measurement.Aborting.Condition, CONTINUE AT ANY
TestParameter, Measurement.PostOutput.Value, START
TestParameter, Measurement.PostOutput.Retention, OFF
TestParameter, Measurement.Bias.Source, 5, -2, 0
TestParameter, Measurement.Bias.Compliance, 0.001, 1E-06, 0.1
TestParameter, Measurement.Monitor.Unit, SMU2:HR, SMU3:MP, SMU4:MP
TestParameter, Measurement.Monitor.Adc, HR ADC, HR ADC, HR ADC
TestParameter, Measurement.Monitor.Measurement, Compliance Side, Compliance Side, Compliance Side
TestParameter, Measurement.Monitor.RangingMode, LIMITED, LIMITED, LIMITED
TestParameter, Measurement.Monitor.RangeBoundary, 100pA, 1nA, 1nA
TestParameter, Measurement.Monitor.RangeRating, BY FULL RANGE, BY FULL RANGE, BY FULL RANGE
TestParameter, Measurement.Monitor.RangeRatingCoeff, 50, 50, 50
TestParameter, Measurement.Timing.Hold, 0.5
TestParameter, Measurement.Timing.Delay, 0.05
TestParameter, Measurement.Adc.HighSpeed.Mode, AUTO
TestParameter, Measurement.Adc.HighSpeed.Coeff, 1
TestParameter, Measurement.Adc.HighResolution.AutoZero, OFF
TestParameter, Measurement.Adc.HighResolution.Mode, AUTO
TestParameter, Measurement.Adc.HighResolution.Coeff, 6
TestParameter, Measurement.WaitTime.Source.Coeff, 1
TestParameter, Measurement.WaitTime.Source.Offset, 0
TestParameter, Measurement.WaitTime.Monitor.Coeff, 1
TestParameter, Measurement.WaitTime.Monitor.Offset, 0
TestParameter, Function.Analysis.Name, dIddVg, absIg, absId
TestParameter, Function.Analysis.Unit, S, A, A
TestParameter, Function.Analysis.Definition, (delta(sqrt(ID))/delta(VG))^2, abs(IG), abs(ID)
TestParameter, Output.Graph.Enabled, true
TestParameter, Output.Graph.AutoScaling, false
TestParameter, Output.Graph.XAxis.Data, VG
TestParameter, Output.Graph.XAxis.Scale, Linear
TestParameter, Output.Graph.XAxis.Left, -2
TestParameter, Output.Graph.XAxis.Right, 6
TestParameter, Output.Graph.XAxis.RunTimeAutoScale, true
TestParameter, Output.Graph.YAxis.Data, absId, absIg, dIddVg, IS
TestParameter, Output.Graph.YAxis.Scale, Log, Log, Linear, Linear
TestParameter, Output.Graph.YAxis.Bottom, 0, 0, 0, -0.1
TestParameter, Output.Graph.YAxis.Top, 1, 1, 1, 0.1
TestParameter, Output.Graph.YAxis.Group, , , , 
TestParameter, Output.Graph.YAxis.RunTimeAutoScale, true, true, true, false
TestParameter, Output.List.Data, VG, IG, ID, IS, VD, dIddVg, absIg, absId
TestParameter, AutoAnalysis.Interpolation, false
TestParameter, AutoAnalysis.Line1.Enabled, false
TestParameter, AutoAnalysis.Line1.Type, 1
TestParameter, AutoAnalysis.Line1.Fix, True
TestParameter, AutoAnalysis.Line1.YAxis, 0
TestParameter, AutoAnalysis.Line1.Point1.Type, 0
TestParameter, AutoAnalysis.Line1.Point1.XY.X, 
TestParameter, AutoAnalysis.Line1.Point1.XY.Y, 
TestParameter, AutoAnalysis.Line1.Point1.Data.Var, 
TestParameter, AutoAnalysis.Line1.Point1.Data.Condition, 
TestParameter, AutoAnalysis.Line1.Point1.Data.Start, false
TestParameter, AutoAnalysis.Line1.Point1.Data.StartVar, 
TestParameter, AutoAnalysis.Line1.Point1.Data.StartCondition, 
TestParameter, AutoAnalysis.Line1.Point2.Type, 0
TestParameter, AutoAnalysis.Line1.Point2.XY.X, 
TestParameter, AutoAnalysis.Line1.Point2.XY.Y, 
TestParameter, AutoAnalysis.Line1.Point2.Data.Var, 
TestParameter, AutoAnalysis.Line1.Point2.Data.Condition, 
TestParameter, AutoAnalysis.Line1.Point2.Data.Start, false
TestParameter, AutoAnalysis.Line1.Point2.Data.StartVar, 
TestParameter, AutoAnalysis.Line1.Point2.Data.StartCondition, 
TestParameter, AutoAnalysis.Line1.GradientExpr, 0
TestParameter, AutoAnalysis.Line2.Enabled, false
TestParameter, AutoAnalysis.Line2.Type, 1
TestParameter, AutoAnalysis.Line2.Fix, True
TestParameter, AutoAnalysis.Line2.YAxis, 0
TestParameter, AutoAnalysis.Line2.Point1.Type, 0
TestParameter, AutoAnalysis.Line2.Point1.XY.X, 
TestParameter, AutoAnalysis.Line2.Point1.XY.Y, 
TestParameter, AutoAnalysis.Line2.Point1.Data.Var, 
TestParameter, AutoAnalysis.Line2.Point1.Data.Condition, 
TestParameter, AutoAnalysis.Line2.Point1.Data.Start, false
TestParameter, AutoAnalysis.Line2.Point1.Data.StartVar, 
TestParameter, AutoAnalysis.Line2.Point1.Data.StartCondition, 
TestParameter, AutoAnalysis.Line2.Point2.Type, 0
TestParameter, AutoAnalysis.Line2.Point2.XY.X, 
TestParameter, AutoAnalysis.Line2.Point2.XY.Y, 
TestParameter, AutoAnalysis.Line2.Point2.Data.Var, 
TestParameter, AutoAnalysis.Line2.Point2.Data.Condition, 
TestParameter, AutoAnalysis.Line2.Point2.Data.Start, false
TestParameter, AutoAnalysis.Line2.Point2.Data.StartVar, 
TestParameter, AutoAnalysis.Line2.Point2.Data.StartCondition, 
TestParameter, AutoAnalysis.Line2.GradientExpr, 0
TestParameter, AutoAnalysis.Marker.Enabled, false
TestParameter, AutoAnalysis.Marker.Data.Var, 
TestParameter, AutoAnalysis.Marker.Data.Condition, 
TestParameter, AutoAnalysis.Marker.Data.Start, false
TestParameter, AutoAnalysis.Marker.Data.StartVar, 
TestParameter, AutoAnalysis.Marker.Data.StartCondition, 
MetaData, TestRecord.EntryPoint, true
MetaData, TestRecord.RecordTime, 07/03/2019 12:14:59
MetaData, TestRecord.TestTarget, 6-47
MetaData, TestRecord.IterationIndex, 1
MetaData, TestRecord.Preservation, true
MetaData, TestRecord.Flag, 
MetaData, TestRecord.Remarks, good
MetaData, TestRecord.LinkKey, db964eb5-2f2b-4928-9e6f-f39d25afd086
Dimension1, 202, 202, 202, 202, 202, 202, 202, 202
Dimension2, 1, 1, 1, 1, 1, 1, 1, 1
DataName, VG, VD, ID, IG, IS, dIddVg, absIg, absId
DataValue, -2, 5, 1.3265E-10, -9.051E-11, -6.697E-11, 7.3909142377924568E-11, 9.051E-11, 1.3265E-10
DataValue, -1.93, 5, 1.1915E-10, -7.888E-11, -1.584E-11, 7.1277611213265472E-12, 7.888E-11, 1.1915E-10
DataValue, -1.86, 5, 1.2418E-10, -8.7530000000000007E-11, -4.82E-12, 5.15303292698147E-11, 8.7530000000000007E-11, 1.2418E-10
DataValue, -1.79, 5, 9.8220000000000011E-11, -1.5452E-10, -1.5300000000000001E-12, 4.1422993286823132E-11, 1.5452E-10, 9.8220000000000011E-11
DataValue, -1.72, 5, 1.0491E-10, -4.971E-11, 9.95E-12, 2.2728380162867071E-10, 4.971E-11, 1.0491E-10
DataValue, -1.6500000000000001, 5, 1.4451E-10, -1.2556E-10, -7.585E-11, 8.7488477051634863E-14, 1.2556E-10, 1.4451E-10
DataValue, -1.58, 5, 1.0576E-10, -1.4533E-10, -1.03E-12, 1.6726176689609261E-10, 1.4533E-10, 1.0576E-10
DataValue, -1.51, 5, 1.9132000000000002E-10, -1.4628E-10, 6.2900000000000009E-12, 1.9477828281480039E-09, 1.4628E-10, 1.9132000000000002E-10
DataValue, -1.44, 5, 2.7102E-10, -2.4537E-10, -7.8650000000000008E-11, 4.345970566984575E-11, 2.4537E-10, 2.7102E-10
DataValue, -1.37, 5, 1.6664E-10, -2.0044E-10, 1.4800000000000002E-12, 1.8911298168165709E-09, 2.0044E-10, 1.6664E-10
DataValue, -1.3, 5, 1.0763000000000001E-10, -4.5000000000000006E-11, 7.81E-12, 4.5913007652398517E-10, 4.5000000000000006E-11, 1.0763000000000001E-10
DataValue, -1.23, 5, 9.8190000000000012E-11, -5.8110000000000007E-11, -2.8300000000000003E-12, 7.49887103638212E-10, 5.8110000000000007E-11, 9.8190000000000012E-11
DataValue, -1.16, 5, 4.2781E-11, -2.325E-11, 5.754E-11, 4.1823853822309476E-10, 2.325E-11, 4.2781E-11
DataValue, -1.09, 5, 4.96456E-11, -4.898E-11, -3.2100000000000003E-12, 5.4850038648104077E-13, 4.898E-11, 4.96456E-11
DataValue, -1.02, 5, 4.14354E-11, 5.8600000000000005E-12, -8.9E-13, 3.5707742614992921E-11, 5.8600000000000005E-12, 4.14354E-11
DataValue, -0.95000000000000007, 5, 3.8556399999999997E-11, -3.9530000000000005E-11, 7.1500000000000012E-11, 9.9981606309609917E-13, 3.9530000000000005E-11, 3.8556399999999997E-11
DataValue, -0.88, 5, 4.32572E-11, -4.2910000000000004E-11, -3.02E-12, 2.1893350018153903E-11, 4.2910000000000004E-11, 4.32572E-11
DataValue, -0.81, 5, 4.71206E-11, -8.9120000000000011E-11, 1.5200000000000002E-12, 3.6499073679697983E-12, 8.9120000000000011E-11, 4.71206E-11
DataValue, -0.74, 5, 4.6847E-11, -5.062E-11, -6.938000000000001E-11, 1.8436155461333766E-11, 5.062E-11, 4.6847E-11
DataValue, -0.67, 5, 3.92292E-11, -3.7490000000000004E-11, 3.33E-12, 5.2474745913436441E-11, 3.7490000000000004E-11, 3.92292E-11
DataValue, -0.6, 5, 3.39928E-11, 7.41E-12, -2.57E-12, 2.3486844461699972E-11, 7.41E-12, 3.39928E-11
DataValue, -0.53, 5, 3.11904E-11, -1.723E-11, 6.207E-11, 4.8222232817116141E-12, 1.723E-11, 3.11904E-11
DataValue, -0.46, 5, 3.76722E-11, -3.737E-11, -3.63E-12, 1.58368281295886E-13, 3.737E-11, 3.76722E-11
DataValue, -0.39, 5, 3.05712E-11, 1.848E-11, -1.7200000000000001E-12, 2.7808872784923052E-12, 1.848E-11, 3.05712E-11
DataValue, -0.32, 5, 4.05926E-11, -3.6360000000000004E-11, -7.6820000000000012E-11, 2.4436536391625156E-12, 3.6360000000000004E-11, 4.05926E-11
DataValue, -0.25, 5, 3.30392E-11, -3.1520000000000005E-11, -4.47E-12, 5.5435516204701306E-12, 3.1520000000000005E-11, 3.30392E-11
DataValue, -0.18, 5, 3.6501E-11, -7.963E-11, 7.4000000000000008E-13, 1.4387884251886523E-11, 7.963E-11, 3.6501E-11
DataValue, -0.11, 5, 3.9426E-11, -4.101E-11, -7.291000000000001E-11, 2.9647262389685819E-11, 4.101E-11, 3.9426E-11
DataValue, -0.04, 5, 4.6292999999999996E-11, -2.7340000000000003E-11, -1.352E-11, 1.0500917213469444E-09, 2.7340000000000003E-11, 4.6292999999999996E-11
DataValue, 0.03, 5, 1.1698000000000002E-10, -8.680000000000001E-12, -3.1780000000000006E-11, 1.1659523922419275E-08, 8.680000000000001E-12, 1.1698000000000002E-10
DataValue, 0.1, 5, 4.8053E-10, -2.8650000000000003E-11, -4.2219E-10, 2.2643516372239076E-08, 2.8650000000000003E-11, 4.8053E-10
DataValue, 0.17, 5, 1.0165E-09, -2.3970000000000002E-11, -1.0233E-09, 2.1620500274479473E-08, 2.3970000000000002E-11, 1.0165E-09
DataValue, 0.24, 5, 1.8068E-09, -2.256E-11, -1.7903E-09, 1.8480532855252193E-08, 2.256E-11, 1.8068E-09
DataValue, 0.31, 5, 2.5923E-09, 2.5120000000000003E-11, -2.5418E-09, 1.1963791848348021E-08, 2.5120000000000003E-11, 2.5923E-09
DataValue, 0.38, 5, 3.3431E-09, -3.537E-11, -3.3282E-09, 9.589535606339323E-09, 3.537E-11, 3.3431E-09
DataValue, 0.45, 5, 4.1763E-09, -2.0460000000000003E-11, -4.1007E-09, 1.1544968074919588E-08, 2.0460000000000003E-11, 4.1763E-09
DataValue, 0.52, 5, 5.3089E-09, 1.4090000000000002E-11, -5.186E-09, 1.4902216537042254E-08, 1.4090000000000002E-11, 5.3089E-09
DataValue, 0.59, 5, 6.6773E-09, -5.6440000000000007E-11, -6.2806E-09, 1.6341646398639815E-08, 5.6440000000000007E-11, 6.6773E-09
DataValue, 0.66, 5, 8.2372E-09, -2.1390000000000003E-11, -7.7162E-09, 7.8564251103849722E-09, 2.1390000000000003E-11, 8.2372E-09
DataValue, 0.73, 5, 8.8593E-09, -2.143E-11, -8.4404E-09, 4.9093675768969737E-09, 2.143E-11, 8.8593E-09
DataValue, 0.8, 5, 1.0113999999999999E-08, -1.6140000000000002E-11, -1.0035399999999999E-08, 3.3889568767841245E-08, 1.6140000000000002E-11, 1.0113999999999999E-08
DataValue, 0.87, 5, 1.4375199999999999E-08, -6.3040000000000009E-11, -1.4224599999999998E-08, 7.4416408546018925E-08, 6.3040000000000009E-11, 1.4375199999999999E-08
DataValue, 0.94000000000000006, 5, 1.92542E-08, -1.877E-11, -1.8989399999999997E-08, 7.640418295899621E-08, 1.877E-11, 1.92542E-08
DataValue, 1.01, 5, 2.5152199999999997E-08, -1.2990000000000002E-11, -2.47632E-08, 8.9344187346021468E-08, 1.2990000000000002E-11, 2.5152199999999997E-08
DataValue, 1.08, 5, 3.2618599999999994E-08, -6.752E-11, -3.22682E-08, 1.1259588236416438E-07, 6.752E-11, 3.2618599999999994E-08
DataValue, 1.1500000000000001, 5, 4.22598E-08, 1.28E-11, -4.1807999999999993E-08, 1.4297319024341625E-07, 1.28E-11, 4.22598E-08
DataValue, 1.22, 5, 5.45422E-08, -1.0710000000000001E-11, -5.39838E-08, 1.7446716703637995E-07, 1.0710000000000001E-11, 5.45422E-08
DataValue, 1.29, 5, 6.97218E-08, -9.84E-12, -6.8568599999999988E-08, 2.1798422693966577E-07, 9.84E-12, 6.97218E-08
DataValue, 1.36, 5, 8.9345399999999992E-08, -4.77E-12, -8.7725599999999992E-08, 2.9249373031040721E-07, 4.77E-12, 8.9345399999999992E-08
DataValue, 1.43, 5, 1.1544E-07, -2.3000000000000003E-12, -1.1453999999999999E-07, 3.7514471098113425E-07, 2.3000000000000003E-12, 1.1544E-07
DataValue, 1.5, 5, 1.4796E-07, -1.211E-11, -1.4724E-07, 4.6268786378615706E-07, 1.211E-11, 1.4796E-07
DataValue, 1.57, 5, 1.8922E-07, -6.187E-11, -1.8784E-07, 5.6312709079793327E-07, 6.187E-11, 1.8922E-07
DataValue, 1.6400000000000001, 5, 2.3982E-07, -6.4900000000000008E-12, -2.389E-07, 6.73319413513841E-07, 6.4900000000000008E-12, 2.3982E-07
DataValue, 1.71, 5, 3.0236E-07, 3.5450000000000004E-11, -3.0138E-07, 8.1686091481132209E-07, 3.5450000000000004E-11, 3.0236E-07
DataValue, 1.78, 5, 3.7976E-07, -2.5500000000000002E-12, -3.7778E-07, 9.6642964045229222E-07, 2.5500000000000002E-12, 3.7976E-07
DataValue, 1.85, 5, 4.7266E-07, -9.45E-12, -4.7028E-07, 1.1438271499783583E-06, 9.45E-12, 4.7266E-07
DataValue, 1.92, 5, 5.8672E-07, -5.6490000000000003E-11, -5.8402E-07, 1.3273743137096214E-06, 5.6490000000000003E-11, 5.8672E-07
DataValue, 1.99, 5, 7.2046E-07, -4.42E-12, -7.1788E-07, 1.5343585851415687E-06, 4.42E-12, 7.2046E-07
DataValue, 2.06, 5, 8.8246E-07, 4.1760000000000006E-11, -8.809E-07, 1.5916992391439448E-06, 4.1760000000000006E-11, 8.8246E-07
DataValue, 2.13, 5, 1.0515E-06, -4.2500000000000007E-12, -1.0251000000000002E-06, 1.8150569815182375E-06, 4.2500000000000007E-12, 1.0515E-06
DataValue, 2.2, 5, 1.2724E-06, -6.8400000000000007E-12, -1.2693E-06, 2.4893587724103686E-06, 6.8400000000000007E-12, 1.2724E-06
DataValue, 2.27, 5, 1.5533000000000002E-06, -5.5980000000000003E-11, -1.5473000000000002E-06, 2.9670858410405069E-06, 5.5980000000000003E-11, 1.5533000000000002E-06
DataValue, 2.34, 5, 1.8746000000000002E-06, -2.16E-12, -1.8697000000000003E-06, 3.2464681605770013E-06, 2.16E-12, 1.8746000000000002E-06
DataValue, 2.41, 5, 2.2457000000000004E-06, 4.8160000000000005E-11, -2.2415E-06, 3.7332939710991432E-06, 4.8160000000000005E-11, 2.2457000000000004E-06
DataValue, 2.48, 5, 2.6885E-06, -5.13E-12, -2.6828000000000004E-06, 4.2952160167988711E-06, 5.13E-12, 2.6885E-06
DataValue, 2.5500000000000003, 5, 3.1995000000000005E-06, -5.2530000000000005E-11, -3.1914000000000005E-06, 4.7917133020368209E-06, 5.2530000000000005E-11, 3.1995000000000005E-06
DataValue, 2.62, 5, 3.7874000000000004E-06, 1.14E-12, -3.7808000000000003E-06, 5.4370562689519593E-06, 1.14E-12, 3.7874000000000004E-06
DataValue, 2.69, 5, 4.4739000000000005E-06, 4.7880000000000007E-11, -4.4588E-06, 6.0869179719974094E-06, 4.7880000000000007E-11, 4.4739000000000005E-06
DataValue, 2.7600000000000002, 5, 5.2511000000000004E-06, -4.2900000000000005E-12, -5.2368E-06, 6.7208542434322727E-06, 4.2900000000000005E-12, 5.2511000000000004E-06
DataValue, 2.83, 5, 6.141000000000001E-06, -5.0810000000000003E-11, -6.1223000000000007E-06, 7.4199606017809134E-06, 5.0810000000000003E-11, 6.141000000000001E-06
DataValue, 2.9, 5, 7.1443E-06, 4.2000000000000003E-13, -7.121400000000001E-06, 7.9785142647608541E-06, 4.2000000000000003E-13, 7.1443E-06
DataValue, 2.97, 5, 8.2573000000000014E-06, 4.661E-11, -8.2394000000000011E-06, 8.6100546066912736E-06, 4.661E-11, 8.2573000000000014E-06
DataValue, 3.04, 5, 9.5091E-06, -2.2200000000000002E-12, -9.4827000000000016E-06, 8.287480286686475E-06, 2.2200000000000002E-12, 9.5091E-06
DataValue, 3.11, 5, 1.0736E-05, -1.1110000000000001E-11, -1.0544000000000001E-05, 8.7218470190185666E-06, 1.1110000000000001E-11, 1.0736E-05
DataValue, 3.18, 5, 1.223E-05, -1.936E-11, -1.2202000000000001E-05, 1.0582938131652766E-05, 1.936E-11, 1.223E-05
DataValue, 3.25, 5, 1.3928000000000001E-05, 1.51E-12, -1.389E-05, 1.1136492173755572E-05, 1.51E-12, 1.3928000000000001E-05
DataValue, 3.3200000000000003, 5, 1.5716E-05, 5.543E-11, -1.5678E-05, 1.1173567851335689E-05, 5.543E-11, 1.5716E-05
DataValue, 3.39, 5, 1.764E-05, -1.64E-12, -1.76E-05, 1.1512849843917738E-05, 1.64E-12, 1.764E-05
DataValue, 3.46, 5, 1.9708000000000002E-05, -3.413E-11, -1.9656E-05, 1.1586106343768517E-05, 3.413E-11, 1.9708000000000002E-05
DataValue, 3.5300000000000002, 5, 2.1870000000000002E-05, -1.0120000000000001E-11, -2.1816E-05, 1.1674606477850706E-05, 1.0120000000000001E-11, 2.1870000000000002E-05
DataValue, 3.6, 5, 2.4184E-05, 5.2530000000000005E-11, -2.372E-05, 1.0850745958794509E-05, 5.2530000000000005E-11, 2.4184E-05
DataValue, 3.67, 5, 2.6396E-05, -8.8000000000000009E-13, -2.6346E-05, 1.1397314199010494E-05, 8.8000000000000009E-13, 2.6396E-05
DataValue, 3.74, 5, 2.9056E-05, -4.0260000000000005E-11, -2.8988E-05, 1.2883433150519645E-05, 4.0260000000000005E-11, 2.9056E-05
DataValue, 3.81, 5, 3.1812E-05, -2.8600000000000003E-12, -3.1738E-05, 1.2589458775786576E-05, 2.8600000000000003E-12, 3.1812E-05
DataValue, 3.88, 5, 3.4658E-05, 4.9040000000000006E-11, -3.4046E-05, 1.1072246702460896E-05, 4.9040000000000006E-11, 3.4658E-05
DataValue, 3.95, 5, 3.7284000000000004E-05, -1.0500000000000002E-12, -3.7222000000000004E-05, 1.1578710344112985E-05, 1.0500000000000002E-12, 3.7284000000000004E-05
DataValue, 4.0200000000000005, 5, 4.0494E-05, -4.8710000000000006E-11, -4.0426E-05, 1.328502732540976E-05, 4.8710000000000006E-11, 4.0494E-05
DataValue, 4.09, 5, 4.3776E-05, 2E-13, -4.3698E-05, 1.2928514555399326E-05, 2E-13, 4.3776E-05
DataValue, 4.16, 5, 4.7154E-05, 4.2270000000000006E-11, -4.6448E-05, 1.1228947553793867E-05, 4.2270000000000006E-11, 4.7154E-05
DataValue, 4.23, 5, 5.0204E-05, -5.3000000000000006E-13, -5.0144E-05, 1.1560519521078754E-05, 5.3000000000000006E-13, 5.0204E-05
DataValue, 4.3, 5, 5.3918E-05, -5.437E-11, -5.3838E-05, 1.3389573283332869E-05, 5.437E-11, 5.3918E-05
DataValue, 4.37, 5, 5.7726E-05, 2.6000000000000002E-12, -5.7636E-05, 1.3013641285652921E-05, 2.6000000000000002E-12, 5.7726E-05
DataValue, 4.44, 5, 6.159E-05, 3.38E-11, -6.0876000000000005E-05, 1.1179045981421522E-05, 3.38E-11, 6.159E-05
DataValue, 4.51, 5, 6.5058E-05, 8.0000000000000013E-14, -6.4996E-05, 1.1386135167125282E-05, 8.0000000000000013E-14, 6.5058E-05
DataValue, 4.58, 5, 6.9228000000000009E-05, -5.5670000000000007E-11, -6.9164E-05, 1.3091144365658969E-05, 5.5670000000000007E-11, 6.9228000000000009E-05
DataValue, 4.65, 5, 7.3486000000000008E-05, 4.5000000000000006E-12, -7.3400000000000009E-05, 1.2765699610680825E-05, 4.5000000000000006E-12, 7.3486000000000008E-05
DataValue, 4.72, 5, 7.7802E-05, 2.784E-11, -7.7112E-05, 1.1146217455754985E-05, 2.784E-11, 7.7802E-05
DataValue, 4.79, 5, 8.1718E-05, 1.0000000000000002E-14, -8.166E-05, 1.1280188453604535E-05, 1.0000000000000002E-14, 8.1718E-05
DataValue, 4.86, 5, 8.6318000000000009E-05, -5.4210000000000006E-11, -8.6246E-05, 1.2600981620868869E-05, 5.4210000000000006E-11, 8.6318000000000009E-05
DataValue, 4.93, 5, 9.095E-05, 4.43E-12, -9.0888E-05, 1.2226921292396641E-05, 4.43E-12, 9.095E-05
DataValue, 5, 5, 9.5654E-05, 2.238E-11, -9.5038000000000007E-05, 6.621179248708717E-06, 2.238E-11, 9.5654E-05
DataValue, 5, 5, 9.4418E-05, 5.2230000000000003E-11, -9.436E-05, 3.5189457366225125E-05, 5.2230000000000003E-11, 9.4418E-05
DataValue, 4.93, 5, 8.7704E-05, 6.8E-13, -8.7668E-05, 2.5191902913996872E-05, 6.8E-13, 8.7704E-05
DataValue, 4.86, 5, 8.1256000000000009E-05, 7.9000000000000007E-13, -8.1038E-05, 2.5659747140930585E-05, 7.9000000000000007E-13, 8.1256000000000009E-05
DataValue, 4.79, 5, 7.4924E-05, 3.0900000000000004E-12, -7.4920000000000008E-05, 2.4940349926581711E-05, 3.0900000000000004E-12, 7.4924E-05
