
SetupTitle, output RollOut
PrimitiveTest, I/V Sweep
TestParameter, Context.MainFrame, B1500A
TestParameter, Channel.UnitType, SMU, SMU, SMU
TestParameter, Channel.Unit, SMU2:HR, SMU3:MP, SMU4:MP
TestParameter, Channel.IName, ID, IG, IS
TestParameter, Channel.VName, VD, VG, VS
TestParameter, Channel.Mode, V, V, COMMON
TestParameter, Channel.Func, VAR1, VAR2, CONST
TestParameter, Channel.Index, 
TestParameter, Channel.Time, 
TestParameter, Measurement.Port.Unit, SMU2:HR, SMU3:MP, SMU4:MP
TestParameter, Measurement.Port.SeriesResistor, NONE, NONE, NONE
TestParameter, Measurement.Port.Filter, ON, ON, ON
TestParameter, Measurement.Port.OutputVoltageComparison, 0, 0, 0
TestParameter, Measurement.Primary.Locus, Single
TestParameter, Measurement.Primary.Scale, LINEAR
TestParameter, Measurement.Primary.Start, 0
TestParameter, Measurement.Primary.Stop, 5
TestParameter, Measurement.Primary.Step, 0.1
TestParameter, Measurement.Primary.Compliance, 0.01
TestParameter, Measurement.Primary.PowerCompliance, 0
TestParameter, Measurement.Aborting.Condition, CONTINUE AT ANY
TestParameter, Measurement.PostOutput.Value, START
TestParameter, Measurement.PostOutput.Retention, OFF
TestParameter, Measurement.Secondary.Start, 0
TestParameter, Measurement.Secondary.Count, 7
TestParameter, Measurement.Secondary.Step, 0.5
TestParameter, Measurement.Secondary.Compliance, 1E-06
TestParameter, Measurement.Secondary.PowerCompliance, 0
TestParameter, Measurement.Bias.Source, 0, 0, 0
TestParameter, Measurement.Bias.Compliance, 0.01, 1E-06, 0.1
TestParameter, Measurement.Monitor.Unit, SMU2:HR, SMU3:MP, SMU4:MP
TestParameter, Measurement.Monitor.Adc, HR ADC, HR ADC, HR ADC
TestParameter, Measurement.Monitor.Measurement, Compliance Side, Compliance Side, Compliance Side
TestParameter, Measurement.Monitor.RangingMode, LIMITED, LIMITED, LIMITED
TestParameter, Measurement.Monitor.RangeBoundary, 100pA, 1nA, 1nA
TestParameter, Measurement.Monitor.RangeRating, BY FULL RANGE, BY FULL RANGE, BY FULL RANGE
TestParameter, Measurement.Monitor.RangeRatingCoeff, 50, 50, 50
TestParameter, Measurement.Timing.Hold, 0.5
TestParameter, Measurement.Timing.Delay, 0.05
TestParameter, Measurement.Adc.HighSpeed.Mode, AUTO
TestParameter, Measurement.Adc.HighSpeed.Coeff, 1
TestParameter, Measurement.Adc.HighResolution.AutoZero, OFF
TestParameter, Measurement.Adc.HighResolution.Mode, AUTO
TestParameter, Measurement.Adc.HighResolution.Coeff, 6
TestParameter, Measurement.WaitTime.Source.Coeff, 1
TestParameter, Measurement.WaitTime.Source.Offset, 0
TestParameter, Measurement.WaitTime.Monitor.Coeff, 1
TestParameter, Measurement.WaitTime.Monitor.Offset, 0
TestParameter, Function.Analysis.Name, absIg, absId
TestParameter, Function.Analysis.Unit, A, A
TestParameter, Function.Analysis.Definition, abs(IG), abs(ID)
TestParameter, Output.Graph.Enabled, true
TestParameter, Output.Graph.AutoScaling, false
TestParameter, Output.Graph.XAxis.Data, VD
TestParameter, Output.Graph.XAxis.Scale, Linear
TestParameter, Output.Graph.XAxis.Left, 0
TestParameter, Output.Graph.XAxis.Right, 8
TestParameter, Output.Graph.XAxis.RunTimeAutoScale, true
TestParameter, Output.Graph.YAxis.Data, absId, absIg, IS
TestParameter, Output.Graph.YAxis.Scale, Linear, Log, Linear
TestParameter, Output.Graph.YAxis.Bottom, 0, 0, -0.1
TestParameter, Output.Graph.YAxis.Top, 1, 1, 0.1
TestParameter, Output.Graph.YAxis.Group, , , 
TestParameter, Output.Graph.YAxis.RunTimeAutoScale, true, true, true
TestParameter, Output.List.Data, VG, IG, ID, IS, IS, VD, absIg, absId
TestParameter, AutoAnalysis.Interpolation, false
TestParameter, AutoAnalysis.Line1.Enabled, false
TestParameter, AutoAnalysis.Line1.Type, 1
TestParameter, AutoAnalysis.Line1.Fix, True
TestParameter, AutoAnalysis.Line1.YAxis, 0
TestParameter, AutoAnalysis.Line1.Point1.Type, 0
TestParameter, AutoAnalysis.Line1.Point1.XY.X, 
TestParameter, AutoAnalysis.Line1.Point1.XY.Y, 
TestParameter, AutoAnalysis.Line1.Point1.Data.Var, 
TestParameter, AutoAnalysis.Line1.Point1.Data.Condition, 
TestParameter, AutoAnalysis.Line1.Point1.Data.Start, false
TestParameter, AutoAnalysis.Line1.Point1.Data.StartVar, 
TestParameter, AutoAnalysis.Line1.Point1.Data.StartCondition, 
TestParameter, AutoAnalysis.Line1.Point2.Type, 0
TestParameter, AutoAnalysis.Line1.Point2.XY.X, 
TestParameter, AutoAnalysis.Line1.Point2.XY.Y, 
TestParameter, AutoAnalysis.Line1.Point2.Data.Var, 
TestParameter, AutoAnalysis.Line1.Point2.Data.Condition, 
TestParameter, AutoAnalysis.Line1.Point2.Data.Start, false
TestParameter, AutoAnalysis.Line1.Point2.Data.StartVar, 
TestParameter, AutoAnalysis.Line1.Point2.Data.StartCondition, 
TestParameter, AutoAnalysis.Line1.GradientExpr, 0
TestParameter, AutoAnalysis.Line2.Enabled, false
TestParameter, AutoAnalysis.Line2.Type, 1
TestParameter, AutoAnalysis.Line2.Fix, True
TestParameter, AutoAnalysis.Line2.YAxis, 0
TestParameter, AutoAnalysis.Line2.Point1.Type, 0
TestParameter, AutoAnalysis.Line2.Point1.XY.X, 
TestParameter, AutoAnalysis.Line2.Point1.XY.Y, 
TestParameter, AutoAnalysis.Line2.Point1.Data.Var, 
TestParameter, AutoAnalysis.Line2.Point1.Data.Condition, 
TestParameter, AutoAnalysis.Line2.Point1.Data.Start, false
TestParameter, AutoAnalysis.Line2.Point1.Data.StartVar, 
TestParameter, AutoAnalysis.Line2.Point1.Data.StartCondition, 
TestParameter, AutoAnalysis.Line2.Point2.Type, 0
TestParameter, AutoAnalysis.Line2.Point2.XY.X, 
TestParameter, AutoAnalysis.Line2.Point2.XY.Y, 
TestParameter, AutoAnalysis.Line2.Point2.Data.Var, 
TestParameter, AutoAnalysis.Line2.Point2.Data.Condition, 
TestParameter, AutoAnalysis.Line2.Point2.Data.Start, false
TestParameter, AutoAnalysis.Line2.Point2.Data.StartVar, 
TestParameter, AutoAnalysis.Line2.Point2.Data.StartCondition, 
TestParameter, AutoAnalysis.Line2.GradientExpr, 0
TestParameter, AutoAnalysis.Marker.Enabled, false
TestParameter, AutoAnalysis.Marker.Data.Var, 
TestParameter, AutoAnalysis.Marker.Data.Condition, 
TestParameter, AutoAnalysis.Marker.Data.Start, false
TestParameter, AutoAnalysis.Marker.Data.StartVar, 
TestParameter, AutoAnalysis.Marker.Data.StartCondition, 
MetaData, TestRecord.EntryPoint, true
MetaData, TestRecord.RecordTime, 07/03/2019 11:25:33
MetaData, TestRecord.TestTarget, 6-43
MetaData, TestRecord.IterationIndex, 1
MetaData, TestRecord.Preservation, true
MetaData, TestRecord.Flag, 
MetaData, TestRecord.Remarks, good
MetaData, TestRecord.LinkKey, 89dcbb9c-1e9e-4532-a432-bf19c6bfc5ca
Dimension1, 51, 51, 51, 51, 51, 51, 51
Dimension2, 7, 7, 7, 7, 7, 7, 7
DataName, VD, VG, ID, IG, IS, absIg, absId
DataValue, 0, 0, -6.4726E-12, 4.2160000000000006E-11, 1.2350000000000001E-11, 4.2160000000000006E-11, 6.4726E-12
DataValue, 0.1, 0, 4.6975000000000006E-10, -4.144E-11, -4.7684000000000008E-10, 4.144E-11, 4.6975000000000006E-10
DataValue, 0.2, 0, 6.1149E-10, 1.7340000000000002E-11, -5.6532000000000007E-10, 1.7340000000000002E-11, 6.1149E-10
DataValue, 0.3, 0, 7.2841000000000007E-10, -2.1500000000000003E-12, -7.1560000000000009E-10, 2.1500000000000003E-12, 7.2841000000000007E-10
DataValue, 0.4, 0, 7.1955000000000006E-10, -3.3380000000000005E-11, -7.3115000000000011E-10, 3.3380000000000005E-11, 7.1955000000000006E-10
DataValue, 0.5, 0, 7.5423000000000009E-10, 3.0060000000000004E-11, -7.15E-10, 3.0060000000000004E-11, 7.5423000000000009E-10
DataValue, 0.6, 0, 8.1553000000000008E-10, -2.0500000000000004E-12, -8.1515E-10, 2.0500000000000004E-12, 8.1553000000000008E-10
DataValue, 0.70000000000000007, 0, 7.717200000000001E-10, -2.114E-11, -7.9111000000000007E-10, 2.114E-11, 7.717200000000001E-10
DataValue, 0.8, 0, 8.0132000000000008E-10, 3.7280000000000006E-11, -7.7220000000000008E-10, 3.7280000000000006E-11, 8.0132000000000008E-10
DataValue, 0.9, 0, 8.4085E-10, -3.23E-12, -8.5751000000000007E-10, 3.23E-12, 8.4085E-10
DataValue, 1, 0, 7.8808E-10, -1.3640000000000001E-11, -8.1449E-10, 1.3640000000000001E-11, 7.8808E-10
DataValue, 1.1, 0, 8.1926E-10, 4.7650000000000005E-11, -8.0186000000000006E-10, 4.7650000000000005E-11, 8.1926E-10
DataValue, 1.2, 0, 8.4772E-10, -2.39E-12, -8.862000000000001E-10, 2.39E-12, 8.4772E-10
DataValue, 1.3, 0, 7.9022000000000009E-10, -3.43E-12, -8.2266E-10, 3.43E-12, 7.9022000000000009E-10
DataValue, 1.4000000000000001, 0, 8.2954000000000012E-10, 4.971E-11, -8.1962000000000011E-10, 4.971E-11, 8.2954000000000012E-10
DataValue, 1.5, 0, 8.5237E-10, -2.9E-12, -9.0314E-10, 2.9E-12, 8.5237E-10
DataValue, 1.6, 0, 7.9422000000000008E-10, -1.8900000000000002E-12, -8.2694E-10, 1.8900000000000002E-12, 7.9422000000000008E-10
DataValue, 1.7, 0, 8.3419000000000009E-10, 4.9700000000000007E-11, -8.2696000000000011E-10, 4.9700000000000007E-11, 8.3419000000000009E-10
DataValue, 1.8, 0, 8.540900000000001E-10, -3.4000000000000005E-12, -9.0512000000000008E-10, 3.4000000000000005E-12, 8.540900000000001E-10
DataValue, 1.9000000000000001, 0, 7.9798000000000007E-10, -1.7000000000000002E-12, -8.3430000000000011E-10, 1.7000000000000002E-12, 7.9798000000000007E-10
DataValue, 2, 0, 8.376500000000001E-10, 4.6200000000000006E-11, -8.3866000000000008E-10, 4.6200000000000006E-11, 8.376500000000001E-10
DataValue, 2.1, 0, 8.5518E-10, -3.7300000000000005E-12, -9.0191E-10, 3.7300000000000005E-12, 8.5518E-10
DataValue, 2.2, 0, 7.9776E-10, -7.4000000000000008E-13, -8.3349000000000009E-10, 7.4000000000000008E-13, 7.9776E-10
DataValue, 2.3000000000000003, 0, 8.4177000000000008E-10, 4.5060000000000004E-11, -8.4074E-10, 4.5060000000000004E-11, 8.4177000000000008E-10
DataValue, 2.4, 0, 8.545000000000001E-10, -5.65E-12, -9.0517000000000009E-10, 5.65E-12, 8.545000000000001E-10
DataValue, 2.5, 0, 8.0017E-10, -4.5000000000000005E-13, -8.371E-10, 4.5000000000000005E-13, 8.0017E-10
DataValue, 2.6, 0, 8.4615E-10, 4.155E-11, -8.4130000000000008E-10, 4.155E-11, 8.4615E-10
DataValue, 2.7, 0, 8.5395E-10, -1.4450000000000001E-11, -9.0234000000000011E-10, 1.4450000000000001E-11, 8.5395E-10
DataValue, 2.8000000000000003, 0, 8.0176E-10, -3.8E-12, -8.2966000000000011E-10, 3.8E-12, 8.0176E-10
DataValue, 2.9, 0, 8.5307E-10, 3.142E-11, -8.3809E-10, 3.142E-11, 8.5307E-10
DataValue, 3, 0, 8.5346000000000007E-10, -2.4520000000000003E-11, -8.9566000000000009E-10, 2.4520000000000003E-11, 8.5346000000000007E-10
DataValue, 3.1, 0, 8.0834E-10, -9.56E-12, -8.212100000000001E-10, 9.56E-12, 8.0834E-10
DataValue, 3.2, 0, 8.599000000000001E-10, 2.116E-11, -8.3969E-10, 2.116E-11, 8.599000000000001E-10
DataValue, 3.3000000000000003, 0, 8.5475000000000007E-10, -4.0300000000000006E-11, -8.8482000000000005E-10, 4.0300000000000006E-11, 8.5475000000000007E-10
DataValue, 3.4, 0, 8.1322000000000011E-10, -1.181E-11, -8.0349000000000009E-10, 1.181E-11, 8.1322000000000011E-10
DataValue, 3.5, 0, 8.6911000000000011E-10, 1.169E-11, -8.3864000000000011E-10, 1.169E-11, 8.6911000000000011E-10
DataValue, 3.6, 0, 8.5975000000000006E-10, -5.1650000000000004E-11, -8.7916000000000009E-10, 5.1650000000000004E-11, 8.5975000000000006E-10
DataValue, 3.7, 0, 8.2210000000000009E-10, -1.8510000000000003E-11, -7.933E-10, 1.8510000000000003E-11, 8.2210000000000009E-10
DataValue, 3.8000000000000003, 0, 8.8414000000000011E-10, -5.19E-12, -8.4165000000000009E-10, 5.19E-12, 8.8414000000000011E-10
DataValue, 3.9, 0, 8.6201000000000011E-10, -6.568E-11, -8.6461000000000008E-10, 6.568E-11, 8.6201000000000011E-10
DataValue, 4, 0, 8.2871E-10, -2.085E-11, -7.8133E-10, 2.085E-11, 8.2871E-10
DataValue, 4.1, 0, 8.8977E-10, -1.511E-11, -8.3811E-10, 1.511E-11, 8.8977E-10
DataValue, 4.2, 0, 8.6064E-10, -7.353E-11, -8.3741000000000011E-10, 7.353E-11, 8.6064E-10
DataValue, 4.3, 0, 8.4725E-10, -2.6790000000000002E-11, -7.6728000000000006E-10, 2.6790000000000002E-11, 8.4725E-10
DataValue, 4.4, 0, 9.0916000000000009E-10, -3.3310000000000006E-11, -8.3804E-10, 3.3310000000000006E-11, 9.0916000000000009E-10
DataValue, 4.5, 0, 8.6871000000000009E-10, -8.1260000000000012E-11, -8.3734E-10, 8.1260000000000012E-11, 8.6871000000000009E-10
DataValue, 4.6000000000000005, 0, 8.5739000000000008E-10, -3.1990000000000004E-11, -7.6944000000000008E-10, 3.1990000000000004E-11, 8.5739000000000008E-10
DataValue, 4.7, 0, 9.1821000000000008E-10, -3.912E-11, -8.3951E-10, 3.912E-11, 9.1821000000000008E-10
DataValue, 4.8, 0, 8.712900000000001E-10, -8.37E-11, -8.3227000000000006E-10, 8.37E-11, 8.712900000000001E-10
DataValue, 4.9, 0, 8.7120000000000005E-10, -3.307E-11, -7.7032000000000009E-10, 3.307E-11, 8.7120000000000005E-10
DataValue, 5, 0, 9.1744000000000009E-10, -4.44E-11, -8.4677000000000007E-10, 4.44E-11, 9.1744000000000009E-10
DataValue, 0, 0.5, -1.52654E-11, 1.3E-13, -2.859E-11, 1.3E-13, 1.52654E-11
DataValue, 0.1, 0.5, 9.0893E-09, -8.6000000000000007E-13, -8.5262E-09, 8.6000000000000007E-13, 9.0893E-09
DataValue, 0.2, 0.5, 1.07905E-08, -1.5600000000000002E-12, -1.0766499999999999E-08, 1.5600000000000002E-12, 1.07905E-08
DataValue, 0.3, 0.5, 1.08789E-08, -1.444E-11, -1.09112E-08, 1.444E-11, 1.08789E-08
DataValue, 0.4, 0.5, 1.06936E-08, 3.9820000000000004E-11, -1.0663E-08, 3.9820000000000004E-11, 1.06936E-08
DataValue, 0.5, 0.5, 1.05396E-08, -2.2200000000000002E-12, -1.05805E-08, 2.2200000000000002E-12, 1.05396E-08
DataValue, 0.6, 0.5, 1.0312E-08, -1.948E-11, -1.02975E-08, 1.948E-11, 1.0312E-08
DataValue, 0.70000000000000007, 0.5, 1.00716E-08, 3.515E-11, -1.00283E-08, 3.515E-11, 1.00716E-08
DataValue, 0.8, 0.5, 9.9466E-09, -1.69E-12, -9.9891E-09, 1.69E-12, 9.9466E-09
DataValue, 0.9, 0.5, 9.7828E-09, -2.6E-11, -9.7884E-09, 2.6E-11, 9.7828E-09
DataValue, 1, 0.5, 9.6373E-09, 2.997E-11, -9.5919E-09, 2.997E-11, 9.6373E-09
DataValue, 1.1, 0.5, 9.5337E-09, -1.95E-12, -9.5364E-09, 1.95E-12, 9.5337E-09
DataValue, 1.2, 0.5, 9.3597E-09, -3.151E-11, -9.3493E-09, 3.151E-11, 9.3597E-09
DataValue, 1.3, 0.5, 9.2667E-09, 2.5870000000000003E-11, -9.2197E-09, 2.5870000000000003E-11, 9.2667E-09
DataValue, 1.4000000000000001, 0.5, 9.2101E-09, -2.7600000000000004E-12, -9.1853E-09, 2.7600000000000004E-12, 9.2101E-09
DataValue, 1.5, 0.5, 9.0556E-09, -3.3520000000000004E-11, -9.0551E-09, 3.3520000000000004E-11, 9.0556E-09
DataValue, 1.6, 0.5, 9.0221E-09, 2.0170000000000003E-11, -8.9658E-09, 2.0170000000000003E-11, 9.0221E-09
DataValue, 1.7, 0.5, 8.9318E-09, -1.8400000000000002E-12, -8.9159E-09, 1.8400000000000002E-12, 8.9318E-09
DataValue, 1.8, 0.5, 8.826E-09, -3.674E-11, -8.8191E-09, 3.674E-11, 8.826E-09
DataValue, 1.9000000000000001, 0.5, 8.7679E-09, 1.741E-11, -8.6716E-09, 1.741E-11, 8.7679E-09
DataValue, 2, 0.5, 8.7279E-09, -2.97E-12, -8.6593E-09, 2.97E-12, 8.7279E-09
DataValue, 2.1, 0.5, 8.6023E-09, -4.2620000000000004E-11, -8.5652E-09, 4.2620000000000004E-11, 8.6023E-09
DataValue, 2.2, 0.5, 8.5238E-09, 1.169E-11, -8.4668E-09, 1.169E-11, 8.5238E-09
DataValue, 2.3000000000000003, 0.5, 8.4969E-09, -2.3500000000000003E-12, -8.4847E-09, 2.3500000000000003E-12, 8.4969E-09
DataValue, 2.4, 0.5, 8.4545E-09, -4.395E-11, -8.4443E-09, 4.395E-11, 8.4545E-09
DataValue, 2.5, 0.5, 8.3548E-09, 3.9800000000000004E-12, -8.2904E-09, 3.9800000000000004E-12, 8.3548E-09
DataValue, 2.6, 0.5, 8.3565E-09, -3.28E-12, -8.3246E-09, 3.28E-12, 8.3565E-09
DataValue, 2.7, 0.5, 8.2614E-09, -4.8120000000000004E-11, -8.2538E-09, 4.8120000000000004E-11, 8.2614E-09
DataValue, 2.8000000000000003, 0.5, 8.1751E-09, 1.3800000000000002E-12, -8.123E-09, 1.3800000000000002E-12, 8.1751E-09
DataValue, 2.9, 0.5, 8.2128E-09, -3.0900000000000004E-12, -8.1623E-09, 3.0900000000000004E-12, 8.2128E-09
DataValue, 3, 0.5, 8.123E-09, -4.956E-11, -8.0975E-09, 4.956E-11, 8.123E-09
DataValue, 3.1, 0.5, 8.0595E-09, -1.86E-12, -7.9955E-09, 1.86E-12, 8.0595E-09
DataValue, 3.2, 0.5, 8.0831E-09, -4.18E-12, -8.0339E-09, 4.18E-12, 8.0831E-09
DataValue, 3.3000000000000003, 0.5, 8.0131E-09, -5.178E-11, -7.9851E-09, 5.178E-11, 8.0131E-09
DataValue, 3.4, 0.5, 7.964E-09, -2.8600000000000003E-12, -7.8874E-09, 2.8600000000000003E-12, 7.964E-09
DataValue, 3.5, 0.5, 7.9789E-09, -5.49E-12, -7.9195E-09, 5.49E-12, 7.9789E-09
DataValue, 3.6, 0.5, 7.8835E-09, -5.7550000000000004E-11, -7.8676E-09, 5.7550000000000004E-11, 7.8835E-09
DataValue, 3.7, 0.5, 7.8522E-09, -5.9E-12, -7.7902E-09, 5.9E-12, 7.8522E-09
DataValue, 3.8000000000000003, 0.5, 7.8668E-09, -8.54E-12, -7.8335E-09, 8.54E-12, 7.8668E-09
DataValue, 3.9, 0.5, 7.8383E-09, -6.047E-11, -7.7878E-09, 6.047E-11, 7.8383E-09
DataValue, 4, 0.5, 7.7418E-09, -1.088E-11, -7.669E-09, 1.088E-11, 7.7418E-09
DataValue, 4.1, 0.5, 7.8244E-09, -1.34E-11, -7.7618E-09, 1.34E-11, 7.8244E-09
DataValue, 4.2, 0.5, 7.7359E-09, -6.617E-11, -7.7397E-09, 6.617E-11, 7.7359E-09
DataValue, 4.3, 0.5, 7.6628E-09, -1.6180000000000003E-11, -7.5763E-09, 1.6180000000000003E-11, 7.6628E-09
DataValue, 4.4, 0.5, 7.7119E-09, -1.602E-11, -7.639E-09, 1.602E-11, 7.7119E-09
DataValue, 4.5, 0.5, 7.6525E-09, -7.27E-11, -7.6306E-09, 7.27E-11, 7.6525E-09
DataValue, 4.6000000000000005, 0.5, 7.5949E-09, -1.9840000000000003E-11, -7.5276E-09, 1.9840000000000003E-11, 7.5949E-09
DataValue, 4.7, 0.5, 7.6542E-09, -1.8800000000000002E-11, -7.5853E-09, 1.8800000000000002E-11, 7.6542E-09
DataValue, 4.8, 0.5, 7.5894E-09, -7.608000000000001E-11, -7.5876E-09, 7.608000000000001E-11, 7.5894E-09
DataValue, 4.9, 0.5, 7.5396E-09, -2.6180000000000004E-11, -7.474E-09, 2.6180000000000004E-11, 7.5396E-09
DataValue, 5, 0.5, 7.5735E-09, -1.6250000000000002E-11, -7.5267E-09, 1.6250000000000002E-11, 7.5735E-09
DataValue, 0, 1, -1.757E-11, 1.3E-13, -1.652E-11, 1.3E-13, 1.757E-11
DataValue, 0.1, 1, 5.53122E-08, 9.24E-12, -5.3087799999999994E-08, 9.24E-12, 5.53122E-08
DataValue, 0.2, 1, 7.3235399999999989E-08, 4.7970000000000003E-11, -7.26814E-08, 4.7970000000000003E-11, 7.3235399999999989E-08
DataValue, 0.3, 1, 7.6111E-08, -3.9670000000000004E-11, -7.56746E-08, 3.9670000000000004E-11, 7.6111E-08
DataValue, 0.4, 1, 7.47988E-08, 3.2580000000000005E-11, -7.4821999999999993E-08, 3.2580000000000005E-11, 7.47988E-08
DataValue, 0.5, 1, 7.3401799999999987E-08, -2.147E-11, -7.33472E-08, 2.147E-11, 7.3401799999999987E-08
DataValue, 0.6, 1, 7.27206E-08, 1.19E-11, -7.2468E-08, 1.19E-11, 7.27206E-08
DataValue, 0.70000000000000007, 1, 7.1479799999999991E-08, -3.0600000000000003E-12, -7.1452799999999987E-08, 3.0600000000000003E-12, 7.1479799999999991E-08
DataValue, 0.8, 1, 7.019479999999999E-08, 1.1000000000000001E-13, -7.0143E-08, 1.1000000000000001E-13, 7.019479999999999E-08
DataValue, 0.9, 1, 6.944779999999999E-08, 1.59E-12, -6.937779999999999E-08, 1.59E-12, 6.944779999999999E-08
DataValue, 1, 1, 6.8605E-08, -2.41E-12, -6.84124E-08, 2.41E-12, 6.8605E-08
DataValue, 1.1, 1, 6.755459999999999E-08, 9.2000000000000012E-13, -6.7508E-08, 9.2000000000000012E-13, 6.755459999999999E-08
DataValue, 1.2, 1, 6.7217E-08, -2.19E-12, -6.7092199999999987E-08, 2.19E-12, 6.7217E-08
DataValue, 1.3, 1, 6.6427199999999987E-08, 8.1000000000000008E-13, -6.6210599999999988E-08, 8.1000000000000008E-13, 6.6427199999999987E-08
DataValue, 1.4000000000000001, 1, 6.5813599999999988E-08, -1.5800000000000001E-12, -6.56564E-08, 1.5800000000000001E-12, 6.5813599999999988E-08
DataValue, 1.5, 1, 6.48822E-08, 1.03E-12, -6.4943799999999992E-08, 1.03E-12, 6.48822E-08
DataValue, 1.6, 1, 6.4537999999999992E-08, -2.14E-12, -6.4646199999999993E-08, 2.14E-12, 6.4537999999999992E-08
DataValue, 1.7, 1, 6.38944E-08, 7.9000000000000007E-13, -6.40532E-08, 7.9000000000000007E-13, 6.38944E-08
DataValue, 1.8, 1, 6.354E-08, -8.4900000000000012E-12, -6.35728E-08, 8.4900000000000012E-12, 6.354E-08
DataValue, 1.9000000000000001, 1, 6.32362E-08, 1.9070000000000002E-11, -6.31822E-08, 1.9070000000000002E-11, 6.32362E-08
DataValue, 2, 1, 6.26138E-08, -3.194E-11, -6.2649199999999992E-08, 3.194E-11, 6.26138E-08
DataValue, 2.1, 1, 6.2302799999999988E-08, 3.849E-11, -6.2228199999999991E-08, 3.849E-11, 6.2302799999999988E-08
DataValue, 2.2, 1, 6.2016199999999989E-08, -4.676E-11, -6.20874E-08, 4.676E-11, 6.2016199999999989E-08
DataValue, 2.3000000000000003, 1, 6.1708599999999992E-08, 4.9910000000000005E-11, -6.16456E-08, 4.9910000000000005E-11, 6.1708599999999992E-08
DataValue, 2.4, 1, 6.12708E-08, -5.1980000000000004E-11, -6.11876E-08, 5.1980000000000004E-11, 6.12708E-08
