
SetupTitle, TFT stab RollOut
PrimitiveTest, I/V Sweep
TestParameter, Context.MainFrame, B1500A
TestParameter, Channel.UnitType, SMU, SMU, SMU
TestParameter, Channel.Unit, SMU2:HR, SMU3:MP, SMU4:MP
TestParameter, Channel.IName, ID, IG, IS
TestParameter, Channel.VName, VD, VG, VS
TestParameter, Channel.Mode, V, V, COMMON
TestParameter, Channel.Func, CONST, VAR1, CONST
TestParameter, Channel.Index, 
TestParameter, Channel.Time, 
TestParameter, Measurement.Port.Unit, SMU2:HR, SMU3:MP, SMU4:MP
TestParameter, Measurement.Port.SeriesResistor, NONE, NONE, NONE
TestParameter, Measurement.Port.Filter, ON, ON, ON
TestParameter, Measurement.Port.OutputVoltageComparison, 0, 0, 0
TestParameter, Measurement.Primary.Locus, Single
TestParameter, Measurement.Primary.Scale, LINEAR
TestParameter, Measurement.Primary.Start, -2
TestParameter, Measurement.Primary.Stop, 5
TestParameter, Measurement.Primary.Step, 0.07
TestParameter, Measurement.Primary.Compliance, 0.001
TestParameter, Measurement.Primary.PowerCompliance, 0
TestParameter, Measurement.Aborting.Condition, CONTINUE AT ANY
TestParameter, Measurement.PostOutput.Value, START
TestParameter, Measurement.PostOutput.Retention, OFF
TestParameter, Measurement.Bias.Source, 3, -2, 0
TestParameter, Measurement.Bias.Compliance, 0.0001, 0.001, 0.1
TestParameter, Measurement.Monitor.Unit, SMU2:HR, SMU3:MP, SMU4:MP
TestParameter, Measurement.Monitor.Adc, HR ADC, HR ADC, HR ADC
TestParameter, Measurement.Monitor.Measurement, Compliance Side, Compliance Side, Compliance Side
TestParameter, Measurement.Monitor.RangingMode, LIMITED, LIMITED, LIMITED
TestParameter, Measurement.Monitor.RangeBoundary, 100pA, 1nA, 1nA
TestParameter, Measurement.Monitor.RangeRating, BY FULL RANGE, BY FULL RANGE, BY FULL RANGE
TestParameter, Measurement.Monitor.RangeRatingCoeff, 50, 50, 50
TestParameter, Measurement.Timing.Hold, 0.5
TestParameter, Measurement.Timing.Delay, 0.05
TestParameter, Measurement.Adc.HighSpeed.Mode, AUTO
TestParameter, Measurement.Adc.HighSpeed.Coeff, 1
TestParameter, Measurement.Adc.HighResolution.AutoZero, OFF
TestParameter, Measurement.Adc.HighResolution.Mode, AUTO
TestParameter, Measurement.Adc.HighResolution.Coeff, 6
TestParameter, Measurement.WaitTime.Source.Coeff, 1
TestParameter, Measurement.WaitTime.Source.Offset, 0
TestParameter, Measurement.WaitTime.Monitor.Coeff, 1
TestParameter, Measurement.WaitTime.Monitor.Offset, 0
TestParameter, Function.Analysis.Name, dIddVg, absIg, absId
TestParameter, Function.Analysis.Unit, S, A, A
TestParameter, Function.Analysis.Definition, (delta(sqrt(ID))/delta(VG))^2, abs(IG), abs(ID)
TestParameter, Output.Graph.Enabled, true
TestParameter, Output.Graph.AutoScaling, false
TestParameter, Output.Graph.XAxis.Data, VG
TestParameter, Output.Graph.XAxis.Scale, Linear
TestParameter, Output.Graph.XAxis.Left, -2
TestParameter, Output.Graph.XAxis.Right, 6
TestParameter, Output.Graph.XAxis.RunTimeAutoScale, true
TestParameter, Output.Graph.YAxis.Data, ID, absIg
TestParameter, Output.Graph.YAxis.Scale, Log, Log
TestParameter, Output.Graph.YAxis.Bottom, 0.001, 0
TestParameter, Output.Graph.YAxis.Top, 0.01, 1
TestParameter, Output.Graph.YAxis.Group, , 
TestParameter, Output.Graph.YAxis.RunTimeAutoScale, true, true
TestParameter, Output.List.Data, VG, IG, ID, IS, VD, dIddVg, absIg, absId
TestParameter, AutoAnalysis.Interpolation, false
TestParameter, AutoAnalysis.Line1.Enabled, false
TestParameter, AutoAnalysis.Line1.Type, 1
TestParameter, AutoAnalysis.Line1.Fix, True
TestParameter, AutoAnalysis.Line1.YAxis, 0
TestParameter, AutoAnalysis.Line1.Point1.Type, 0
TestParameter, AutoAnalysis.Line1.Point1.XY.X, 
TestParameter, AutoAnalysis.Line1.Point1.XY.Y, 
TestParameter, AutoAnalysis.Line1.Point1.Data.Var, 
TestParameter, AutoAnalysis.Line1.Point1.Data.Condition, 
TestParameter, AutoAnalysis.Line1.Point1.Data.Start, false
TestParameter, AutoAnalysis.Line1.Point1.Data.StartVar, 
TestParameter, AutoAnalysis.Line1.Point1.Data.StartCondition, 
TestParameter, AutoAnalysis.Line1.Point2.Type, 0
TestParameter, AutoAnalysis.Line1.Point2.XY.X, 
TestParameter, AutoAnalysis.Line1.Point2.XY.Y, 
TestParameter, AutoAnalysis.Line1.Point2.Data.Var, 
TestParameter, AutoAnalysis.Line1.Point2.Data.Condition, 
TestParameter, AutoAnalysis.Line1.Point2.Data.Start, false
TestParameter, AutoAnalysis.Line1.Point2.Data.StartVar, 
TestParameter, AutoAnalysis.Line1.Point2.Data.StartCondition, 
TestParameter, AutoAnalysis.Line1.GradientExpr, 0
TestParameter, AutoAnalysis.Line2.Enabled, false
TestParameter, AutoAnalysis.Line2.Type, 1
TestParameter, AutoAnalysis.Line2.Fix, True
TestParameter, AutoAnalysis.Line2.YAxis, 0
TestParameter, AutoAnalysis.Line2.Point1.Type, 0
TestParameter, AutoAnalysis.Line2.Point1.XY.X, 
TestParameter, AutoAnalysis.Line2.Point1.XY.Y, 
TestParameter, AutoAnalysis.Line2.Point1.Data.Var, 
TestParameter, AutoAnalysis.Line2.Point1.Data.Condition, 
TestParameter, AutoAnalysis.Line2.Point1.Data.Start, false
TestParameter, AutoAnalysis.Line2.Point1.Data.StartVar, 
TestParameter, AutoAnalysis.Line2.Point1.Data.StartCondition, 
TestParameter, AutoAnalysis.Line2.Point2.Type, 0
TestParameter, AutoAnalysis.Line2.Point2.XY.X, 
TestParameter, AutoAnalysis.Line2.Point2.XY.Y, 
TestParameter, AutoAnalysis.Line2.Point2.Data.Var, 
TestParameter, AutoAnalysis.Line2.Point2.Data.Condition, 
TestParameter, AutoAnalysis.Line2.Point2.Data.Start, false
TestParameter, AutoAnalysis.Line2.Point2.Data.StartVar, 
TestParameter, AutoAnalysis.Line2.Point2.Data.StartCondition, 
TestParameter, AutoAnalysis.Line2.GradientExpr, 0
TestParameter, AutoAnalysis.Marker.Enabled, false
TestParameter, AutoAnalysis.Marker.Data.Var, 
TestParameter, AutoAnalysis.Marker.Data.Condition, 
TestParameter, AutoAnalysis.Marker.Data.Start, false
TestParameter, AutoAnalysis.Marker.Data.StartVar, 
TestParameter, AutoAnalysis.Marker.Data.StartCondition, 
MetaData, TestRecord.EntryPoint, true
MetaData, TestRecord.RecordTime, 07/03/2019 12:03:14
MetaData, TestRecord.TestTarget, 6-48
MetaData, TestRecord.IterationIndex, 3
MetaData, TestRecord.Preservation, true
MetaData, TestRecord.Flag, 
MetaData, TestRecord.Remarks, new setup
MetaData, TestRecord.LinkKey, 12602183-e677-4440-afb1-b64d87ea9aa0
Dimension1, 101, 101, 101, 101, 101, 101, 101, 101
Dimension2, 1, 1, 1, 1, 1, 1, 1, 1
DataName, VG, VD, ID, IG, IS, dIddVg, absIg, absId
DataValue, -2, 3, 1.7419000000000002E-10, -1.8589000000000002E-10, -7.3050000000000009E-11, 2.8061405352592148E-09, 1.8589000000000002E-10, 1.7419000000000002E-10
DataValue, -1.93, 3, 9.006000000000001E-11, -1.3077E-10, 7.6E-12, 1.910981169388914E-10, 1.3077E-10, 9.006000000000001E-11
DataValue, -1.86, 3, 1.2685E-10, -7.5260000000000007E-11, 7.1000000000000008E-12, 2.1250007285132936E-10, 7.5260000000000007E-11, 1.2685E-10
DataValue, -1.79, 3, 1.3296E-10, -1.2021000000000002E-10, -7.37E-11, 1.7223115089502323E-11, 1.2021000000000002E-10, 1.3296E-10
DataValue, -1.72, 3, 1.1410000000000001E-10, -7.3540000000000012E-11, 3.445E-11, 7.0010209034164592E-12, 7.3540000000000012E-11, 1.1410000000000001E-10
DataValue, -1.6500000000000001, 3, 1.4164000000000001E-10, -1.1209000000000001E-10, -5.835000000000001E-11, 2.2508250186387587E-10, 1.1209000000000001E-10, 1.4164000000000001E-10
DataValue, -1.58, 3, 7.364E-11, -1.1729000000000002E-10, 2.4300000000000003E-12, 8.5930431306184588E-12, 1.1729000000000002E-10, 7.364E-11
DataValue, -1.51, 3, 1.3204000000000002E-10, -9.448E-11, -8.9E-13, 3.6174257245963991E-10, 9.448E-11, 1.3204000000000002E-10
DataValue, -1.44, 3, 1.2643000000000002E-10, -8.6500000000000011E-11, -2.4300000000000003E-12, 1.0023635548071273E-11, 8.6500000000000011E-11, 1.2643000000000002E-10
DataValue, -1.37, 3, 1.2205E-10, -8.416000000000001E-11, -1.95E-12, 2.6996291121801979E-12, 8.416000000000001E-11, 1.2205E-10
DataValue, -1.3, 3, 1.2131000000000002E-10, -7.783E-11, -4.02E-12, 2.5142671463026881E-14, 7.783E-11, 1.2131000000000002E-10
DataValue, -1.23, 3, 1.2156000000000002E-10, -8.0440000000000009E-11, -3.5400000000000003E-12, 2.6983633189629337E-10, 8.0440000000000009E-11, 1.2156000000000002E-10
DataValue, -1.16, 3, 7.59398E-11, -7.961000000000001E-11, -6.755E-11, 4.2630415308427117E-10, 7.961000000000001E-11, 7.59398E-11
DataValue, -1.09, 3, 6.61754E-11, -6.553E-11, 2.3200000000000002E-12, 1.3221831360252569E-11, 6.553E-11, 6.61754E-11
DataValue, -1.02, 3, 6.73266E-11, -1.1598000000000001E-10, -1.5700000000000002E-12, 2.3263763469599106E-11, 1.1598000000000001E-10, 6.73266E-11
DataValue, -0.95000000000000007, 3, 5.56452E-11, -5.978E-11, 7.4540000000000008E-11, 1.9264683437683123E-11, 5.978E-11, 5.56452E-11
DataValue, -0.88, 3, 5.7620199999999996E-11, -5.936E-11, 2.51E-12, 8.2425125739969959E-12, 5.936E-11, 5.7620199999999996E-11
DataValue, -0.81, 3, 4.98102E-11, -4.0900000000000005E-12, -2.72E-12, 4.1476057122165995E-11, 4.0900000000000005E-12, 4.98102E-11
DataValue, -0.74, 3, 4.4744999999999996E-11, -4.0990000000000005E-11, 7.232E-11, 5.9005047152983038E-13, 4.0990000000000005E-11, 4.4744999999999996E-11
DataValue, -0.67, 3, 4.83038E-11, -4.865E-11, -1.88E-12, 5.4141508041091214E-12, 4.865E-11, 4.83038E-11
DataValue, -0.6, 3, 4.92092E-11, -8.575E-11, 1.6800000000000001E-12, 1.5742223854175005E-13, 8.575E-11, 4.92092E-11
DataValue, -0.53, 3, 4.9079E-11, -6.54E-11, -6.4640000000000009E-11, 3.4932805348552758E-11, 6.54E-11, 4.9079E-11
DataValue, -0.46, 3, 3.82848E-11, -3.813E-11, 4.3000000000000004E-13, 1.4723341567789411E-11, 3.813E-11, 3.82848E-11
DataValue, -0.39, 3, 4.18408E-11, -8.8100000000000011E-11, 2.34E-12, 3.1681481771778061E-11, 8.8100000000000011E-11, 4.18408E-11
DataValue, -0.32, 3, 2.91542E-11, -3.216E-11, 7.737E-11, 2.5420342572954324E-11, 3.216E-11, 2.91542E-11
DataValue, -0.25, 3, 3.32074E-11, -3.1950000000000003E-11, 1.1100000000000001E-12, 3.1694080719408886E-12, 3.1950000000000003E-11, 3.32074E-11
DataValue, -0.18, 3, 2.65248E-11, 1.754E-11, -3.7E-12, 3.8862760646278008E-11, 1.754E-11, 2.65248E-11
DataValue, -0.11, 3, 2.39104E-11, -1.4630000000000002E-11, 6.73E-11, 5.7285838478273612E-11, 1.4630000000000002E-11, 2.39104E-11
DataValue, -0.04, 3, 3.85622E-11, -2.6990000000000002E-11, -1.2990000000000002E-11, 1.0454361693701865E-09, 2.6990000000000002E-11, 3.85622E-11
DataValue, 0.03, 3, 8.867E-11, 2.6280000000000002E-11, -6.8610000000000009E-11, 8.5049024492628152E-09, 2.6280000000000002E-11, 8.867E-11
DataValue, 0.1, 3, 3.6561000000000004E-10, -2.484E-11, -3.7384E-10, 3.0834168629974174E-08, 2.484E-11, 3.6561000000000004E-10
DataValue, 0.17, 3, 1.156E-09, -2.2040000000000002E-11, -1.0046E-09, 5.4951587117800662E-08, 2.2040000000000002E-11, 1.156E-09
DataValue, 0.24, 3, 2.6977E-09, -1.291E-11, -2.6201E-09, 5.1575631997973626E-08, 1.291E-11, 2.6977E-09
DataValue, 0.31, 3, 4.3289E-09, -7.381E-11, -4.257E-09, 3.2587104050833543E-08, 7.381E-11, 4.3289E-09
DataValue, 0.38, 3, 5.9617E-09, -1.3560000000000001E-11, -5.6522E-09, 2.2896783416176536E-08, 1.3560000000000001E-11, 5.9617E-09
DataValue, 0.45, 3, 7.5653E-09, -1.169E-11, -7.2389E-09, 1.2521340024617679E-08, 1.169E-11, 7.5653E-09
DataValue, 0.52, 3, 8.6263E-09, 4.2670000000000006E-11, -8.2889E-09, 1.081955358681016E-08, 4.2670000000000006E-11, 8.6263E-09
DataValue, 0.59, 3, 1.0310599999999999E-08, -2.4520000000000003E-11, -9.9052E-09, 3.6729548839044791E-08, 2.4520000000000003E-11, 1.0310599999999999E-08
DataValue, 0.66, 3, 1.43302E-08, 3.617E-11, -1.4188199999999999E-08, 7.040036385641229E-08, 3.617E-11, 1.43302E-08
DataValue, 0.73, 3, 1.92342E-08, -4.4300000000000005E-11, -1.8978999999999997E-08, 7.9984093302724854E-08, 4.4300000000000005E-11, 1.92342E-08
DataValue, 0.8, 3, 2.5377399999999998E-08, -9.5200000000000014E-12, -2.5101399999999996E-08, 9.626996568330883E-08, 9.5200000000000014E-12, 2.5377399999999998E-08
DataValue, 0.87, 3, 3.3169799999999994E-08, -5.2700000000000008E-12, -3.2756399999999994E-08, 1.198552886673299E-07, 5.2700000000000008E-12, 3.3169799999999994E-08
DataValue, 0.94000000000000006, 3, 4.31688E-08, -6.4060000000000009E-11, -4.26098E-08, 1.5331280322083096E-07, 6.4060000000000009E-11, 4.31688E-08
DataValue, 1.01, 3, 5.6141999999999994E-08, 1.045E-11, -5.5510599999999992E-08, 1.8489230061238745E-07, 1.045E-11, 5.6141999999999994E-08
DataValue, 1.08, 3, 7.1807799999999993E-08, 1.51E-12, -7.011E-08, 2.2479736716086038E-07, 1.51E-12, 7.1807799999999993E-08
DataValue, 1.1500000000000001, 3, 9.2003599999999986E-08, -5.703E-11, -8.98592E-08, 2.8045587405987234E-07, 5.703E-11, 9.2003599999999986E-08
DataValue, 1.22, 3, 1.1704E-07, -5.882000000000001E-11, -1.1187999999999999E-07, 3.4793641828145031E-07, 5.882000000000001E-11, 1.1704E-07
DataValue, 1.29, 3, 1.4891999999999999E-07, -6.7000000000000007E-13, -1.4818E-07, 4.7063648044493616E-07, 6.7000000000000007E-13, 1.4891999999999999E-07
DataValue, 1.36, 3, 1.9198E-07, 4.72E-12, -1.906E-07, 6.1307095887724132E-07, 4.72E-12, 1.9198E-07
DataValue, 1.43, 3, 2.4554E-07, 3.4000000000000005E-11, -2.44E-07, 7.1790775967926179E-07, 3.4000000000000005E-11, 2.4554E-07
DataValue, 1.5, 3, 3.1E-07, -2.54E-12, -3.0763999999999997E-07, 8.2466732772830961E-07, 2.54E-12, 3.1E-07
DataValue, 1.57, 3, 3.877E-07, -5.7310000000000007E-11, -3.8604E-07, 9.82252870895115E-07, 5.7310000000000007E-11, 3.877E-07
DataValue, 1.6400000000000001, 3, 4.8376E-07, 2.8300000000000003E-12, -4.8186E-07, 1.173661304610627E-06, 2.8300000000000003E-12, 4.8376E-07
DataValue, 1.71, 3, 5.9958E-07, 1.9020000000000003E-11, -5.9602E-07, 1.3463587902694983E-06, 1.9020000000000003E-11, 5.9958E-07
DataValue, 1.78, 3, 7.3612E-07, 2.418E-11, -7.3262E-07, 1.4828514900716279E-06, 2.418E-11, 7.3612E-07
DataValue, 1.85, 3, 8.9266E-07, 5.346E-11, -8.9038E-07, 1.5717077568492612E-06, 5.346E-11, 8.9266E-07
DataValue, 1.92, 3, 1.0681000000000002E-06, -1.5230000000000002E-11, -1.0398000000000002E-06, 1.8496461090738366E-06, 1.5230000000000002E-11, 1.0681000000000002E-06
DataValue, 1.99, 3, 1.2887E-06, 5.4640000000000005E-11, -1.2866E-06, 2.4111535655395781E-06, 5.4640000000000005E-11, 1.2887E-06
DataValue, 2.06, 3, 1.5647000000000002E-06, 3.2000000000000005E-13, -1.5630000000000001E-06, 2.8961608074849972E-06, 3.2000000000000005E-13, 1.5647000000000002E-06
DataValue, 2.13, 3, 1.8864000000000003E-06, -5.4570000000000005E-11, -1.8799000000000002E-06, 3.2378840875124443E-06, 5.4570000000000005E-11, 1.8864000000000003E-06
DataValue, 2.2, 3, 2.2584000000000003E-06, 4.2900000000000005E-12, -2.2542000000000004E-06, 3.7213166661770048E-06, 4.2900000000000005E-12, 2.2584000000000003E-06
DataValue, 2.27, 3, 2.7012E-06, 5.867E-11, -2.6909000000000004E-06, 4.2626095998198138E-06, 5.867E-11, 2.7012E-06
DataValue, 2.34, 3, 3.2107000000000004E-06, 5.4E-13, -3.2025000000000003E-06, 4.7775226275258919E-06, 5.4E-13, 3.2107000000000004E-06
DataValue, 2.41, 3, 3.8007000000000003E-06, -5.4980000000000007E-11, -3.7926000000000003E-06, 5.4076660114662065E-06, 5.4980000000000007E-11, 3.8007000000000003E-06
DataValue, 2.48, 3, 4.4834E-06, 3.5200000000000003E-12, -4.4766000000000005E-06, 6.1441747185228382E-06, 3.5200000000000003E-12, 4.4834E-06
DataValue, 2.5500000000000003, 3, 5.2742E-06, 9.4E-13, -5.1831E-06, 6.6335306452475227E-06, 9.4E-13, 5.2742E-06
DataValue, 2.62, 3, 6.1404000000000005E-06, -4.093E-11, -6.1275E-06, 7.4022409630300558E-06, 4.093E-11, 6.1404000000000005E-06
DataValue, 2.69, 3, 7.1688000000000007E-06, 5.7080000000000005E-11, -7.0447000000000005E-06, 8.0961150764512233E-06, 5.7080000000000005E-11, 7.1688000000000007E-06
DataValue, 2.7600000000000002, 3, 8.2733000000000009E-06, -3.3700000000000004E-11, -8.127E-06, 8.464930866895817E-06, 3.3700000000000004E-11, 8.2733000000000009E-06
DataValue, 2.83, 3, 9.5159000000000015E-06, 1.2560000000000001E-11, -9.3479E-06, 8.46232743192926E-06, 1.2560000000000001E-11, 9.5159000000000015E-06
DataValue, 2.9, 3, 1.0782000000000001E-05, -2.04E-12, -1.0586E-05, 9.46043451340131E-06, 2.04E-12, 1.0782000000000001E-05
DataValue, 2.97, 3, 1.2358000000000001E-05, 4.119E-11, -1.2146E-05, 1.0905823855611618E-05, 4.119E-11, 1.2358000000000001E-05
DataValue, 3.04, 3, 1.4032E-05, -5.6100000000000005E-11, -1.3768000000000001E-05, 1.0927549955484865E-05, 5.6100000000000005E-11, 1.4032E-05
DataValue, 3.11, 3, 1.5826E-05, 5.616E-11, -1.5536E-05, 1.1032220462891971E-05, 5.616E-11, 1.5826E-05
DataValue, 3.18, 3, 1.7732E-05, -3.5E-13, -1.7418E-05, 1.1139219294024727E-05, 3.5E-13, 1.7732E-05
DataValue, 3.25, 3, 1.9762E-05, 4.41E-12, -1.9424E-05, 1.1254113431182855E-05, 4.41E-12, 1.9762E-05
DataValue, 3.3200000000000003, 3, 2.1908E-05, 1.51E-12, -2.1538E-05, 1.1282020116481473E-05, 1.51E-12, 2.1908E-05
DataValue, 3.39, 3, 2.4164E-05, -2.9840000000000004E-11, -2.378E-05, 1.1285952062404653E-05, 2.9840000000000004E-11, 2.4164E-05
DataValue, 3.46, 3, 2.6532E-05, 5.986E-11, -2.6134E-05, 1.1245274254909039E-05, 5.986E-11, 2.6532E-05
DataValue, 3.5300000000000002, 3, 2.9E-05, -5.379E-11, -2.8564E-05, 1.1105579760635475E-05, 5.379E-11, 2.9E-05
DataValue, 3.6, 3, 3.1556E-05, 9.13E-12, -3.1144E-05, 1.1086989100902558E-05, 9.13E-12, 3.1556E-05
DataValue, 3.67, 3, 3.4238E-05, 3.0000000000000005E-14, -3.3818E-05, 1.1030036471802152E-05, 3.0000000000000005E-14, 3.4238E-05
DataValue, 3.74, 3, 3.6996E-05, 4.8500000000000005E-12, -3.6592E-05, 1.0830085240551225E-05, 4.8500000000000005E-12, 3.6996E-05
DataValue, 3.81, 3, 3.9842E-05, 2.6430000000000003E-11, -3.944E-05, 1.061212687237504E-05, 2.6430000000000003E-11, 3.9842E-05
DataValue, 3.88, 3, 4.2752E-05, -5.2100000000000006E-11, -4.2354E-05, 1.0354233886253375E-05, 5.2100000000000006E-11, 4.2752E-05
DataValue, 3.95, 3, 4.5732E-05, 5.9930000000000007E-11, -4.5350000000000005E-05, 1.0144673462412742E-05, 5.9930000000000007E-11, 4.5732E-05
DataValue, 4.0200000000000005, 3, 4.8782E-05, -1.9510000000000002E-11, -4.8422000000000005E-05, 9.9192371085148217E-06, 1.9510000000000002E-11, 4.8782E-05
DataValue, 4.09, 3, 5.189E-05, 4.97E-12, -5.1540000000000005E-05, 9.733271283955984E-06, 4.97E-12, 5.189E-05
DataValue, 4.16, 3, 5.5074E-05, 1.2000000000000001E-12, -5.475E-05, 9.5724339880279157E-06, 1.2000000000000001E-12, 5.5074E-05
DataValue, 4.23, 3, 5.8318E-05, -5.79E-12, -5.801E-05, 9.3024396265067159E-06, 5.79E-12, 5.8318E-05
DataValue, 4.3, 3, 6.1594000000000007E-05, 5.3840000000000005E-11, -6.1296E-05, 8.9969077020264084E-06, 5.3840000000000005E-11, 6.1594000000000007E-05
DataValue, 4.37, 3, 6.4908E-05, -4.85E-11, -6.4638E-05, 8.8069406752547009E-06, 4.85E-11, 6.4908E-05
DataValue, 4.44, 3, 6.8288000000000008E-05, 6.5700000000000005E-12, -6.803E-05, 8.5654872010951854E-06, 6.5700000000000005E-12, 6.8288000000000008E-05
DataValue, 4.51, 3, 7.1678E-05, 1.93E-12, -7.1438E-05, 8.2602969150865916E-06, 1.93E-12, 7.1678E-05
DataValue, 4.58, 3, 7.5100000000000009E-05, 6.5E-12, -7.4886E-05, 8.0874094678891563E-06, 6.5E-12, 7.5100000000000009E-05
DataValue, 4.65, 3, 7.8578E-05, 2.9150000000000004E-11, -7.8368E-05, 7.8624748431799369E-06, 2.9150000000000004E-11, 7.8578E-05
DataValue, 4.72, 3, 8.2058E-05, 2.29E-12, -8.2046000000000007E-05, 7.9628112948939424E-06, 2.29E-12, 8.2058E-05
DataValue, 4.79, 3, 8.5738E-05, 5.65E-12, -8.5552E-05, 7.72276648175723E-06, 5.65E-12, 8.5738E-05
DataValue, 4.86, 3, 8.9258E-05, 1.943E-11, -8.9078E-05, 7.1128432696282359E-06, 1.943E-11, 8.9258E-05
DataValue, 4.93, 3, 9.2792E-05, 2.7000000000000002E-12, -9.2776000000000008E-05, 7.1896357241033915E-06, 2.7000000000000002E-12, 9.2792E-05
DataValue, 5, 3, 9.6492E-05, 5.59E-12, -9.6324000000000008E-05, 7.3808258656664979E-06, 5.59E-12, 9.6492E-05
SetupTitle, TFT stab RollOut
PrimitiveTest, I/V Sweep
TestParameter, Context.MainFrame, B1500A
TestParameter, Channel.UnitType, SMU, SMU, SMU
TestParameter, Channel.Unit, SMU2:HR, SMU3:MP, SMU4:MP
TestParameter, Channel.IName, ID, IG, IS
TestParameter, Channel.VName, VD, VG, VS
TestParameter, Channel.Mode, V, V, COMMON
TestParameter, Channel.Func, CONST, VAR1, CONST
TestParameter, Channel.Index, 
TestParameter, Channel.Time, 
TestParameter, Measurement.Port.Unit, SMU2:HR, SMU3:MP, SMU4:MP
TestParameter, Measurement.Port.SeriesResistor, NONE, NONE, NONE
