
SetupTitle, TFT lin RollOut
PrimitiveTest, I/V Sweep
TestParameter, Context.MainFrame, B1500A
TestParameter, Channel.UnitType, SMU, SMU, SMU
TestParameter, Channel.Unit, SMU2:HR, SMU3:MP, SMU4:MP
TestParameter, Channel.IName, ID, IG, IS
TestParameter, Channel.VName, VD, VG, VS
TestParameter, Channel.Mode, V, V, COMMON
TestParameter, Channel.Func, CONST, VAR1, CONST
TestParameter, Channel.Index, 
TestParameter, Channel.Time, 
TestParameter, Measurement.Port.Unit, SMU2:HR, SMU3:MP, SMU4:MP
TestParameter, Measurement.Port.SeriesResistor, NONE, NONE, NONE
TestParameter, Measurement.Port.Filter, ON, ON, ON
TestParameter, Measurement.Port.OutputVoltageComparison, 0, 0, 0
TestParameter, Measurement.Primary.Locus, Double
TestParameter, Measurement.Primary.Scale, LINEAR
TestParameter, Measurement.Primary.Start, -2
TestParameter, Measurement.Primary.Stop, 3
TestParameter, Measurement.Primary.Step, 0.05
TestParameter, Measurement.Primary.Compliance, 0.001
TestParameter, Measurement.Primary.PowerCompliance, 0
TestParameter, Measurement.Aborting.Condition, CONTINUE AT ANY
TestParameter, Measurement.PostOutput.Value, START
TestParameter, Measurement.PostOutput.Retention, OFF
TestParameter, Measurement.Bias.Source, 0.1, -2, 0
TestParameter, Measurement.Bias.Compliance, 0.0001, 0.001, 0.1
TestParameter, Measurement.Monitor.Unit, SMU2:HR, SMU3:MP, SMU4:MP
TestParameter, Measurement.Monitor.Adc, HR ADC, HR ADC, HR ADC
TestParameter, Measurement.Monitor.Measurement, Compliance Side, Compliance Side, Compliance Side
TestParameter, Measurement.Monitor.RangingMode, LIMITED, LIMITED, LIMITED
TestParameter, Measurement.Monitor.RangeBoundary, 100pA, 1nA, 1nA
TestParameter, Measurement.Monitor.RangeRating, BY FULL RANGE, BY FULL RANGE, BY FULL RANGE
TestParameter, Measurement.Monitor.RangeRatingCoeff, 50, 50, 50
TestParameter, Measurement.Timing.Hold, 0.5
TestParameter, Measurement.Timing.Delay, 0.05
TestParameter, Measurement.Adc.HighSpeed.Mode, AUTO
TestParameter, Measurement.Adc.HighSpeed.Coeff, 1
TestParameter, Measurement.Adc.HighResolution.AutoZero, OFF
TestParameter, Measurement.Adc.HighResolution.Mode, AUTO
TestParameter, Measurement.Adc.HighResolution.Coeff, 6
TestParameter, Measurement.WaitTime.Source.Coeff, 1
TestParameter, Measurement.WaitTime.Source.Offset, 0
TestParameter, Measurement.WaitTime.Monitor.Coeff, 1
TestParameter, Measurement.WaitTime.Monitor.Offset, 0
TestParameter, Function.Analysis.Name, dIddVg, absIg, absId
TestParameter, Function.Analysis.Unit, S, A, A
TestParameter, Function.Analysis.Definition, delta(ID)/delta(VG), abs(IG), abs(ID)
TestParameter, Output.Graph.Enabled, true
TestParameter, Output.Graph.AutoScaling, false
TestParameter, Output.Graph.XAxis.Data, VG
TestParameter, Output.Graph.XAxis.Scale, Linear
TestParameter, Output.Graph.XAxis.Left, -2
TestParameter, Output.Graph.XAxis.Right, 6
TestParameter, Output.Graph.XAxis.RunTimeAutoScale, true
TestParameter, Output.Graph.YAxis.Data, absId, absIg, dIddVg, IS
TestParameter, Output.Graph.YAxis.Scale, Log, Log, Linear, Linear
TestParameter, Output.Graph.YAxis.Bottom, 0, 0, 0, -0.1
TestParameter, Output.Graph.YAxis.Top, 1, 1, 1, 0.1
TestParameter, Output.Graph.YAxis.Group, , , , 
TestParameter, Output.Graph.YAxis.RunTimeAutoScale, true, true, true, false
TestParameter, Output.List.Data, VG, IG, ID, IS, VD, dIddVg, absIg, absId
TestParameter, AutoAnalysis.Interpolation, false
TestParameter, AutoAnalysis.Line1.Enabled, false
TestParameter, AutoAnalysis.Line1.Type, 1
TestParameter, AutoAnalysis.Line1.Fix, True
TestParameter, AutoAnalysis.Line1.YAxis, 0
TestParameter, AutoAnalysis.Line1.Point1.Type, 0
TestParameter, AutoAnalysis.Line1.Point1.XY.X, 
TestParameter, AutoAnalysis.Line1.Point1.XY.Y, 
TestParameter, AutoAnalysis.Line1.Point1.Data.Var, 
TestParameter, AutoAnalysis.Line1.Point1.Data.Condition, 
TestParameter, AutoAnalysis.Line1.Point1.Data.Start, false
TestParameter, AutoAnalysis.Line1.Point1.Data.StartVar, 
TestParameter, AutoAnalysis.Line1.Point1.Data.StartCondition, 
TestParameter, AutoAnalysis.Line1.Point2.Type, 0
TestParameter, AutoAnalysis.Line1.Point2.XY.X, 
TestParameter, AutoAnalysis.Line1.Point2.XY.Y, 
TestParameter, AutoAnalysis.Line1.Point2.Data.Var, 
TestParameter, AutoAnalysis.Line1.Point2.Data.Condition, 
TestParameter, AutoAnalysis.Line1.Point2.Data.Start, false
TestParameter, AutoAnalysis.Line1.Point2.Data.StartVar, 
TestParameter, AutoAnalysis.Line1.Point2.Data.StartCondition, 
TestParameter, AutoAnalysis.Line1.GradientExpr, 0
TestParameter, AutoAnalysis.Line2.Enabled, false
TestParameter, AutoAnalysis.Line2.Type, 1
TestParameter, AutoAnalysis.Line2.Fix, True
TestParameter, AutoAnalysis.Line2.YAxis, 0
TestParameter, AutoAnalysis.Line2.Point1.Type, 0
TestParameter, AutoAnalysis.Line2.Point1.XY.X, 
TestParameter, AutoAnalysis.Line2.Point1.XY.Y, 
TestParameter, AutoAnalysis.Line2.Point1.Data.Var, 
TestParameter, AutoAnalysis.Line2.Point1.Data.Condition, 
TestParameter, AutoAnalysis.Line2.Point1.Data.Start, false
TestParameter, AutoAnalysis.Line2.Point1.Data.StartVar, 
TestParameter, AutoAnalysis.Line2.Point1.Data.StartCondition, 
TestParameter, AutoAnalysis.Line2.Point2.Type, 0
TestParameter, AutoAnalysis.Line2.Point2.XY.X, 
TestParameter, AutoAnalysis.Line2.Point2.XY.Y, 
TestParameter, AutoAnalysis.Line2.Point2.Data.Var, 
TestParameter, AutoAnalysis.Line2.Point2.Data.Condition, 
TestParameter, AutoAnalysis.Line2.Point2.Data.Start, false
TestParameter, AutoAnalysis.Line2.Point2.Data.StartVar, 
TestParameter, AutoAnalysis.Line2.Point2.Data.StartCondition, 
TestParameter, AutoAnalysis.Line2.GradientExpr, 0
TestParameter, AutoAnalysis.Marker.Enabled, false
TestParameter, AutoAnalysis.Marker.Data.Var, 
TestParameter, AutoAnalysis.Marker.Data.Condition, 
TestParameter, AutoAnalysis.Marker.Data.Start, false
TestParameter, AutoAnalysis.Marker.Data.StartVar, 
TestParameter, AutoAnalysis.Marker.Data.StartCondition, 
MetaData, TestRecord.EntryPoint, true
MetaData, TestRecord.RecordTime, 07/03/2019 11:36:36
MetaData, TestRecord.TestTarget, 6-44
MetaData, TestRecord.IterationIndex, 1
MetaData, TestRecord.Preservation, true
MetaData, TestRecord.Flag, 
MetaData, TestRecord.Remarks, good
MetaData, TestRecord.LinkKey, cf852f59-11ed-4312-be15-694da34a4dae
Dimension1, 202, 202, 202, 202, 202, 202, 202, 202
Dimension2, 1, 1, 1, 1, 1, 1, 1, 1
DataName, VG, VD, ID, IG, IS, dIddVg, absIg, absId
DataValue, -2, 0.1, 1.39856E-11, -6.09E-11, -3.027E-11, -1.8470399999999985E-10, 6.09E-11, 1.39856E-11
DataValue, -1.95, 0.1, 4.7504E-12, -6.2800000000000007E-12, 1.33E-11, -2.8882000000000044E-11, 6.2800000000000007E-12, 4.7504E-12
DataValue, -1.9000000000000001, 0.1, 1.1097399999999999E-11, -4.198E-11, 1.95E-12, 8.06740000000001E-11, 4.198E-11, 1.1097399999999999E-11
DataValue, -1.85, 0.1, 1.2817799999999999E-11, -4.049E-11, -4.4600000000000006E-11, -7.2321999999999929E-11, 4.049E-11, 1.2817799999999999E-11
DataValue, -1.8, 0.1, 3.8652E-12, -4.7100000000000007E-12, 8.01E-12, -2.0059999999999974E-11, 4.7100000000000007E-12, 3.8652E-12
DataValue, -1.75, 0.1, 1.08118E-11, -4.6810000000000004E-11, 2.26E-12, 8.3881999999999913E-11, 4.6810000000000004E-11, 1.08118E-11
DataValue, -1.7, 0.1, 1.22534E-11, -3.182E-11, -5.1940000000000004E-11, -6.580200000000009E-11, 3.182E-11, 1.22534E-11
DataValue, -1.6500000000000001, 0.1, 4.2316E-12, -4.6000000000000006E-12, 3.67E-12, -2.6380000000000026E-11, 4.6000000000000006E-12, 4.2316E-12
DataValue, -1.6, 0.1, 9.6154E-12, -4.9610000000000004E-11, 9.000000000000001E-13, 6.4225999999999934E-11, 4.9610000000000004E-11, 9.6154E-12
DataValue, -1.55, 0.1, 1.06542E-11, -2.484E-11, -5.7350000000000007E-11, -6.643199999999995E-11, 2.484E-11, 1.06542E-11
DataValue, -1.5, 0.1, 2.9721999999999998E-12, -2.9800000000000002E-12, 4.7000000000000006E-12, -2.3423999999999975E-11, 2.9800000000000002E-12, 2.9721999999999998E-12
DataValue, -1.45, 0.1, 8.3118E-12, -5.1040000000000005E-11, -2.0200000000000003E-12, 6.0984000000000079E-11, 5.1040000000000005E-11, 8.3118E-12
DataValue, -1.4000000000000001, 0.1, 9.0706E-12, -1.551E-11, -6.5610000000000007E-11, -6.7024000000000091E-11, 1.551E-11, 9.0706E-12
DataValue, -1.35, 0.1, 1.6094E-12, -1.4400000000000001E-12, 2.14E-12, -1.7957999999999985E-11, 1.4400000000000001E-12, 1.6094E-12
DataValue, -1.3, 0.1, 7.2748E-12, -5.324E-11, 1.4800000000000002E-12, -5.7097999999999946E-11, 5.324E-11, 7.2748E-12
DataValue, -1.25, 0.1, -4.1004E-12, -8.2E-13, 7.096E-11, -5.5571999999999948E-11, 8.2E-13, 4.1004E-12
DataValue, -1.2, 0.1, 1.7175999999999999E-12, -7.7000000000000005E-13, 3.15E-12, 1.5854000000000017E-11, 7.7000000000000005E-13, 1.7175999999999999E-12
DataValue, -1.1500000000000001, 0.1, -2.515E-12, 3.907E-11, -2.16E-12, -6.2698000000000087E-11, 3.907E-11, 2.515E-12
DataValue, -1.1, 0.1, -4.5522E-12, 2.5E-11, 5.2450000000000004E-11, 5.7449999999999954E-11, 2.5E-11, 4.5522E-12
DataValue, -1.05, 0.1, 3.2299999999999998E-12, -3.0800000000000002E-12, -3.46E-12, 1.0753999999999991E-11, 3.0800000000000002E-12, 3.2299999999999998E-12
DataValue, -1, 0.1, -3.4768E-12, 4.352E-11, -2.09E-12, -8.6604000000000025E-11, 4.352E-11, 3.4768E-12
DataValue, -0.95000000000000007, 0.1, -5.4304E-12, 1.642E-11, 6.0560000000000009E-11, 5.5854000000000015E-11, 1.642E-11, 5.4304E-12
DataValue, -0.9, 0.1, 2.1086E-12, -1.46E-12, -2.8100000000000003E-12, 1.0587999999999993E-11, 1.46E-12, 2.1086E-12
DataValue, -0.85, 0.1, -4.3716E-12, 4.6630000000000005E-11, -4.1E-13, -8.1224000000000013E-11, 4.6630000000000005E-11, 4.3716E-12
DataValue, -0.8, 0.1, -6.0138E-12, 1.2330000000000001E-11, 6.287E-11, 5.4136000000000004E-11, 1.2330000000000001E-11, 6.0138E-12
DataValue, -0.75, 0.1, 1.042E-12, -1.6300000000000001E-12, -4.28E-12, 1.0120000000000003E-11, 1.6300000000000001E-12, 1.042E-12
DataValue, -0.70000000000000007, 0.1, -5.0018E-12, 4.895E-11, -4.8000000000000008E-13, 4.6554000000000005E-11, 4.895E-11, 5.0018E-12
DataValue, -0.65, 0.1, 5.6973999999999995E-12, -1.95E-12, -7.4450000000000012E-11, 4.4375999999999965E-11, 1.95E-12, 5.6973999999999995E-12
DataValue, -0.6, 0.1, -5.642E-13, 5.8000000000000005E-13, -4.82E-12, -1.9890000000000002E-11, 5.8000000000000005E-13, 5.642E-13
DataValue, -0.55, 0.1, 3.7084E-12, -4.2150000000000004E-11, 2.41E-12, 6.0428000000000014E-11, 4.2150000000000004E-11, 3.7084E-12
DataValue, -0.5, 0.1, 5.4786E-12, -1.728E-11, -5.9570000000000007E-11, -5.7445999999999984E-11, 1.728E-11, 5.4786E-12
DataValue, -0.45, 0.1, -2.0362E-12, 3.7800000000000005E-12, 3.4900000000000003E-12, -1.0462000000000003E-11, 3.7800000000000005E-12, 2.0362E-12
DataValue, -0.4, 0.1, 4.4323999999999996E-12, -4.5980000000000006E-11, 9.7000000000000011E-13, 8.3226000000000024E-11, 4.5980000000000006E-11, 4.4323999999999996E-12
DataValue, -0.35000000000000003, 0.1, 6.2863999999999995E-12, -9.94E-12, -6.452E-11, -4.7469999999999986E-11, 9.94E-12, 6.2863999999999995E-12
DataValue, -0.3, 0.1, -3.146E-13, 4.06E-12, 5E-13, 4.8280000000000016E-12, 4.06E-12, 3.146E-13
DataValue, -0.25, 0.1, 6.7692E-12, -4.8710000000000006E-11, -2.62E-12, -1.7276000000000005E-11, 4.8710000000000006E-11, 6.7692E-12
DataValue, -0.2, 0.1, -2.0422E-12, 3.2900000000000003E-12, 6.429E-11, 4.128E-11, 3.2900000000000003E-12, 2.0422E-12
DataValue, -0.15, 0.1, 1.08972E-11, 1.2900000000000002E-12, -8.12E-12, 2.75326E-10, 1.2900000000000002E-12, 1.08972E-11
DataValue, -0.1, 0.1, 2.54904E-11, 4.5830000000000005E-11, -3.2350000000000003E-11, 7.0988E-10, 4.5830000000000005E-11, 2.54904E-11
DataValue, -0.05, 0.1, 8.18852E-11, 1.706E-11, -2.704E-11, 2.1752959999999997E-09, 1.706E-11, 8.18852E-11
DataValue, 0, 0.1, 2.4302E-10, -3.365E-11, -2.7839E-10, 4.5334480000000005E-09, 3.365E-11, 2.4302E-10
DataValue, 0.05, 0.1, 5.3523E-10, 3.6400000000000006E-12, -5.2779E-10, 7.5508E-09, 3.6400000000000006E-12, 5.3523E-10
DataValue, 0.1, 0.1, 9.981E-10, -4.3350000000000004E-11, -1.0412E-09, 1.00567E-08, 4.3350000000000004E-11, 9.981E-10
DataValue, 0.15, 0.1, 1.5409E-09, 3.1E-12, -1.5641E-09, 1.1733999999999996E-08, 3.1E-12, 1.5409E-09
DataValue, 0.2, 0.1, 2.1714999999999998E-09, 5.3800000000000004E-11, -2.157E-09, 1.2257E-08, 5.3800000000000004E-11, 2.1714999999999998E-09
DataValue, 0.25, 0.1, 2.7666E-09, -5E-13, -2.7884E-09, 1.1474000000000007E-08, 5E-13, 2.7666E-09
DataValue, 0.3, 0.1, 3.3189E-09, 4.9600000000000007E-12, -3.3175999999999998E-09, 1.2763999999999998E-08, 4.9600000000000007E-12, 3.3189E-09
DataValue, 0.35000000000000003, 0.1, 4.043E-09, 4.057E-11, -3.9923E-09, 1.4534999999999991E-08, 4.057E-11, 4.043E-09
DataValue, 0.4, 0.1, 4.7724E-09, -2.611E-11, -4.7468E-09, 1.5571000000000004E-08, 2.611E-11, 4.7724E-09
DataValue, 0.45, 0.1, 5.6001E-09, 5.39E-12, -5.5222E-09, 1.9099000000000011E-08, 5.39E-12, 5.6001E-09
DataValue, 0.5, 0.1, 6.6823E-09, 1.457E-11, -6.5869E-09, 2.2605999999999994E-08, 1.457E-11, 6.6823E-09
DataValue, 0.55, 0.1, 7.8607E-09, -5.0280000000000006E-11, -7.5396E-09, 2.4639999999999994E-08, 5.0280000000000006E-11, 7.8607E-09
DataValue, 0.6, 0.1, 9.1463E-09, 4.6000000000000006E-13, -8.7618E-09, 2.6580999999999992E-08, 4.6000000000000006E-13, 9.1463E-09
DataValue, 0.65, 0.1, 1.0518799999999999E-08, -1.372E-11, -1.0326999999999999E-08, 3.4748999999999963E-08, 1.372E-11, 1.0518799999999999E-08
DataValue, 0.70000000000000007, 0.1, 1.2621199999999999E-08, -2.4860000000000002E-11, -1.251E-08, 4.6324000000000012E-08, 2.4860000000000002E-11, 1.2621199999999999E-08
DataValue, 0.75, 0.1, 1.51512E-08, 4.5980000000000006E-11, -1.4981799999999997E-08, 5.3598E-08, 4.5980000000000006E-11, 1.51512E-08
DataValue, 0.8, 0.1, 1.7980999999999997E-08, 5.4600000000000006E-12, -1.7769E-08, 6.3572000000000008E-08, 5.4600000000000006E-12, 1.7980999999999997E-08
DataValue, 0.85, 0.1, 2.1508399999999998E-08, 1.23E-12, -2.1320399999999997E-08, 7.6072000000000021E-08, 1.23E-12, 2.1508399999999998E-08
DataValue, 0.9, 0.1, 2.5588199999999998E-08, 5.5080000000000005E-11, -2.5393799999999998E-08, 8.9961999999999929E-08, 5.5080000000000005E-11, 2.5588199999999998E-08
DataValue, 0.95000000000000007, 0.1, 3.05046E-08, -1.8360000000000002E-11, -3.02384E-08, 1.0850199999999998E-07, 1.8360000000000002E-11, 3.05046E-08
DataValue, 1, 0.1, 3.6438399999999994E-08, 1.83E-12, -3.6149599999999994E-08, 1.26292E-07, 1.83E-12, 3.6438399999999994E-08
DataValue, 1.05, 0.1, 4.31338E-08, 8.8900000000000011E-12, -4.28324E-08, 1.4918599999999986E-07, 8.8900000000000011E-12, 4.31338E-08
DataValue, 1.1, 0.1, 5.1356999999999995E-08, -4.8200000000000005E-11, -5.0872599999999993E-08, 1.7680799999999985E-07, 4.8200000000000005E-11, 5.1356999999999995E-08
DataValue, 1.1500000000000001, 0.1, 6.08146E-08, 5.5600000000000005E-12, -6.04058E-08, 2.048300000000002E-07, 5.5600000000000005E-12, 6.08146E-08
DataValue, 1.2, 0.1, 7.1839999999999987E-08, 5.3500000000000004E-12, -7.15012E-08, 2.4238200000000024E-07, 5.3500000000000004E-12, 7.1839999999999987E-08
DataValue, 1.25, 0.1, 8.505279999999999E-08, -3.4510000000000005E-11, -8.44418E-08, 2.8559999999999986E-07, 3.4510000000000005E-11, 8.505279999999999E-08
DataValue, 1.3, 0.1, 1.004E-07, 5.79E-12, -9.9733999999999985E-08, 3.260719999999998E-07, 5.79E-12, 1.004E-07
DataValue, 1.35, 0.1, 1.1766E-07, 2.06E-12, -1.1728E-07, 3.7219999999999953E-07, 2.06E-12, 1.1766E-07
DataValue, 1.4000000000000001, 0.1, 1.3761999999999998E-07, -4.927E-11, -1.3738E-07, 4.2560000000000048E-07, 4.927E-11, 1.3761999999999998E-07
DataValue, 1.45, 0.1, 1.6022E-07, 5.8800000000000008E-12, -1.6002E-07, 4.8100000000000077E-07, 5.8800000000000008E-12, 1.6022E-07
DataValue, 1.5, 0.1, 1.8572E-07, 2.172E-11, -1.8514E-07, 5.415999999999995E-07, 2.172E-11, 1.8572E-07
DataValue, 1.55, 0.1, 2.1438E-07, 2.473E-11, -2.1356E-07, 5.9839999999999932E-07, 2.473E-11, 2.1438E-07
DataValue, 1.6, 0.1, 2.4556E-07, 2.08E-12, -2.4514E-07, 6.6099999999999926E-07, 2.08E-12, 2.4556E-07
DataValue, 1.6500000000000001, 0.1, 2.8048E-07, -4.6960000000000005E-11, -2.7972E-07, 7.220000000000012E-07, 4.6960000000000005E-11, 2.8048E-07
DataValue, 1.7, 0.1, 3.1776E-07, 6.4800000000000007E-12, -3.1764E-07, 7.8420000000000142E-07, 6.4800000000000007E-12, 3.1776E-07
DataValue, 1.75, 0.1, 3.589E-07, 3.907E-11, -3.5843999999999997E-07, 8.5379999999999914E-07, 3.907E-11, 3.589E-07
DataValue, 1.8, 0.1, 4.0314E-07, 1.0710000000000001E-11, -4.0272E-07, 9.1379999999999877E-07, 1.0710000000000001E-11, 4.0314E-07
DataValue, 1.85, 0.1, 4.5028E-07, 1.7500000000000002E-12, -4.4993999999999996E-07, 9.7259999999999917E-07, 1.7500000000000002E-12, 4.5028E-07
DataValue, 1.9000000000000001, 0.1, 5.004E-07, -4.0510000000000004E-11, -5.0008E-07, 1.038400000000002E-06, 4.0510000000000004E-11, 5.004E-07
DataValue, 1.95, 0.1, 5.5412E-07, 5.8700000000000006E-12, -5.5362E-07, 1.0970000000000013E-06, 5.8700000000000006E-12, 5.5412E-07
DataValue, 2, 0.1, 6.101E-07, 5.222E-11, -6.0974E-07, 1.1506000000000007E-06, 5.222E-11, 6.101E-07
DataValue, 2.05, 0.1, 6.6918E-07, 4.4500000000000006E-12, -6.69E-07, 1.2069999999999986E-06, 4.4500000000000006E-12, 6.6918E-07
DataValue, 2.1, 0.1, 7.308E-07, 2.41E-12, -7.3056E-07, 1.2619999999999995E-06, 2.41E-12, 7.308E-07
DataValue, 2.15, 0.1, 7.9538E-07, -3.275E-11, -7.9516E-07, 1.3175999999999988E-06, 3.275E-11, 7.9538E-07
DataValue, 2.2, 0.1, 8.6256E-07, 7.34E-12, -8.622E-07, 1.3655999999999982E-06, 7.34E-12, 8.6256E-07
DataValue, 2.25, 0.1, 9.3194E-07, 5.8520000000000008E-11, -9.3163999999999994E-07, 1.4235999999999994E-06, 5.8520000000000008E-11, 9.3194E-07
DataValue, 2.3000000000000003, 0.1, 1.00492E-06, 3.38E-12, -1.0042E-06, 1.4649999999999987E-06, 3.38E-12, 1.00492E-06
DataValue, 2.35, 0.1, 1.07844E-06, -9.7100000000000012E-12, -1.07834E-06, 1.5008000000000067E-06, 9.7100000000000012E-12, 1.07844E-06
DataValue, 2.4, 0.1, 1.1550000000000002E-06, 2.72E-12, -1.1545000000000001E-06, 1.5506000000000002E-06, 2.72E-12, 1.1550000000000002E-06
DataValue, 2.45, 0.1, 1.2335000000000001E-06, 3.3100000000000002E-12, -1.2334000000000001E-06, 1.598999999999998E-06, 3.3100000000000002E-12, 1.2335000000000001E-06
DataValue, 2.5, 0.1, 1.3149000000000001E-06, -4.6600000000000006E-11, -1.3152000000000001E-06, 1.6429999999999991E-06, 4.6600000000000006E-11, 1.3149000000000001E-06
DataValue, 2.5500000000000003, 0.1, 1.3978000000000002E-06, 8.21E-12, -1.3982000000000002E-06, 1.6779999999999997E-06, 8.21E-12, 1.3978000000000002E-06
DataValue, 2.6, 0.1, 1.4827000000000002E-06, 5.992E-11, -1.4829000000000002E-06, 1.7200000000000062E-06, 5.992E-11, 1.4827000000000002E-06
DataValue, 2.65, 0.1, 1.5698000000000002E-06, 4.31E-12, -1.5698000000000002E-06, 1.7479999999999986E-06, 4.31E-12, 1.5698000000000002E-06
DataValue, 2.7, 0.1, 1.6575000000000002E-06, -4.7730000000000006E-11, -1.6584E-06, 1.7789999999999988E-06, 4.7730000000000006E-11, 1.6575000000000002E-06
DataValue, 2.75, 0.1, 1.7477000000000002E-06, 8.72E-12, -1.7479000000000002E-06, 1.8019999999999982E-06, 8.72E-12, 1.7477000000000002E-06
DataValue, 2.8000000000000003, 0.1, 1.8377000000000002E-06, 5.84E-11, -1.8382000000000003E-06, 1.8209999999999975E-06, 5.84E-11, 1.8377000000000002E-06
DataValue, 2.85, 0.1, 1.9298E-06, 4.36E-12, -1.9301000000000004E-06, 1.8420000000000052E-06, 4.36E-12, 1.9298E-06
DataValue, 2.9, 0.1, 2.0219E-06, -4.651E-11, -2.0225E-06, 1.8590000000000003E-06, 4.651E-11, 2.0219E-06
DataValue, 2.95, 0.1, 2.1157000000000003E-06, 8.46E-12, -2.1161000000000004E-06, 1.8750000000000015E-06, 8.46E-12, 2.1157000000000003E-06
DataValue, 3, 0.1, 2.2094000000000004E-06, 5.739E-11, -2.2095E-06, 1.866000000000007E-06, 5.739E-11, 2.2094000000000004E-06
DataValue, 3, 0.1, 2.2090000000000004E-06, 5.958E-11, -2.2093E-06, 1.90200000000001E-06, 5.958E-11, 2.2090000000000004E-06
DataValue, 2.95, 0.1, 2.1143000000000002E-06, 3.76E-12, -2.1149000000000003E-06, 1.8909999999999985E-06, 3.76E-12, 2.1143000000000002E-06
DataValue, 2.9, 0.1, 2.0199000000000003E-06, -4.7260000000000007E-11, -2.0209E-06, 1.8669999999999967E-06, 4.7260000000000007E-11, 2.0199000000000003E-06
DataValue, 2.85, 0.1, 1.9276000000000004E-06, 7.3E-12, -1.928E-06, 1.8520000000000081E-06, 7.3E-12, 1.9276000000000004E-06
