
SetupTitle, TFT stab RollOut
PrimitiveTest, I/V Sweep
TestParameter, Context.MainFrame, B1500A
TestParameter, Channel.UnitType, SMU, SMU, SMU
TestParameter, Channel.Unit, SMU2:HR, SMU3:MP, SMU4:MP
TestParameter, Channel.IName, ID, IG, IS
TestParameter, Channel.VName, VD, VG, VS
TestParameter, Channel.Mode, V, V, COMMON
TestParameter, Channel.Func, CONST, VAR1, CONST
TestParameter, Channel.Index, 
TestParameter, Channel.Time, 
TestParameter, Measurement.Port.Unit, SMU2:HR, SMU3:MP, SMU4:MP
TestParameter, Measurement.Port.SeriesResistor, NONE, NONE, NONE
TestParameter, Measurement.Port.Filter, ON, ON, ON
TestParameter, Measurement.Port.OutputVoltageComparison, 0, 0, 0
TestParameter, Measurement.Primary.Locus, Single
TestParameter, Measurement.Primary.Scale, LINEAR
TestParameter, Measurement.Primary.Start, -2
TestParameter, Measurement.Primary.Stop, 5
TestParameter, Measurement.Primary.Step, 0.07
TestParameter, Measurement.Primary.Compliance, 0.001
TestParameter, Measurement.Primary.PowerCompliance, 0
TestParameter, Measurement.Aborting.Condition, CONTINUE AT ANY
TestParameter, Measurement.PostOutput.Value, START
TestParameter, Measurement.PostOutput.Retention, OFF
TestParameter, Measurement.Bias.Source, 3, -2, 0
TestParameter, Measurement.Bias.Compliance, 0.0001, 0.001, 0.1
TestParameter, Measurement.Monitor.Unit, SMU2:HR, SMU3:MP, SMU4:MP
TestParameter, Measurement.Monitor.Adc, HR ADC, HR ADC, HR ADC
TestParameter, Measurement.Monitor.Measurement, Compliance Side, Compliance Side, Compliance Side
TestParameter, Measurement.Monitor.RangingMode, LIMITED, LIMITED, LIMITED
TestParameter, Measurement.Monitor.RangeBoundary, 100pA, 1nA, 1nA
TestParameter, Measurement.Monitor.RangeRating, BY FULL RANGE, BY FULL RANGE, BY FULL RANGE
TestParameter, Measurement.Monitor.RangeRatingCoeff, 50, 50, 50
TestParameter, Measurement.Timing.Hold, 0.5
TestParameter, Measurement.Timing.Delay, 0.05
TestParameter, Measurement.Adc.HighSpeed.Mode, AUTO
TestParameter, Measurement.Adc.HighSpeed.Coeff, 1
TestParameter, Measurement.Adc.HighResolution.AutoZero, OFF
TestParameter, Measurement.Adc.HighResolution.Mode, AUTO
TestParameter, Measurement.Adc.HighResolution.Coeff, 6
TestParameter, Measurement.WaitTime.Source.Coeff, 1
TestParameter, Measurement.WaitTime.Source.Offset, 0
TestParameter, Measurement.WaitTime.Monitor.Coeff, 1
TestParameter, Measurement.WaitTime.Monitor.Offset, 0
TestParameter, Function.Analysis.Name, dIddVg, absIg, absId
TestParameter, Function.Analysis.Unit, S, A, A
TestParameter, Function.Analysis.Definition, (delta(sqrt(ID))/delta(VG))^2, abs(IG), abs(ID)
TestParameter, Output.Graph.Enabled, true
TestParameter, Output.Graph.AutoScaling, false
TestParameter, Output.Graph.XAxis.Data, VG
TestParameter, Output.Graph.XAxis.Scale, Linear
TestParameter, Output.Graph.XAxis.Left, -2
TestParameter, Output.Graph.XAxis.Right, 6
TestParameter, Output.Graph.XAxis.RunTimeAutoScale, true
TestParameter, Output.Graph.YAxis.Data, ID, absIg
TestParameter, Output.Graph.YAxis.Scale, Log, Log
TestParameter, Output.Graph.YAxis.Bottom, 0.001, 0
TestParameter, Output.Graph.YAxis.Top, 0.01, 1
TestParameter, Output.Graph.YAxis.Group, , 
TestParameter, Output.Graph.YAxis.RunTimeAutoScale, true, true
TestParameter, Output.List.Data, VG, IG, ID, IS, VD, dIddVg, absIg, absId
TestParameter, AutoAnalysis.Interpolation, false
TestParameter, AutoAnalysis.Line1.Enabled, false
TestParameter, AutoAnalysis.Line1.Type, 1
TestParameter, AutoAnalysis.Line1.Fix, True
TestParameter, AutoAnalysis.Line1.YAxis, 0
TestParameter, AutoAnalysis.Line1.Point1.Type, 0
TestParameter, AutoAnalysis.Line1.Point1.XY.X, 
TestParameter, AutoAnalysis.Line1.Point1.XY.Y, 
TestParameter, AutoAnalysis.Line1.Point1.Data.Var, 
TestParameter, AutoAnalysis.Line1.Point1.Data.Condition, 
TestParameter, AutoAnalysis.Line1.Point1.Data.Start, false
TestParameter, AutoAnalysis.Line1.Point1.Data.StartVar, 
TestParameter, AutoAnalysis.Line1.Point1.Data.StartCondition, 
TestParameter, AutoAnalysis.Line1.Point2.Type, 0
TestParameter, AutoAnalysis.Line1.Point2.XY.X, 
TestParameter, AutoAnalysis.Line1.Point2.XY.Y, 
TestParameter, AutoAnalysis.Line1.Point2.Data.Var, 
TestParameter, AutoAnalysis.Line1.Point2.Data.Condition, 
TestParameter, AutoAnalysis.Line1.Point2.Data.Start, false
TestParameter, AutoAnalysis.Line1.Point2.Data.StartVar, 
TestParameter, AutoAnalysis.Line1.Point2.Data.StartCondition, 
TestParameter, AutoAnalysis.Line1.GradientExpr, 0
TestParameter, AutoAnalysis.Line2.Enabled, false
TestParameter, AutoAnalysis.Line2.Type, 1
TestParameter, AutoAnalysis.Line2.Fix, True
TestParameter, AutoAnalysis.Line2.YAxis, 0
TestParameter, AutoAnalysis.Line2.Point1.Type, 0
TestParameter, AutoAnalysis.Line2.Point1.XY.X, 
TestParameter, AutoAnalysis.Line2.Point1.XY.Y, 
TestParameter, AutoAnalysis.Line2.Point1.Data.Var, 
TestParameter, AutoAnalysis.Line2.Point1.Data.Condition, 
TestParameter, AutoAnalysis.Line2.Point1.Data.Start, false
TestParameter, AutoAnalysis.Line2.Point1.Data.StartVar, 
TestParameter, AutoAnalysis.Line2.Point1.Data.StartCondition, 
TestParameter, AutoAnalysis.Line2.Point2.Type, 0
TestParameter, AutoAnalysis.Line2.Point2.XY.X, 
TestParameter, AutoAnalysis.Line2.Point2.XY.Y, 
TestParameter, AutoAnalysis.Line2.Point2.Data.Var, 
TestParameter, AutoAnalysis.Line2.Point2.Data.Condition, 
TestParameter, AutoAnalysis.Line2.Point2.Data.Start, false
TestParameter, AutoAnalysis.Line2.Point2.Data.StartVar, 
TestParameter, AutoAnalysis.Line2.Point2.Data.StartCondition, 
TestParameter, AutoAnalysis.Line2.GradientExpr, 0
TestParameter, AutoAnalysis.Marker.Enabled, false
TestParameter, AutoAnalysis.Marker.Data.Var, 
TestParameter, AutoAnalysis.Marker.Data.Condition, 
TestParameter, AutoAnalysis.Marker.Data.Start, false
TestParameter, AutoAnalysis.Marker.Data.StartVar, 
TestParameter, AutoAnalysis.Marker.Data.StartCondition, 
MetaData, TestRecord.EntryPoint, true
MetaData, TestRecord.RecordTime, 07/03/2019 12:19:57
MetaData, TestRecord.TestTarget, 6-45-2
MetaData, TestRecord.IterationIndex, 1
MetaData, TestRecord.Preservation, true
MetaData, TestRecord.Flag, 
MetaData, TestRecord.Remarks, leak
MetaData, TestRecord.LinkKey, cdb49fb6-4bf8-4fd6-8221-aae114c7b6e3
Dimension1, 101, 101, 101, 101, 101, 101, 101, 101
Dimension2, 1, 1, 1, 1, 1, 1, 1, 1
DataName, VG, VD, ID, IG, IS, dIddVg, absIg, absId
DataValue, -2, 3, 7.766E-11, -1.2196E-07, 1.2238E-07, 4.8357285487388775E-10, 1.2196E-07, 7.766E-11
DataValue, -1.93, 3, 1.0716000000000001E-10, -1.1564E-07, 1.0438E-07, 7.4479274105069E-12, 1.1564E-07, 1.0716000000000001E-10
DataValue, -1.86, 3, 8.4540000000000013E-11, -1.3766E-07, 1.3478E-07, 2.4438989933120748E-11, 1.3766E-07, 8.4540000000000013E-11
DataValue, -1.79, 3, 9.3310000000000012E-11, -9.1103399999999987E-08, 9.2129399999999986E-08, 1.1972042959351324E-10, 9.1103399999999987E-08, 9.3310000000000012E-11
DataValue, -1.72, 3, 5.87174E-11, -1.2564E-07, 1.2042E-07, 2.1197133408710799E-10, 1.2564E-07, 5.87174E-11
DataValue, -1.6500000000000001, 3, 5.8086E-11, -5.27288E-08, 5.32904E-08, 4.2180402604227633E-13, 5.27288E-08, 5.8086E-11
DataValue, -1.58, 3, 5.73322E-11, -4.48174E-08, 4.56012E-08, 4.8216918993110491E-12, 4.48174E-08, 5.73322E-11
DataValue, -1.51, 3, 5.34946E-11, -3.7935999999999996E-08, 3.84062E-08, 1.357164041876355E-11, 3.7935999999999996E-08, 5.34946E-11
DataValue, -1.44, 3, 4.97878E-11, -4.0127399999999994E-08, 4.5641E-08, 1.6570234071096697E-11, 4.0127399999999994E-08, 4.97878E-11
DataValue, -1.37, 3, 4.5483E-11, -3.4409999999999995E-08, 3.40664E-08, 4.3166449098377266E-12, 3.4409999999999995E-08, 4.5483E-11
DataValue, -1.3, 3, 4.57676E-11, -3.66934E-08, 3.86122E-08, 2.4707509735267302E-12, 3.66934E-08, 4.57676E-11
DataValue, -1.23, 3, 4.25632E-11, -2.94916E-08, 2.9627399999999996E-08, 3.692091766853719E-12, 2.94916E-08, 4.25632E-11
DataValue, -1.16, 3, 4.22002E-11, -2.9789799999999997E-08, 2.7437799999999996E-08, 1.708751284034366E-12, 2.9789799999999997E-08, 4.22002E-11
DataValue, -1.09, 3, 4.02088E-11, -2.39126E-08, 2.31434E-08, 3.8700028703437586E-12, 2.39126E-08, 4.02088E-11
DataValue, -1.02, 3, 3.8697799999999996E-11, -1.90674E-08, 1.9235799999999997E-08, 2.0702969913648711E-13, 1.90674E-08, 3.8697799999999996E-11
DataValue, -0.95000000000000007, 3, 3.9405E-11, -1.4134E-08, 1.2264399999999998E-08, 4.4090679691436056E-12, 1.4134E-08, 3.9405E-11
DataValue, -0.88, 3, 3.51268E-11, -1.2214599999999999E-08, 1.1951599999999998E-08, 5.51954064576653E-12, 1.2214599999999999E-08, 3.51268E-11
DataValue, -0.81, 3, 3.53838E-11, -1.0473599999999998E-08, 1.09316E-08, 1.4101304839249077E-12, 1.0473599999999998E-08, 3.53838E-11
DataValue, -0.74, 3, 3.31838E-11, -1.0210799999999999E-08, 9.3054E-09, 4.6237159583035077E-12, 1.0210799999999999E-08, 3.31838E-11
DataValue, -0.67, 3, 3.1893E-11, -8.4335E-09, 1.02464E-08, 3.1899032471381362E-11, 8.4335E-09, 3.1893E-11
DataValue, -0.6, 3, 2.46992E-11, -9.9679999999999987E-09, 1.12212E-08, 1.2154511746363207E-11, 9.9679999999999987E-09, 2.46992E-11
DataValue, -0.53, 3, 2.6618399999999998E-11, -7.8958E-09, 6.4396E-09, 1.1409424818936937E-13, 7.8958E-09, 2.6618399999999998E-11
DataValue, -0.46, 3, 2.42314E-11, -4.3362E-09, 4.4118E-09, 1.6083761967139223E-13, 4.3362E-09, 2.42314E-11
DataValue, -0.39, 3, 2.6042199999999998E-11, -3.2482E-09, 3.2268E-09, 3.8967222252628158E-10, 3.2482E-09, 2.6042199999999998E-11
DataValue, -0.32, 3, 5.9077E-11, -2.5655E-09, 2.5414E-09, 2.3273109069447646E-09, 2.5655E-09, 5.9077E-11
DataValue, -0.25, 3, 1.4059E-10, -1.5581E-09, 1.3821E-09, 6.82740301330428E-09, 1.5581E-09, 1.4059E-10
DataValue, -0.18, 3, 3.7072000000000004E-10, -1.5469E-09, 1.2467E-09, 5.8069577957275593E-09, 1.5469E-09, 3.7072000000000004E-10
DataValue, -0.11, 3, 5.074E-10, -8.73E-10, 2.9597E-10, 2.7029088206432539E-09, 8.73E-10, 5.074E-10
DataValue, -0.04, 3, 7.0398000000000009E-10, -3.3046E-10, -2.7228E-10, 8.358565135515525E-10, 3.3046E-10, 7.0398000000000009E-10
DataValue, 0.03, 3, 7.0613E-10, 4.7043E-10, -1.0829E-09, 3.356676705870431E-10, 4.7043E-10, 7.0613E-10
DataValue, 0.1, 3, 8.4667E-10, 2.8406E-09, -3.6786E-09, 2.5614250101486731E-09, 2.8406E-09, 8.4667E-10
DataValue, 0.17, 3, 1.1329E-09, 3.1722E-09, -4.5465E-09, 3.683005669263155E-09, 3.1722E-09, 1.1329E-09
DataValue, 0.24, 3, 1.4133E-09, 4.6788E-09, -6.3966E-09, 3.5509771001908463E-09, 4.6788E-09, 1.4133E-09
DataValue, 0.31, 3, 1.7641E-09, 6.7524E-09, -1.0509799999999999E-08, 3.4839549643775179E-09, 6.7524E-09, 1.7641E-09
DataValue, 0.38, 3, 2.1029E-09, 1.1378199999999999E-08, -1.477E-08, 6.0193658354759509E-09, 1.1378199999999999E-08, 2.1029E-09
DataValue, 0.45, 3, 2.7945E-09, 2.29766E-08, -2.0679E-08, 9.7718110393103051E-09, 2.29766E-08, 2.7945E-09
DataValue, 0.52, 3, 3.5637E-09, 2.0291E-08, -2.7151999999999997E-08, 9.981153391757593E-09, 2.0291E-08, 3.5637E-09
DataValue, 0.59, 3, 4.4689E-09, 2.7261199999999996E-08, -3.04482E-08, 1.3148740305818927E-08, 2.7261199999999996E-08, 4.4689E-09
DataValue, 0.66, 3, 5.7381E-09, 2.6521399999999998E-08, -2.5986399999999997E-08, 1.6515527708838233E-08, 2.6521399999999998E-08, 5.7381E-09
DataValue, 0.73, 3, 7.1981E-09, 2.2595399999999997E-08, -2.8181399999999998E-08, 1.3040696964563182E-08, 2.2595399999999997E-08, 7.1981E-09
DataValue, 0.8, 3, 8.4158E-09, 2.7728E-08, -3.36562E-08, 1.567907168177627E-08, 2.7728E-08, 8.4158E-09
DataValue, 0.87, 3, 1.0479999999999999E-08, 3.40872E-08, -4.1077399999999993E-08, 3.6389405291220485E-08, 3.40872E-08, 1.0479999999999999E-08
DataValue, 0.94000000000000006, 3, 1.4029E-08, 3.5262599999999994E-08, -5.2907199999999996E-08, 5.1989982997044552E-08, 3.5262599999999994E-08, 1.4029E-08
DataValue, 1.01, 3, 1.8034799999999998E-08, 3.45584E-08, -4.7271399999999995E-08, 5.8625005091373834E-08, 3.45584E-08, 1.8034799999999998E-08
DataValue, 1.08, 3, 2.3208E-08, 5.4298999999999995E-08, -7.0597E-08, 7.6239081824311846E-08, 5.4298999999999995E-08, 2.3208E-08
DataValue, 1.1500000000000001, 3, 2.9911599999999995E-08, 4.7644399999999995E-08, -7.1716999999999993E-08, 9.4975629280781807E-08, 4.7644399999999995E-08, 2.9911599999999995E-08
DataValue, 1.22, 3, 3.82152E-08, 4.3521199999999994E-08, -7.30456E-08, 1.0916910684971883E-07, 4.3521199999999994E-08, 3.82152E-08
DataValue, 1.29, 3, 4.80516E-08, 4.4994999999999994E-08, -8.3036999999999991E-08, 1.3268420892412275E-07, 4.4994999999999994E-08, 4.80516E-08
DataValue, 1.36, 3, 6.0753999999999989E-08, 5.1675199999999995E-08, -1.073E-07, 1.7357144883293106E-07, 5.1675199999999995E-08, 6.0753999999999989E-08
DataValue, 1.43, 3, 7.7024799999999992E-08, 6.4191199999999993E-08, -1.335E-07, 2.1649656163092295E-07, 6.4191199999999993E-08, 7.7024799999999992E-08
DataValue, 1.5, 3, 9.7109599999999992E-08, 4.0111999999999995E-08, -1.3066E-07, 2.8007818298486869E-07, 4.0111999999999995E-08, 9.7109599999999992E-08
DataValue, 1.57, 3, 1.2364E-07, 3.98378E-08, -1.6274E-07, 3.8060828545346856E-07, 3.98378E-08, 1.2364E-07
DataValue, 1.6400000000000001, 3, 1.584E-07, 3.4222399999999995E-08, -1.893E-07, 4.7340385916942042E-07, 3.4222399999999995E-08, 1.584E-07
DataValue, 1.71, 3, 2.0066E-07, 3.88282E-08, -2.3947999999999997E-07, 5.289963850846106E-07, 3.88282E-08, 2.0066E-07
DataValue, 1.78, 3, 2.4982E-07, 4.7901399999999995E-08, -2.9886E-07, 6.1444076516905842E-07, 4.7901399999999995E-08, 2.4982E-07
DataValue, 1.85, 3, 3.1102E-07, 4.5023399999999994E-08, -3.584E-07, 7.2094899346578575E-07, 4.5023399999999994E-08, 3.1102E-07
DataValue, 1.92, 3, 3.8278E-07, 3.8559599999999994E-08, -4.1624E-07, 8.0517005380576141E-07, 3.8559599999999994E-08, 3.8278E-07
DataValue, 1.99, 3, 4.6692E-07, 4.7812199999999996E-08, -5.1368E-07, 9.2572106380047657E-07, 4.7812199999999996E-08, 4.6692E-07
DataValue, 2.06, 3, 5.676E-07, 5.03648E-08, -6.1588E-07, 1.0511228463976712E-06, 5.03648E-08, 5.676E-07
DataValue, 2.13, 3, 6.8368E-07, 6.4878E-08, -7.458E-07, 1.1712883636715207E-06, 6.4878E-08, 6.8368E-07
DataValue, 2.2, 3, 8.1886E-07, 6.79032E-08, -8.839E-07, 1.2303734027836971E-06, 6.79032E-08, 8.1886E-07
DataValue, 2.27, 3, 9.646E-07, 7.56626E-08, -1.0198000000000002E-06, 1.3127924789432582E-06, 7.56626E-08, 9.646E-07
DataValue, 2.34, 3, 1.1349000000000001E-06, 7.0680599999999988E-08, -1.1987E-06, 1.7154200513982172E-06, 7.0680599999999988E-08, 1.1349000000000001E-06
DataValue, 2.41, 3, 1.3584000000000002E-06, 7.13678E-08, -1.4208000000000002E-06, 2.0998251662211783E-06, 7.13678E-08, 1.3584000000000002E-06
DataValue, 2.48, 3, 1.6083000000000001E-06, 8.2455599999999986E-08, -1.6891000000000003E-06, 2.3054992874104144E-06, 8.2455599999999986E-08, 1.6083000000000001E-06
DataValue, 2.5500000000000003, 3, 1.8991000000000002E-06, 9.2490999999999991E-08, -1.9976E-06, 2.6183024298935277E-06, 9.2490999999999991E-08, 1.8991000000000002E-06
DataValue, 2.62, 3, 2.2342E-06, 1.0350699999999999E-07, -2.3116E-06, 2.9427297920591833E-06, 1.0350699999999999E-07, 2.2342E-06
DataValue, 2.69, 3, 2.6187000000000004E-06, 9.4142E-08, -2.6937E-06, 3.3508782514323777E-06, 9.4142E-08, 2.6187000000000004E-06
DataValue, 2.7600000000000002, 3, 3.0660000000000004E-06, 8.21626E-08, -3.1280000000000004E-06, 3.844667693471707E-06, 8.21626E-08, 3.0660000000000004E-06
DataValue, 2.83, 3, 3.5825000000000004E-06, 9.4639999999999992E-08, -3.6636000000000004E-06, 4.5858694599874141E-06, 9.4639999999999992E-08, 3.5825000000000004E-06
DataValue, 2.9, 3, 4.2058000000000005E-06, 8.503419999999999E-08, -4.2681000000000007E-06, 5.317368006165098E-06, 8.503419999999999E-08, 4.2058000000000005E-06
DataValue, 2.97, 3, 4.9088E-06, 7.6248599999999988E-08, -4.9755000000000009E-06, 5.9339420307700006E-06, 7.6248599999999988E-08, 4.9088E-06
DataValue, 3.04, 3, 5.7209000000000006E-06, 9.0796799999999992E-08, -5.7879000000000009E-06, 6.6914741165534013E-06, 9.0796799999999992E-08, 5.7209000000000006E-06
DataValue, 3.11, 3, 6.6447000000000009E-06, 8.1520199999999989E-08, -6.7032000000000005E-06, 7.3918550160882623E-06, 8.1520199999999989E-08, 6.6447000000000009E-06
DataValue, 3.18, 3, 7.6866E-06, 8.4528999999999989E-08, -7.7287000000000011E-06, 9.1161613252007268E-06, 8.4528999999999989E-08, 7.6866E-06
DataValue, 3.25, 3, 9.0026E-06, 1.0418E-07, -9.0409E-06, 8.8430214175937811E-06, 1.0418E-07, 9.0026E-06
DataValue, 3.3200000000000003, 3, 1.01684E-05, 1.0984E-07, -1.0235900000000001E-05, 7.428659165074016E-06, 1.0984E-07, 1.01684E-05
DataValue, 3.39, 3, 1.1438E-05, 9.4494999999999987E-08, -1.1396E-05, 8.8027237717366573E-06, 9.4494999999999987E-08, 1.1438E-05
DataValue, 3.46, 3, 1.2990000000000001E-05, 1.2098E-07, -1.3098E-05, 1.0655517072162109E-05, 1.2098E-07, 1.2990000000000001E-05
DataValue, 3.5300000000000002, 3, 1.4738E-05, 7.91946E-08, -1.4704E-05, 1.0833881331485132E-05, 7.91946E-08, 1.4738E-05
DataValue, 3.6, 3, 1.6524E-05, 7.87438E-08, -1.6528E-05, 1.0668023680864288E-05, 7.87438E-08, 1.6524E-05
DataValue, 3.67, 3, 1.8458000000000002E-05, 9.5308599999999988E-08, -1.846E-05, 1.0063830876402938E-05, 9.5308599999999988E-08, 1.8458000000000002E-05
DataValue, 3.74, 3, 2.0332E-05, 1.3383999999999999E-07, -2.0412E-05, 1.0627879154856404E-05, 1.3383999999999999E-07, 2.0332E-05
DataValue, 3.81, 3, 2.2588E-05, 1.0808E-07, -2.2648E-05, 1.1680901769437578E-05, 1.0808E-07, 2.2588E-05
DataValue, 3.88, 3, 2.4876E-05, 1.0433999999999999E-07, -2.4924E-05, 1.1103741908538873E-05, 1.0433999999999999E-07, 2.4876E-05
DataValue, 3.95, 3, 2.724E-05, 1.1097999999999999E-07, -2.7284E-05, 1.0864182276684089E-05, 1.1097999999999999E-07, 2.724E-05
DataValue, 4.0200000000000005, 3, 2.9692E-05, 1.4538E-07, -2.9552E-05, 9.8676683977843373E-06, 1.4538E-07, 2.9692E-05
DataValue, 4.09, 3, 3.2024000000000004E-05, 1.6392E-07, -3.2108E-05, 9.8746837590560691E-06, 1.6392E-07, 3.2024000000000004E-05
DataValue, 4.16, 3, 3.468E-05, 2.1514E-07, -3.482E-05, 1.0582661413071788E-05, 2.1514E-07, 3.468E-05
DataValue, 4.23, 3, 3.7386000000000004E-05, 2.0566E-07, -3.7532E-05, 1.0235587049594311E-05, 2.0566E-07, 3.7386000000000004E-05
DataValue, 4.3, 3, 4.0156E-05, 1.8899999999999999E-07, -4.0278E-05, 1.0096916643499021E-05, 1.8899999999999999E-07, 4.0156E-05
DataValue, 4.37, 3, 4.3024E-05, 1.406E-07, -4.3082E-05, 9.8310569755806285E-06, 1.406E-07, 4.3024E-05
DataValue, 4.44, 3, 4.5912000000000004E-05, 1.586E-07, -4.5992E-05, 9.50955613212924E-06, 1.586E-07, 4.5912000000000004E-05
DataValue, 4.51, 3, 4.8874E-05, 1.596E-07, -4.896E-05, 9.3846490221976069E-06, 1.596E-07, 4.8874E-05
DataValue, 4.58, 3, 5.1908000000000005E-05, 2.6526E-07, -5.2094E-05, 9.1077631049406261E-06, 2.6526E-07, 5.1908000000000005E-05
DataValue, 4.65, 3, 5.496E-05, 2.2616E-07, -5.5078000000000004E-05, 8.7977101662877238E-06, 2.2616E-07, 5.496E-05
DataValue, 4.72, 3, 5.8064000000000005E-05, 2.2774E-07, -5.8228E-05, 8.7129464986276183E-06, 2.2774E-07, 5.8064000000000005E-05
DataValue, 4.79, 3, 6.1258E-05, 1.7892E-07, -6.135E-05, 8.5804946666533057E-06, 1.7892E-07, 6.1258E-05
DataValue, 4.86, 3, 6.4482E-05, 1.5496E-07, -6.456E-05, 8.2443288810984E-06, 1.5496E-07, 6.4482E-05
DataValue, 4.93, 3, 6.7712E-05, 2.1522E-07, -6.7872E-05, 8.0713869640570376E-06, 2.1522E-07, 6.7712E-05
DataValue, 5, 3, 7.1028E-05, 1.3184E-07, -7.1086E-05, 8.0884129118234764E-06, 1.3184E-07, 7.1028E-05