
SetupTitle, C-V
PrimitiveTest, C-V Sweep
TestParameter, Channel.UnitTyp, CMU
TestParameter, Channel.Unit, CMU1:MF/SC
TestParameter, Channel.IName, 
TestParameter, Channel.VName, V
TestParameter, Channel.Mode, 
TestParameter, Channel.Func, VAR1
TestParameter, Channel.Index, 
TestParameter, Channel.Time, 
TestParameter, Measurement.Primary.Locus, Double
TestParameter, Measurement.Primary.Scale, LINEAR
TestParameter, Measurement.Primary.Start, -3
TestParameter, Measurement.Primary.Stop, 1
TestParameter, Measurement.Primary.Step, 0.1
TestParameter, Measurement.Aborting.Condition, CONTINUE AT ANY
TestParameter, Measurement.PostOutput.Value, START
TestParameter, Measurement.PostOutput.Retention, OFF
TestParameter, Measurement.Secondary.ACLevel, 0.03
TestParameter, Measurement.Secondary.FName, Freq
TestParameter, Measurement.Secondary.Frequency, 100000
TestParameter, Measurement.Bias.Source, 0
TestParameter, Measurement.ImpedanceMode.Model, Cp-G
TestParameter, Measurement.ImpedanceMode.CName, C
TestParameter, Measurement.ImpedanceMode.LName, L
TestParameter, Measurement.ImpedanceMode.GName, G
TestParameter, Measurement.ImpedanceMode.RName, R
TestParameter, Measurement.ImpedanceMode.QName, Q
TestParameter, Measurement.ImpedanceMode.DName, D
TestParameter, Measurement.ImpedanceMode.YName, Y
TestParameter, Measurement.ImpedanceMode.ZName, Z
TestParameter, Measurement.ImpedanceMode.ThName, Theta
TestParameter, Measurement.ImpedanceMode.BName, B
TestParameter, Measurement.ImpedanceMode.XName, X
TestParameter, Measurement.Monitor.Unit, CMU1:MF/SC
TestParameter, Measurement.Monitor.RangingMode, AUTO
TestParameter, Measurement.Monitor.RangeBoundary, 50
TestParameter, Measurement.Monitor.AcMonitorSymbol, 
TestParameter, Measurement.Monitor.DcMonitorSymbol, 
TestParameter, Measurement.Timing.Hold, 0
TestParameter, Measurement.Timing.Delay, 0
TestParameter, Measurement.Adc.UnitType, Cmu, Smu
TestParameter, Measurement.Adc.HighResolution.Mode, PLC, AUTO
TestParameter, Measurement.Adc.HighResolution.Coeff, 10, 6
TestParameter, Measurement.WaitTime.Source.Coeff, 1
TestParameter, Measurement.WaitTime.Source.Offset, 0
TestParameter, Measurement.WaitTime.Monitor.Coeff, 1
TestParameter, Measurement.WaitTime.Monitor.Offset, 0
TestParameter, Output.Graph.Enabled, true
TestParameter, Output.Graph.AutoScaling, false
TestParameter, Output.Graph.XAxis.Data, V
TestParameter, Output.Graph.XAxis.Scale, Linear
TestParameter, Output.Graph.XAxis.Left, -3
TestParameter, Output.Graph.XAxis.Right, 1
TestParameter, Output.Graph.XAxis.RunTimeAutoScale, true
TestParameter, Output.Graph.YAxis.Data, C, G
TestParameter, Output.Graph.YAxis.Scale, Linear, Linear
TestParameter, Output.Graph.YAxis.Bottom, 0, 0
TestParameter, Output.Graph.YAxis.Top, 1E-10, 0.001
TestParameter, Output.Graph.YAxis.Group, , 
TestParameter, Output.Graph.YAxis.RunTimeAutoScale, true, true
TestParameter, Output.List.Data, C, V, Freq
TestParameter, AutoAnalysis.Interpolation, false
TestParameter, AutoAnalysis.Line1.Enabled, false
TestParameter, AutoAnalysis.Line1.Type, 1
TestParameter, AutoAnalysis.Line1.Fix, True
TestParameter, AutoAnalysis.Line1.YAxis, 0
TestParameter, AutoAnalysis.Line1.Point1.Type, 0
TestParameter, AutoAnalysis.Line1.Point1.XY.X, 
TestParameter, AutoAnalysis.Line1.Point1.XY.Y, 
TestParameter, AutoAnalysis.Line1.Point1.Data.Var, 
TestParameter, AutoAnalysis.Line1.Point1.Data.Condition, 
TestParameter, AutoAnalysis.Line1.Point1.Data.Start, false
TestParameter, AutoAnalysis.Line1.Point1.Data.StartVar, 
TestParameter, AutoAnalysis.Line1.Point1.Data.StartCondition, 
TestParameter, AutoAnalysis.Line1.Point2.Type, 0
TestParameter, AutoAnalysis.Line1.Point2.XY.X, 
TestParameter, AutoAnalysis.Line1.Point2.XY.Y, 
TestParameter, AutoAnalysis.Line1.Point2.Data.Var, 
TestParameter, AutoAnalysis.Line1.Point2.Data.Condition, 
TestParameter, AutoAnalysis.Line1.Point2.Data.Start, false
TestParameter, AutoAnalysis.Line1.Point2.Data.StartVar, 
TestParameter, AutoAnalysis.Line1.Point2.Data.StartCondition, 
TestParameter, AutoAnalysis.Line1.GradientExpr, 0
TestParameter, AutoAnalysis.Line2.Enabled, false
TestParameter, AutoAnalysis.Line2.Type, 1
TestParameter, AutoAnalysis.Line2.Fix, True
TestParameter, AutoAnalysis.Line2.YAxis, 0
TestParameter, AutoAnalysis.Line2.Point1.Type, 0
TestParameter, AutoAnalysis.Line2.Point1.XY.X, 
TestParameter, AutoAnalysis.Line2.Point1.XY.Y, 
TestParameter, AutoAnalysis.Line2.Point1.Data.Var, 
TestParameter, AutoAnalysis.Line2.Point1.Data.Condition, 
TestParameter, AutoAnalysis.Line2.Point1.Data.Start, false
TestParameter, AutoAnalysis.Line2.Point1.Data.StartVar, 
TestParameter, AutoAnalysis.Line2.Point1.Data.StartCondition, 
TestParameter, AutoAnalysis.Line2.Point2.Type, 0
TestParameter, AutoAnalysis.Line2.Point2.XY.X, 
TestParameter, AutoAnalysis.Line2.Point2.XY.Y, 
TestParameter, AutoAnalysis.Line2.Point2.Data.Var, 
TestParameter, AutoAnalysis.Line2.Point2.Data.Condition, 
TestParameter, AutoAnalysis.Line2.Point2.Data.Start, false
TestParameter, AutoAnalysis.Line2.Point2.Data.StartVar, 
TestParameter, AutoAnalysis.Line2.Point2.Data.StartCondition, 
TestParameter, AutoAnalysis.Line2.GradientExpr, 0
TestParameter, AutoAnalysis.Marker.Enabled, false
TestParameter, AutoAnalysis.Marker.Data.Var, 
TestParameter, AutoAnalysis.Marker.Data.Condition, 
TestParameter, AutoAnalysis.Marker.Data.Start, false
TestParameter, AutoAnalysis.Marker.Data.StartVar, 
TestParameter, AutoAnalysis.Marker.Data.StartCondition, 
MetaData, TestRecord.EntryPoint, true
MetaData, TestRecord.RecordTime, 07/03/2019 12:31:53
MetaData, TestRecord.TestTarget, 6-13
MetaData, TestRecord.IterationIndex, 1
MetaData, TestRecord.Preservation, true
MetaData, TestRecord.Flag, 
MetaData, TestRecord.Remarks, capacitance one
MetaData, TestRecord.LinkKey, cdb266a8-d766-4b0e-81b9-e773d33b4829
Dimension1, 82, 82, 82, 82
Dimension2, 1, 1, 1, 1
DataName, V, Freq, C, G
DataValue, -3, 100000, 5.73966E-12, 4.8953E-07
DataValue, -2.9, 100000, 5.7373800000000007E-12, 4.46739E-07
DataValue, -2.8000000000000003, 100000, 5.74047E-12, 4.16115E-07
DataValue, -2.7, 100000, 5.74514E-12, 3.91411E-07
DataValue, -2.6, 100000, 5.7520000000000005E-12, 3.7144299999999997E-07
DataValue, -2.5, 100000, 5.7589300000000008E-12, 3.57376E-07
DataValue, -2.4, 100000, 5.76591E-12, 3.5001E-07
DataValue, -2.3000000000000003, 100000, 5.77085E-12, 3.51731E-07
DataValue, -2.2, 100000, 5.77365E-12, 3.64731E-07
DataValue, -2.1, 100000, 5.7664300000000005E-12, 3.9301E-07
DataValue, -2, 100000, 5.74254E-12, 4.40624E-07
DataValue, -1.9000000000000001, 100000, 5.6850400000000006E-12, 5.14361E-07
DataValue, -1.8, 100000, 5.5685000000000008E-12, 6.16789E-07
DataValue, -1.7, 100000, 5.3515900000000006E-12, 7.45749E-07
DataValue, -1.6, 100000, 4.9940000000000007E-12, 8.72243E-07
DataValue, -1.5, 100000, 4.4867900000000005E-12, 9.45766E-07
DataValue, -1.4000000000000001, 100000, 3.90124E-12, 9.0966E-07
DataValue, -1.3, 100000, 3.39159E-12, 7.61718E-07
DataValue, -1.2, 100000, 3.04001E-12, 5.5979699999999994E-07
DataValue, -1.1, 100000, 2.8500400000000002E-12, 3.77989E-07
DataValue, -1, 100000, 2.75684E-12, 2.4274599999999997E-07
DataValue, -0.9, 100000, 2.71189E-12, 1.5262E-07
DataValue, -0.8, 100000, 2.68908E-12, 9.99461E-08
DataValue, -0.70000000000000007, 100000, 2.6721000000000003E-12, 6.99581E-08
DataValue, -0.6, 100000, 2.65728E-12, 5.4162700000000004E-08
DataValue, -0.5, 100000, 2.64298E-12, 4.54741E-08
DataValue, -0.4, 100000, 2.63083E-12, 3.95826E-08
DataValue, -0.3, 100000, 2.62075E-12, 3.6073E-08
DataValue, -0.2, 100000, 2.61257E-12, 3.31963E-08
DataValue, -0.1, 100000, 2.60611E-12, 3.08681E-08
DataValue, 0, 100000, 2.6015E-12, 2.9421600000000002E-08
DataValue, 0.1, 100000, 2.59774E-12, 2.8278100000000002E-08
DataValue, 0.2, 100000, 2.5947700000000003E-12, 2.71473E-08
DataValue, 0.3, 100000, 2.59264E-12, 2.6110400000000002E-08
DataValue, 0.4, 100000, 2.59119E-12, 2.54732E-08
DataValue, 0.5, 100000, 2.58997E-12, 2.50643E-08
DataValue, 0.6, 100000, 2.5888E-12, 2.4656E-08
DataValue, 0.70000000000000007, 100000, 2.58826E-12, 2.40129E-08
DataValue, 0.8, 100000, 2.58781E-12, 2.3915900000000002E-08
DataValue, 0.9, 100000, 2.5871100000000003E-12, 2.3509000000000002E-08
DataValue, 1, 100000, 2.5866300000000003E-12, 2.34425E-08
DataValue, 1, 100000, 2.587E-12, 2.35214E-08
DataValue, 0.9, 100000, 2.58774E-12, 2.4271E-08
DataValue, 0.8, 100000, 2.58836E-12, 2.5130700000000002E-08
DataValue, 0.70000000000000007, 100000, 2.58953E-12, 2.6429200000000002E-08
DataValue, 0.6, 100000, 2.5904700000000004E-12, 2.7886300000000002E-08
DataValue, 0.5, 100000, 2.5912200000000003E-12, 2.95954E-08
DataValue, 0.4, 100000, 2.59288E-12, 3.20489E-08
DataValue, 0.3, 100000, 2.5947000000000002E-12, 3.56372E-08
DataValue, 0.2, 100000, 2.5970700000000004E-12, 3.9995E-08
DataValue, 0.1, 100000, 2.5997300000000003E-12, 4.57454E-08
DataValue, 0, 100000, 2.60266E-12, 5.33999E-08
DataValue, -0.1, 100000, 2.60655E-12, 6.33406E-08
DataValue, -0.2, 100000, 2.61186E-12, 7.55391E-08
DataValue, -0.3, 100000, 2.6177200000000003E-12, 9.21647E-08
DataValue, -0.4, 100000, 2.6246000000000003E-12, 1.1379399999999999E-07
DataValue, -0.5, 100000, 2.6332200000000004E-12, 1.4561E-07
DataValue, -0.6, 100000, 2.64965E-12, 1.89872E-07
DataValue, -0.70000000000000007, 100000, 2.67888E-12, 2.50457E-07
DataValue, -0.8, 100000, 2.72965E-12, 3.33291E-07
DataValue, -0.9, 100000, 2.8173E-12, 4.40617E-07
DataValue, -1, 100000, 2.9698E-12, 5.75635E-07
DataValue, -1.1, 100000, 3.2103500000000004E-12, 7.21396E-07
DataValue, -1.2, 100000, 3.5596300000000003E-12, 8.5163099999999993E-07
DataValue, -1.3, 100000, 4.00599E-12, 9.28139E-07
DataValue, -1.4000000000000001, 100000, 4.4654500000000005E-12, 9.22316E-07
DataValue, -1.5, 100000, 4.8688000000000004E-12, 8.44492E-07
DataValue, -1.6, 100000, 5.16483E-12, 7.30856E-07
DataValue, -1.7, 100000, 5.3565900000000007E-12, 6.16152E-07
DataValue, -1.8, 100000, 5.47358E-12, 5.19002E-07
DataValue, -1.9000000000000001, 100000, 5.5378300000000004E-12, 4.47066E-07
DataValue, -2, 100000, 5.57343E-12, 3.96567E-07
DataValue, -2.1, 100000, 5.5920300000000008E-12, 3.65248E-07
DataValue, -2.2, 100000, 5.60075E-12, 3.4863599999999997E-07
DataValue, -2.3000000000000003, 100000, 5.60524E-12, 3.43572E-07
DataValue, -2.4, 100000, 5.6068000000000007E-12, 3.47594E-07
DataValue, -2.5, 100000, 5.6062300000000004E-12, 3.58343E-07
DataValue, -2.6, 100000, 5.60498E-12, 3.74963E-07
DataValue, -2.7, 100000, 5.60436E-12, 3.96276E-07
DataValue, -2.8000000000000003, 100000, 5.60429E-12, 4.20526E-07
DataValue, -2.9, 100000, 5.6066700000000008E-12, 4.47804E-07
DataValue, -3, 100000, 5.6103400000000005E-12, 4.7737599999999995E-07