
SetupTitle, output RollOut
PrimitiveTest, I/V Sweep
TestParameter, Context.MainFrame, B1500A
TestParameter, Channel.UnitType, SMU, SMU, SMU
TestParameter, Channel.Unit, SMU2:HR, SMU3:MP, SMU4:MP
TestParameter, Channel.IName, ID, IG, IS
TestParameter, Channel.VName, VD, VG, VS
TestParameter, Channel.Mode, V, V, COMMON
TestParameter, Channel.Func, VAR1, VAR2, CONST
TestParameter, Channel.Index, 
TestParameter, Channel.Time, 
TestParameter, Measurement.Port.Unit, SMU2:HR, SMU3:MP, SMU4:MP
TestParameter, Measurement.Port.SeriesResistor, NONE, NONE, NONE
TestParameter, Measurement.Port.Filter, ON, ON, ON
TestParameter, Measurement.Port.OutputVoltageComparison, 0, 0, 0
TestParameter, Measurement.Primary.Locus, Single
TestParameter, Measurement.Primary.Scale, LINEAR
TestParameter, Measurement.Primary.Start, 0
TestParameter, Measurement.Primary.Stop, 5
TestParameter, Measurement.Primary.Step, 0.1
TestParameter, Measurement.Primary.Compliance, 0.01
TestParameter, Measurement.Primary.PowerCompliance, 0
TestParameter, Measurement.Aborting.Condition, CONTINUE AT ANY
TestParameter, Measurement.PostOutput.Value, START
TestParameter, Measurement.PostOutput.Retention, OFF
TestParameter, Measurement.Secondary.Start, 0
TestParameter, Measurement.Secondary.Count, 7
TestParameter, Measurement.Secondary.Step, 0.5
TestParameter, Measurement.Secondary.Compliance, 1E-06
TestParameter, Measurement.Secondary.PowerCompliance, 0
TestParameter, Measurement.Bias.Source, 0, 0, 0
TestParameter, Measurement.Bias.Compliance, 0.01, 1E-06, 0.1
TestParameter, Measurement.Monitor.Unit, SMU2:HR, SMU3:MP, SMU4:MP
TestParameter, Measurement.Monitor.Adc, HR ADC, HR ADC, HR ADC
TestParameter, Measurement.Monitor.Measurement, Compliance Side, Compliance Side, Compliance Side
TestParameter, Measurement.Monitor.RangingMode, LIMITED, LIMITED, LIMITED
TestParameter, Measurement.Monitor.RangeBoundary, 100pA, 1nA, 1nA
TestParameter, Measurement.Monitor.RangeRating, BY FULL RANGE, BY FULL RANGE, BY FULL RANGE
TestParameter, Measurement.Monitor.RangeRatingCoeff, 50, 50, 50
TestParameter, Measurement.Timing.Hold, 0.5
TestParameter, Measurement.Timing.Delay, 0.05
TestParameter, Measurement.Adc.HighSpeed.Mode, AUTO
TestParameter, Measurement.Adc.HighSpeed.Coeff, 1
TestParameter, Measurement.Adc.HighResolution.AutoZero, OFF
TestParameter, Measurement.Adc.HighResolution.Mode, AUTO
TestParameter, Measurement.Adc.HighResolution.Coeff, 6
TestParameter, Measurement.WaitTime.Source.Coeff, 1
TestParameter, Measurement.WaitTime.Source.Offset, 0
TestParameter, Measurement.WaitTime.Monitor.Coeff, 1
TestParameter, Measurement.WaitTime.Monitor.Offset, 0
TestParameter, Function.Analysis.Name, absIg, absId
TestParameter, Function.Analysis.Unit, A, A
TestParameter, Function.Analysis.Definition, abs(IG), abs(ID)
TestParameter, Output.Graph.Enabled, true
TestParameter, Output.Graph.AutoScaling, false
TestParameter, Output.Graph.XAxis.Data, VD
TestParameter, Output.Graph.XAxis.Scale, Linear
TestParameter, Output.Graph.XAxis.Left, 0
TestParameter, Output.Graph.XAxis.Right, 8
TestParameter, Output.Graph.XAxis.RunTimeAutoScale, true
TestParameter, Output.Graph.YAxis.Data, absId, absIg, IS
TestParameter, Output.Graph.YAxis.Scale, Linear, Log, Linear
TestParameter, Output.Graph.YAxis.Bottom, 0, 0, -0.1
TestParameter, Output.Graph.YAxis.Top, 1, 1, 0.1
TestParameter, Output.Graph.YAxis.Group, , , 
TestParameter, Output.Graph.YAxis.RunTimeAutoScale, true, true, true
TestParameter, Output.List.Data, VG, IG, ID, IS, IS, VD, absIg, absId
TestParameter, AutoAnalysis.Interpolation, false
TestParameter, AutoAnalysis.Line1.Enabled, false
TestParameter, AutoAnalysis.Line1.Type, 1
TestParameter, AutoAnalysis.Line1.Fix, True
TestParameter, AutoAnalysis.Line1.YAxis, 0
TestParameter, AutoAnalysis.Line1.Point1.Type, 0
TestParameter, AutoAnalysis.Line1.Point1.XY.X, 
TestParameter, AutoAnalysis.Line1.Point1.XY.Y, 
TestParameter, AutoAnalysis.Line1.Point1.Data.Var, 
TestParameter, AutoAnalysis.Line1.Point1.Data.Condition, 
TestParameter, AutoAnalysis.Line1.Point1.Data.Start, false
TestParameter, AutoAnalysis.Line1.Point1.Data.StartVar, 
TestParameter, AutoAnalysis.Line1.Point1.Data.StartCondition, 
TestParameter, AutoAnalysis.Line1.Point2.Type, 0
TestParameter, AutoAnalysis.Line1.Point2.XY.X, 
TestParameter, AutoAnalysis.Line1.Point2.XY.Y, 
TestParameter, AutoAnalysis.Line1.Point2.Data.Var, 
TestParameter, AutoAnalysis.Line1.Point2.Data.Condition, 
TestParameter, AutoAnalysis.Line1.Point2.Data.Start, false
TestParameter, AutoAnalysis.Line1.Point2.Data.StartVar, 
TestParameter, AutoAnalysis.Line1.Point2.Data.StartCondition, 
TestParameter, AutoAnalysis.Line1.GradientExpr, 0
TestParameter, AutoAnalysis.Line2.Enabled, false
TestParameter, AutoAnalysis.Line2.Type, 1
TestParameter, AutoAnalysis.Line2.Fix, True
TestParameter, AutoAnalysis.Line2.YAxis, 0
TestParameter, AutoAnalysis.Line2.Point1.Type, 0
TestParameter, AutoAnalysis.Line2.Point1.XY.X, 
TestParameter, AutoAnalysis.Line2.Point1.XY.Y, 
TestParameter, AutoAnalysis.Line2.Point1.Data.Var, 
TestParameter, AutoAnalysis.Line2.Point1.Data.Condition, 
TestParameter, AutoAnalysis.Line2.Point1.Data.Start, false
TestParameter, AutoAnalysis.Line2.Point1.Data.StartVar, 
TestParameter, AutoAnalysis.Line2.Point1.Data.StartCondition, 
TestParameter, AutoAnalysis.Line2.Point2.Type, 0
TestParameter, AutoAnalysis.Line2.Point2.XY.X, 
TestParameter, AutoAnalysis.Line2.Point2.XY.Y, 
TestParameter, AutoAnalysis.Line2.Point2.Data.Var, 
TestParameter, AutoAnalysis.Line2.Point2.Data.Condition, 
TestParameter, AutoAnalysis.Line2.Point2.Data.Start, false
TestParameter, AutoAnalysis.Line2.Point2.Data.StartVar, 
TestParameter, AutoAnalysis.Line2.Point2.Data.StartCondition, 
TestParameter, AutoAnalysis.Line2.GradientExpr, 0
TestParameter, AutoAnalysis.Marker.Enabled, false
TestParameter, AutoAnalysis.Marker.Data.Var, 
TestParameter, AutoAnalysis.Marker.Data.Condition, 
TestParameter, AutoAnalysis.Marker.Data.Start, false
TestParameter, AutoAnalysis.Marker.Data.StartVar, 
TestParameter, AutoAnalysis.Marker.Data.StartCondition, 
MetaData, TestRecord.EntryPoint, true
MetaData, TestRecord.RecordTime, 07/03/2019 12:04:09
MetaData, TestRecord.TestTarget, 6-48
MetaData, TestRecord.IterationIndex, 1
MetaData, TestRecord.Preservation, true
MetaData, TestRecord.Flag, 
MetaData, TestRecord.Remarks, 
MetaData, TestRecord.LinkKey, ce01b38d-0d7e-450f-95dc-4ab52a2f78f3
Dimension1, 51, 51, 51, 51, 51, 51, 51
Dimension2, 7, 7, 7, 7, 7, 7, 7
DataName, VD, VG, ID, IG, IS, absIg, absId
DataValue, 0, 0, -5.314E-12, -2.19E-12, 3.3E-13, 2.19E-12, 5.314E-12
DataValue, 0.1, 0, 7.5496E-12, 5.069E-11, -1.23E-11, 5.069E-11, 7.5496E-12
DataValue, 0.2, 0, 1.94672E-11, -5.5620000000000004E-11, -1.7400000000000003E-11, 5.5620000000000004E-11, 1.94672E-11
DataValue, 0.3, 0, 2.14212E-11, -3.434E-11, -6.6900000000000009E-11, 3.434E-11, 2.14212E-11
DataValue, 0.4, 0, 1.13116E-11, 1.07E-12, 4.5530000000000003E-11, 1.07E-12, 1.13116E-11
DataValue, 0.5, 0, 1.7314799999999998E-11, 3.3E-13, -1.9330000000000003E-11, 3.3E-13, 1.7314799999999998E-11
DataValue, 0.6, 0, 1.51016E-11, 3.703E-11, -2.103E-11, 3.703E-11, 1.51016E-11
DataValue, 0.70000000000000007, 0, 2.49676E-11, -5.2130000000000005E-11, -1.9070000000000002E-11, 5.2130000000000005E-11, 2.49676E-11
DataValue, 0.8, 0, 1.62252E-11, 5.371E-11, -1.983E-11, 5.371E-11, 1.62252E-11
DataValue, 0.9, 0, 1.67996E-11, 3.7170000000000006E-11, 2.573E-11, 3.7170000000000006E-11, 1.67996E-11
DataValue, 1, 0, 2.95864E-11, -2.8800000000000002E-12, -9.0480000000000007E-11, 2.8800000000000002E-12, 2.95864E-11
DataValue, 1.1, 0, 2.55202E-11, -1.2900000000000002E-12, -1.9780000000000002E-11, 1.2900000000000002E-12, 2.55202E-11
DataValue, 1.2, 0, 3.06568E-11, -3.744E-11, -2.0930000000000002E-11, 3.744E-11, 3.06568E-11
DataValue, 1.3, 0, 2.35362E-11, 4.7980000000000005E-11, -2.7390000000000002E-11, 4.7980000000000005E-11, 2.35362E-11
DataValue, 1.4000000000000001, 0, 3.5288199999999997E-11, -5.821E-11, -2.961E-11, 5.821E-11, 3.5288199999999997E-11
DataValue, 1.5, 0, 3.82152E-11, -3.823E-11, -7.949E-11, 3.823E-11, 3.82152E-11
DataValue, 1.6, 0, 2.93174E-11, -2.3000000000000003E-12, 3.548E-11, 2.3000000000000003E-12, 2.93174E-11
DataValue, 1.7, 0, 3.63652E-11, -3.0100000000000003E-12, -3.5340000000000004E-11, 3.0100000000000003E-12, 3.63652E-11
DataValue, 1.8, 0, 3.55858E-11, 3.2070000000000005E-11, -3.3820000000000006E-11, 3.2070000000000005E-11, 3.55858E-11
DataValue, 1.9000000000000001, 0, 4.7113E-11, -5.9290000000000009E-11, -3.386E-11, 5.9290000000000009E-11, 4.7113E-11
DataValue, 2, 0, 4.0026E-11, 4.6240000000000007E-11, -3.376E-11, 4.6240000000000007E-11, 4.0026E-11
DataValue, 2.1, 0, 4.25544E-11, 2.2970000000000002E-11, 1.4760000000000003E-11, 2.2970000000000002E-11, 4.25544E-11
DataValue, 2.2, 0, 5.7199399999999996E-11, -1.52E-11, -9.62E-11, 1.52E-11, 5.7199399999999996E-11
DataValue, 2.3000000000000003, 0, 5.73218E-11, -1.699E-11, -4.4160000000000006E-11, 1.699E-11, 5.73218E-11
DataValue, 2.4, 0, 5.66302E-11, -2.3800000000000004E-12, -4.359E-11, 2.3800000000000004E-12, 5.66302E-11
DataValue, 2.5, 0, 5.7860999999999997E-11, 3.3090000000000005E-11, -4.531E-11, 3.3090000000000005E-11, 5.7860999999999997E-11
DataValue, 2.6, 0, 7.16596E-11, -7.8890000000000011E-11, -4.847E-11, 7.8890000000000011E-11, 7.16596E-11
DataValue, 2.7, 0, 7.61878E-11, -5.1550000000000006E-11, -1.0478000000000001E-10, 5.1550000000000006E-11, 7.61878E-11
DataValue, 2.8000000000000003, 0, 6.86918E-11, -2.433E-11, 5.6E-12, 2.433E-11, 6.86918E-11
DataValue, 2.9, 0, 7.6536199999999992E-11, -2.671E-11, -4.662E-11, 2.671E-11, 7.6536199999999992E-11
DataValue, 3, 0, 8.48086E-11, -5.0810000000000003E-11, -5.014E-11, 5.0810000000000003E-11, 8.48086E-11
DataValue, 3.1, 0, 8.19056E-11, 7.41E-12, -5.342E-11, 7.41E-12, 8.19056E-11
DataValue, 3.2, 0, 9.48386E-11, -8.893000000000001E-11, -5.1410000000000007E-11, 8.893000000000001E-11, 9.48386E-11
DataValue, 3.3000000000000003, 0, 8.90754E-11, 1.6870000000000002E-11, -5.142E-11, 1.6870000000000002E-11, 8.90754E-11
DataValue, 3.4, 0, 9.28408E-11, -1.3750000000000001E-11, -1.73E-12, 1.3750000000000001E-11, 9.28408E-11
DataValue, 3.5, 0, 6.4970000000000009E-11, -4.556E-11, -5.6760000000000006E-11, 4.556E-11, 6.4970000000000009E-11
DataValue, 3.6, 0, 1.0545000000000001E-10, 8.1800000000000011E-12, -5.386E-11, 8.1800000000000011E-12, 1.0545000000000001E-10
DataValue, 3.7, 0, 1.2829E-10, -5.313E-11, -1.3604E-10, 5.313E-11, 1.2829E-10
DataValue, 3.8000000000000003, 0, 1.1191E-10, -4.43E-12, -3.3420000000000006E-11, 4.43E-12, 1.1191E-10
DataValue, 3.9, 0, 1.4868000000000002E-10, -6.171E-11, -1.2506E-10, 6.171E-11, 1.4868000000000002E-10
DataValue, 4, 0, 9.3340000000000011E-11, -7.271E-11, -6.1970000000000007E-11, 7.271E-11, 9.3340000000000011E-11
DataValue, 4.1, 0, 1.267E-10, -9.87E-12, -4.7110000000000006E-11, 9.87E-12, 1.267E-10
DataValue, 4.2, 0, 1.5859000000000002E-10, -7.334E-11, -1.3737E-10, 7.334E-11, 1.5859000000000002E-10
DataValue, 4.3, 0, 1.0552000000000001E-10, -7.9750000000000009E-11, -6.2080000000000007E-11, 7.9750000000000009E-11, 1.0552000000000001E-10
DataValue, 4.4, 0, 1.4054000000000001E-10, -2.181E-11, -5.663E-11, 2.181E-11, 1.4054000000000001E-10
DataValue, 4.5, 0, 1.6967000000000002E-10, -8.7630000000000012E-11, -1.4274000000000002E-10, 8.7630000000000012E-11, 1.6967000000000002E-10
DataValue, 4.6000000000000005, 0, 1.1322000000000001E-10, -8.9100000000000008E-11, -6.4200000000000008E-11, 8.9100000000000008E-11, 1.1322000000000001E-10
DataValue, 4.7, 0, 1.566E-10, -3.601E-11, -6.562E-11, 3.601E-11, 1.566E-10
DataValue, 4.8, 0, 1.7764000000000002E-10, -9.961E-11, -1.4444000000000002E-10, 9.961E-11, 1.7764000000000002E-10
DataValue, 4.9, 0, 1.265E-10, -1.0224000000000001E-10, -6.3450000000000011E-11, 1.0224000000000001E-10, 1.265E-10
DataValue, 5, 0, 1.753E-10, -5.517E-11, -6.767000000000001E-11, 5.517E-11, 1.753E-10
DataValue, 0, 0.5, -1.24514E-11, 6.108000000000001E-11, -2.551E-11, 6.108000000000001E-11, 1.24514E-11
DataValue, 0.1, 0.5, 4.8864E-09, 4.494E-11, -4.7156E-09, 4.494E-11, 4.8864E-09
DataValue, 0.2, 0.5, 5.4898E-09, 3.416E-11, -5.4109E-09, 3.416E-11, 5.4898E-09
DataValue, 0.3, 0.5, 5.4908E-09, -2.2000000000000002E-13, -5.4784E-09, 2.2000000000000002E-13, 5.4908E-09
DataValue, 0.4, 0.5, 5.3147E-09, -3.446E-11, -5.2876E-09, 3.446E-11, 5.3147E-09
DataValue, 0.5, 0.5, 5.186E-09, 2.484E-11, -5.1264E-09, 2.484E-11, 5.186E-09
DataValue, 0.6, 0.5, 5.1036E-09, -1.4300000000000002E-12, -5.0878E-09, 1.4300000000000002E-12, 5.1036E-09
DataValue, 0.70000000000000007, 0.5, 4.9398E-09, -4.0910000000000004E-11, -4.9383E-09, 4.0910000000000004E-11, 4.9398E-09
DataValue, 0.8, 0.5, 4.8296E-09, 1.695E-11, -4.7622E-09, 1.695E-11, 4.8296E-09
DataValue, 0.9, 0.5, 4.7784E-09, -2.23E-12, -4.7348E-09, 2.23E-12, 4.7784E-09
DataValue, 1, 0.5, 4.651E-09, -4.7840000000000006E-11, -4.6552E-09, 4.7840000000000006E-11, 4.651E-09
DataValue, 1.1, 0.5, 4.5644E-09, 1.0810000000000001E-11, -4.5142E-09, 1.0810000000000001E-11, 4.5644E-09
DataValue, 1.2, 0.5, 4.5496E-09, -3.1200000000000004E-12, -4.508E-09, 3.1200000000000004E-12, 4.5496E-09
DataValue, 1.3, 0.5, 4.4498E-09, -5.1700000000000006E-11, -4.426E-09, 5.1700000000000006E-11, 4.4498E-09
DataValue, 1.4000000000000001, 0.5, 4.3924E-09, 3.3900000000000003E-12, -4.2897E-09, 3.3900000000000003E-12, 4.3924E-09
DataValue, 1.5, 0.5, 4.3847E-09, -3.13E-12, -4.3619E-09, 3.13E-12, 4.3847E-09
DataValue, 1.6, 0.5, 4.2762E-09, -5.5040000000000005E-11, -4.2658E-09, 5.5040000000000005E-11, 4.2762E-09
DataValue, 1.7, 0.5, 4.2222E-09, 3.1000000000000004E-13, -4.1563E-09, 3.1000000000000004E-13, 4.2222E-09
DataValue, 1.8, 0.5, 4.2359E-09, -3.3400000000000003E-12, -4.1941E-09, 3.3400000000000003E-12, 4.2359E-09
DataValue, 1.9000000000000001, 0.5, 4.1551E-09, -5.6350000000000004E-11, -4.1516E-09, 5.6350000000000004E-11, 4.1551E-09
DataValue, 2, 0.5, 4.0964E-09, -9.1000000000000016E-13, -4.0331E-09, 9.1000000000000016E-13, 4.0964E-09
DataValue, 2.1, 0.5, 4.1179E-09, -5.0100000000000007E-12, -4.0647E-09, 5.0100000000000007E-12, 4.1179E-09
DataValue, 2.2, 0.5, 4.0323E-09, -5.96E-11, -4.0318E-09, 5.96E-11, 4.0323E-09
DataValue, 2.3000000000000003, 0.5, 3.9891E-09, -3.02E-12, -3.9168E-09, 3.02E-12, 3.9891E-09
DataValue, 2.4, 0.5, 4.0031E-09, -6.9400000000000007E-12, -3.9542E-09, 6.9400000000000007E-12, 4.0031E-09
DataValue, 2.5, 0.5, 3.939E-09, -6.3510000000000009E-11, -3.9212E-09, 6.3510000000000009E-11, 3.939E-09
DataValue, 2.6, 0.5, 3.8845E-09, -7.21E-12, -3.809E-09, 7.21E-12, 3.8845E-09
DataValue, 2.7, 0.5, 3.9153E-09, -1.029E-11, -3.8663E-09, 1.029E-11, 3.9153E-09
DataValue, 2.8000000000000003, 0.5, 3.8473E-09, -6.962E-11, -3.8364E-09, 6.962E-11, 3.8473E-09
DataValue, 2.9, 0.5, 3.797E-09, -1.26E-11, -3.7196E-09, 1.26E-11, 3.797E-09
DataValue, 3, 0.5, 3.834E-09, -1.453E-11, -3.7799E-09, 1.453E-11, 3.834E-09
DataValue, 3.1, 0.5, 3.7786E-09, -7.721000000000001E-11, -3.7638E-09, 7.721000000000001E-11, 3.7786E-09
DataValue, 3.2, 0.5, 3.7399E-09, -2.0730000000000002E-11, -3.6581E-09, 2.0730000000000002E-11, 3.7399E-09
DataValue, 3.3000000000000003, 0.5, 3.7732E-09, -2.0620000000000002E-11, -3.706E-09, 2.0620000000000002E-11, 3.7732E-09
DataValue, 3.4, 0.5, 3.7222E-09, -8.644E-11, -3.6931E-09, 8.644E-11, 3.7222E-09
DataValue, 3.5, 0.5, 3.6725E-09, -3.03E-11, -3.5843E-09, 3.03E-11, 3.6725E-09
DataValue, 3.6, 0.5, 3.7126E-09, -2.784E-11, -3.6543E-09, 2.784E-11, 3.7126E-09
DataValue, 3.7, 0.5, 3.6768E-09, -9.505000000000001E-11, -3.6372E-09, 9.505000000000001E-11, 3.6768E-09
DataValue, 3.8000000000000003, 0.5, 3.6286E-09, -4.056E-11, -3.537E-09, 4.056E-11, 3.6286E-09
DataValue, 3.9, 0.5, 3.6723E-09, -3.6030000000000004E-11, -3.5894E-09, 3.6030000000000004E-11, 3.6723E-09
DataValue, 4, 0.5, 3.6294E-09, -1.0529E-10, -3.5856E-09, 1.0529E-10, 3.6294E-09
DataValue, 4.1, 0.5, 3.5827E-09, -5.4240000000000005E-11, -3.4796E-09, 5.4240000000000005E-11, 3.5827E-09
DataValue, 4.2, 0.5, 3.6197E-09, -4.3760000000000006E-11, -3.5378E-09, 4.3760000000000006E-11, 3.6197E-09
DataValue, 4.3, 0.5, 3.596E-09, -1.1166E-10, -3.5559E-09, 1.1166E-10, 3.596E-09
DataValue, 4.4, 0.5, 3.5445E-09, -6.604E-11, -3.4418E-09, 6.604E-11, 3.5445E-09
DataValue, 4.5, 0.5, 3.5765E-09, -4.4930000000000007E-11, -3.4834E-09, 4.4930000000000007E-11, 3.5765E-09
DataValue, 4.6000000000000005, 0.5, 3.5515E-09, -1.1467E-10, -3.515E-09, 1.1467E-10, 3.5515E-09
DataValue, 4.7, 0.5, 3.4931E-09, -7.7430000000000011E-11, -3.3905E-09, 7.7430000000000011E-11, 3.4931E-09
DataValue, 4.8, 0.5, 3.5381E-09, -5.168E-11, -3.4468E-09, 5.168E-11, 3.5381E-09
DataValue, 4.9, 0.5, 3.5232E-09, -1.1763E-10, -3.462E-09, 1.1763E-10, 3.5232E-09
DataValue, 5, 0.5, 3.4691E-09, -8.655E-11, -3.3658E-09, 8.655E-11, 3.4691E-09
DataValue, 0, 1, -3.5160000000000004E-11, -2.0170000000000003E-11, 3.919E-11, 2.0170000000000003E-11, 3.5160000000000004E-11
DataValue, 0.1, 1, 3.13822E-08, -1.2750000000000001E-11, -2.9425599999999996E-08, 1.2750000000000001E-11, 3.13822E-08
DataValue, 0.2, 1, 3.6664199999999994E-08, 3.0000000000000005E-14, -3.6352999999999995E-08, 3.0000000000000005E-14, 3.6664199999999994E-08
DataValue, 0.3, 1, 3.7107599999999995E-08, 2.36E-12, -3.6901599999999993E-08, 2.36E-12, 3.7107599999999995E-08
DataValue, 0.4, 1, 3.6466E-08, -6.400000000000001E-13, -3.6293999999999994E-08, 6.400000000000001E-13, 3.6466E-08
DataValue, 0.5, 1, 3.5672799999999994E-08, 3.25E-12, -3.5574199999999996E-08, 3.25E-12, 3.5672799999999994E-08
DataValue, 0.6, 1, 3.5020799999999996E-08, -6.4800000000000007E-12, -3.4892999999999994E-08, 6.4800000000000007E-12, 3.5020799999999996E-08
DataValue, 0.70000000000000007, 1, 3.4394799999999994E-08, 1.967E-11, -3.4407199999999996E-08, 1.967E-11, 3.4394799999999994E-08
DataValue, 0.8, 1, 3.38376E-08, -3.3380000000000005E-11, -3.3774599999999995E-08, 3.3380000000000005E-11, 3.38376E-08
DataValue, 0.9, 1, 3.33706E-08, 4.418E-11, -3.3162199999999994E-08, 4.418E-11, 3.33706E-08
DataValue, 1, 1, 3.2773399999999994E-08, -5.4320000000000006E-11, -3.2807199999999995E-08, 5.4320000000000006E-11, 3.2773399999999994E-08
DataValue, 1.1, 1, 3.23744E-08, 5.761E-11, -3.2199199999999994E-08, 5.761E-11, 3.23744E-08
DataValue, 1.2, 1, 3.20286E-08, -5.8410000000000008E-11, -3.1999999999999995E-08, 5.8410000000000008E-11, 3.20286E-08
DataValue, 1.3, 1, 3.16634E-08, 5.4170000000000005E-11, -3.1577E-08, 5.4170000000000005E-11, 3.16634E-08
DataValue, 1.4000000000000001, 1, 3.1171999999999996E-08, -5.3690000000000004E-11, -3.1128999999999994E-08, 5.3690000000000004E-11, 3.1171999999999996E-08
DataValue, 1.5, 1, 3.0905199999999995E-08, 4.6240000000000007E-11, -3.08032E-08, 4.6240000000000007E-11, 3.0905199999999995E-08
DataValue, 1.6, 1, 3.0650999999999994E-08, -3.8690000000000004E-11, -3.0566199999999995E-08, 3.8690000000000004E-11, 3.0650999999999994E-08
DataValue, 1.7, 1, 3.02554E-08, 2.591E-11, -3.01936E-08, 2.591E-11, 3.02554E-08
DataValue, 1.8, 1, 3.00086E-08, -1.6380000000000003E-11, -2.99298E-08, 1.6380000000000003E-11, 3.00086E-08
DataValue, 1.9000000000000001, 1, 2.9797599999999998E-08, 6.1800000000000007E-12, -2.9715599999999998E-08, 6.1800000000000007E-12, 2.9797599999999998E-08
DataValue, 2, 1, 2.9466799999999998E-08, -3.23E-12, -2.9415999999999997E-08, 3.23E-12, 2.9466799999999998E-08
DataValue, 2.1, 1, 2.9446799999999998E-08, -2.2700000000000002E-12, -2.9476599999999998E-08, 2.2700000000000002E-12, 2.9446799999999998E-08
DataValue, 2.2, 1, 2.91654E-08, -1.6000000000000003E-13, -2.9094999999999997E-08, 1.6000000000000003E-13, 2.91654E-08
DataValue, 2.3000000000000003, 1, 2.8924599999999997E-08, -3.4200000000000004E-12, -2.8949999999999998E-08, 3.4200000000000004E-12, 2.8924599999999997E-08
DataValue, 2.4, 1, 2.8592799999999996E-08, -9.000000000000001E-13, -2.8612E-08, 9.000000000000001E-13, 2.8592799999999996E-08
DataValue, 2.5, 1, 2.8590799999999997E-08, -4.2400000000000005E-12, -2.8528799999999996E-08, 4.2400000000000005E-12, 2.8590799999999997E-08
