
SetupTitle, output RollOut
PrimitiveTest, I/V Sweep
TestParameter, Context.MainFrame, B1500A
TestParameter, Channel.UnitType, SMU, SMU, SMU
TestParameter, Channel.Unit, SMU2:HR, SMU3:MP, SMU4:MP
TestParameter, Channel.IName, ID, IG, IS
TestParameter, Channel.VName, VD, VG, VS
TestParameter, Channel.Mode, V, V, COMMON
TestParameter, Channel.Func, VAR1, VAR2, CONST
TestParameter, Channel.Index, 
TestParameter, Channel.Time, 
TestParameter, Measurement.Port.Unit, SMU2:HR, SMU3:MP, SMU4:MP
TestParameter, Measurement.Port.SeriesResistor, NONE, NONE, NONE
TestParameter, Measurement.Port.Filter, ON, ON, ON
TestParameter, Measurement.Port.OutputVoltageComparison, 0, 0, 0
TestParameter, Measurement.Primary.Locus, Single
TestParameter, Measurement.Primary.Scale, LINEAR
TestParameter, Measurement.Primary.Start, 0
TestParameter, Measurement.Primary.Stop, 5
TestParameter, Measurement.Primary.Step, 0.1
TestParameter, Measurement.Primary.Compliance, 0.01
TestParameter, Measurement.Primary.PowerCompliance, 0
TestParameter, Measurement.Aborting.Condition, CONTINUE AT ANY
TestParameter, Measurement.PostOutput.Value, START
TestParameter, Measurement.PostOutput.Retention, OFF
TestParameter, Measurement.Secondary.Start, 0
TestParameter, Measurement.Secondary.Count, 7
TestParameter, Measurement.Secondary.Step, 0.5
TestParameter, Measurement.Secondary.Compliance, 1E-06
TestParameter, Measurement.Secondary.PowerCompliance, 0
TestParameter, Measurement.Bias.Source, 0, 0, 0
TestParameter, Measurement.Bias.Compliance, 0.01, 1E-06, 0.1
TestParameter, Measurement.Monitor.Unit, SMU2:HR, SMU3:MP, SMU4:MP
TestParameter, Measurement.Monitor.Adc, HR ADC, HR ADC, HR ADC
TestParameter, Measurement.Monitor.Measurement, Compliance Side, Compliance Side, Compliance Side
TestParameter, Measurement.Monitor.RangingMode, LIMITED, LIMITED, LIMITED
TestParameter, Measurement.Monitor.RangeBoundary, 100pA, 1nA, 1nA
TestParameter, Measurement.Monitor.RangeRating, BY FULL RANGE, BY FULL RANGE, BY FULL RANGE
TestParameter, Measurement.Monitor.RangeRatingCoeff, 50, 50, 50
TestParameter, Measurement.Timing.Hold, 0.5
TestParameter, Measurement.Timing.Delay, 0.05
TestParameter, Measurement.Adc.HighSpeed.Mode, AUTO
TestParameter, Measurement.Adc.HighSpeed.Coeff, 1
TestParameter, Measurement.Adc.HighResolution.AutoZero, OFF
TestParameter, Measurement.Adc.HighResolution.Mode, AUTO
TestParameter, Measurement.Adc.HighResolution.Coeff, 6
TestParameter, Measurement.WaitTime.Source.Coeff, 1
TestParameter, Measurement.WaitTime.Source.Offset, 0
TestParameter, Measurement.WaitTime.Monitor.Coeff, 1
TestParameter, Measurement.WaitTime.Monitor.Offset, 0
TestParameter, Function.Analysis.Name, absIg, absId
TestParameter, Function.Analysis.Unit, A, A
TestParameter, Function.Analysis.Definition, abs(IG), abs(ID)
TestParameter, Output.Graph.Enabled, true
TestParameter, Output.Graph.AutoScaling, false
TestParameter, Output.Graph.XAxis.Data, VD
TestParameter, Output.Graph.XAxis.Scale, Linear
TestParameter, Output.Graph.XAxis.Left, 0
TestParameter, Output.Graph.XAxis.Right, 8
TestParameter, Output.Graph.XAxis.RunTimeAutoScale, true
TestParameter, Output.Graph.YAxis.Data, absId, absIg, IS
TestParameter, Output.Graph.YAxis.Scale, Linear, Log, Linear
TestParameter, Output.Graph.YAxis.Bottom, 0, 0, -0.1
TestParameter, Output.Graph.YAxis.Top, 1, 1, 0.1
TestParameter, Output.Graph.YAxis.Group, , , 
TestParameter, Output.Graph.YAxis.RunTimeAutoScale, true, true, true
TestParameter, Output.List.Data, VG, IG, ID, IS, IS, VD, absIg, absId
TestParameter, AutoAnalysis.Interpolation, false
TestParameter, AutoAnalysis.Line1.Enabled, false
TestParameter, AutoAnalysis.Line1.Type, 1
TestParameter, AutoAnalysis.Line1.Fix, True
TestParameter, AutoAnalysis.Line1.YAxis, 0
TestParameter, AutoAnalysis.Line1.Point1.Type, 0
TestParameter, AutoAnalysis.Line1.Point1.XY.X, 
TestParameter, AutoAnalysis.Line1.Point1.XY.Y, 
TestParameter, AutoAnalysis.Line1.Point1.Data.Var, 
TestParameter, AutoAnalysis.Line1.Point1.Data.Condition, 
TestParameter, AutoAnalysis.Line1.Point1.Data.Start, false
TestParameter, AutoAnalysis.Line1.Point1.Data.StartVar, 
TestParameter, AutoAnalysis.Line1.Point1.Data.StartCondition, 
TestParameter, AutoAnalysis.Line1.Point2.Type, 0
TestParameter, AutoAnalysis.Line1.Point2.XY.X, 
TestParameter, AutoAnalysis.Line1.Point2.XY.Y, 
TestParameter, AutoAnalysis.Line1.Point2.Data.Var, 
TestParameter, AutoAnalysis.Line1.Point2.Data.Condition, 
TestParameter, AutoAnalysis.Line1.Point2.Data.Start, false
TestParameter, AutoAnalysis.Line1.Point2.Data.StartVar, 
TestParameter, AutoAnalysis.Line1.Point2.Data.StartCondition, 
TestParameter, AutoAnalysis.Line1.GradientExpr, 0
TestParameter, AutoAnalysis.Line2.Enabled, false
TestParameter, AutoAnalysis.Line2.Type, 1
TestParameter, AutoAnalysis.Line2.Fix, True
TestParameter, AutoAnalysis.Line2.YAxis, 0
TestParameter, AutoAnalysis.Line2.Point1.Type, 0
TestParameter, AutoAnalysis.Line2.Point1.XY.X, 
TestParameter, AutoAnalysis.Line2.Point1.XY.Y, 
TestParameter, AutoAnalysis.Line2.Point1.Data.Var, 
TestParameter, AutoAnalysis.Line2.Point1.Data.Condition, 
TestParameter, AutoAnalysis.Line2.Point1.Data.Start, false
TestParameter, AutoAnalysis.Line2.Point1.Data.StartVar, 
TestParameter, AutoAnalysis.Line2.Point1.Data.StartCondition, 
TestParameter, AutoAnalysis.Line2.Point2.Type, 0
TestParameter, AutoAnalysis.Line2.Point2.XY.X, 
TestParameter, AutoAnalysis.Line2.Point2.XY.Y, 
TestParameter, AutoAnalysis.Line2.Point2.Data.Var, 
TestParameter, AutoAnalysis.Line2.Point2.Data.Condition, 
TestParameter, AutoAnalysis.Line2.Point2.Data.Start, false
TestParameter, AutoAnalysis.Line2.Point2.Data.StartVar, 
TestParameter, AutoAnalysis.Line2.Point2.Data.StartCondition, 
TestParameter, AutoAnalysis.Line2.GradientExpr, 0
TestParameter, AutoAnalysis.Marker.Enabled, false
TestParameter, AutoAnalysis.Marker.Data.Var, 
TestParameter, AutoAnalysis.Marker.Data.Condition, 
TestParameter, AutoAnalysis.Marker.Data.Start, false
TestParameter, AutoAnalysis.Marker.Data.StartVar, 
TestParameter, AutoAnalysis.Marker.Data.StartCondition, 
MetaData, TestRecord.EntryPoint, true
MetaData, TestRecord.RecordTime, 07/03/2019 12:13:43
MetaData, TestRecord.TestTarget, 6-47
MetaData, TestRecord.IterationIndex, 1
MetaData, TestRecord.Preservation, true
MetaData, TestRecord.Flag, 
MetaData, TestRecord.Remarks, good
MetaData, TestRecord.LinkKey, 8102946a-bba3-403f-bda5-35607e37e21e
Dimension1, 51, 51, 51, 51, 51, 51, 51
Dimension2, 7, 7, 7, 7, 7, 7, 7
DataName, VD, VG, ID, IG, IS, absIg, absId
DataValue, 0, 0, -5.2252E-12, -8.6000000000000007E-13, -1.4200000000000002E-12, 8.6000000000000007E-13, 5.2252E-12
DataValue, 0.1, 0, -5.7739999999999994E-13, 5.219E-11, -5.6200000000000007E-12, 5.219E-11, 5.7739999999999994E-13
DataValue, 0.2, 0, 1.0316399999999999E-11, -5.583E-11, -6.92E-12, 5.583E-11, 1.0316399999999999E-11
DataValue, 0.3, 0, 1.15648E-11, -2.8030000000000002E-11, -6.181E-11, 2.8030000000000002E-11, 1.15648E-11
DataValue, 0.4, 0, 1.163E-12, 1.8100000000000002E-12, 3.963E-11, 1.8100000000000002E-12, 1.163E-12
DataValue, 0.5, 0, 5.8954E-12, 2.06E-12, -2.42E-12, 2.06E-12, 5.8954E-12
DataValue, 0.6, 0, 1.0797799999999999E-11, -2.609E-11, -5.1200000000000008E-12, 2.609E-11, 1.0797799999999999E-11
DataValue, 0.70000000000000007, 0, 3.5915999999999998E-12, 4.684E-11, -1.0200000000000001E-11, 4.684E-11, 3.5915999999999998E-12
DataValue, 0.8, 0, 1.3905799999999999E-11, -5.561E-11, -8.02E-12, 5.561E-11, 1.3905799999999999E-11
DataValue, 0.9, 0, 1.5331999999999998E-11, -3.114E-11, -6.1690000000000009E-11, 3.114E-11, 1.5331999999999998E-11
DataValue, 1, 0, 4.9222E-12, 1.27E-12, 4.501E-11, 1.27E-12, 4.9222E-12
DataValue, 1.1, 0, 9.4486E-12, 2.0500000000000004E-12, -7.72E-12, 2.0500000000000004E-12, 9.4486E-12
DataValue, 1.2, 0, 1.45608E-11, -1.903E-11, -8.05E-12, 1.903E-11, 1.45608E-11
DataValue, 1.3, 0, 1.74784E-11, -5.3650000000000003E-11, -1.2220000000000001E-11, 5.3650000000000003E-11, 1.74784E-11
DataValue, 1.4000000000000001, 0, 7.9274E-12, 5.6800000000000007E-11, -3.4700000000000004E-12, 5.6800000000000007E-11, 7.9274E-12
DataValue, 1.5, 0, 8.066E-12, 1.5940000000000002E-11, 5.2060000000000006E-11, 1.5940000000000002E-11, 8.066E-12
DataValue, 1.6, 0, 1.95738E-11, -2.36E-12, -4.7320000000000004E-11, 2.36E-12, 1.95738E-11
DataValue, 1.7, 0, 1.57054E-11, -9.1000000000000016E-13, -1.764E-11, 9.1000000000000016E-13, 1.57054E-11
DataValue, 1.8, 0, 1.28764E-11, 3.584E-11, -1.8420000000000003E-11, 3.584E-11, 1.28764E-11
DataValue, 1.9000000000000001, 0, 2.27064E-11, -5.1830000000000004E-11, -1.3680000000000002E-11, 5.1830000000000004E-11, 2.27064E-11
DataValue, 2, 0, 1.36188E-11, 5.5740000000000006E-11, -1.471E-11, 5.5740000000000006E-11, 1.36188E-11
DataValue, 2.1, 0, 1.3938199999999999E-11, 2.7900000000000002E-11, 3.424E-11, 2.7900000000000002E-11, 1.3938199999999999E-11
DataValue, 2.2, 0, 2.60358E-11, -3.1200000000000004E-12, -7.243E-11, 3.1200000000000004E-12, 2.60358E-11
DataValue, 2.3000000000000003, 0, 2.33058E-11, -3.2700000000000004E-12, -2.225E-11, 3.2700000000000004E-12, 2.33058E-11
DataValue, 2.4, 0, 2.0394E-11, 1.792E-11, -2.26E-11, 1.792E-11, 2.0394E-11
DataValue, 2.5, 0, 2.88238E-11, -4.3130000000000004E-11, -2.0680000000000003E-11, 4.3130000000000004E-11, 2.88238E-11
DataValue, 2.6, 0, 2.11356E-11, 5.0670000000000004E-11, -2.422E-11, 5.0670000000000004E-11, 2.11356E-11
DataValue, 2.7, 0, 3.28388E-11, -5.988E-11, -3.0250000000000005E-11, 5.988E-11, 3.28388E-11
DataValue, 2.8000000000000003, 0, 3.52988E-11, -2.4350000000000002E-11, -8.7740000000000012E-11, 2.4350000000000002E-11, 3.52988E-11
DataValue, 2.9, 0, 2.6389399999999998E-11, -2.5800000000000003E-12, 1.622E-11, 2.5800000000000003E-12, 2.6389399999999998E-11
DataValue, 3, 0, 3.2406E-11, -3.0400000000000004E-12, -2.509E-11, 3.0400000000000004E-12, 3.2406E-11
DataValue, 3.1, 0, 3.85694E-11, -2.9330000000000004E-11, -2.844E-11, 2.9330000000000004E-11, 3.85694E-11
DataValue, 3.2, 0, 3.4016E-11, 3.2940000000000005E-11, -3.384E-11, 3.2940000000000005E-11, 3.4016E-11
DataValue, 3.3000000000000003, 0, 4.58756E-11, -6.229E-11, -2.824E-11, 6.229E-11, 4.58756E-11
DataValue, 3.4, 0, 3.91416E-11, 4.5290000000000006E-11, -2.686E-11, 4.5290000000000006E-11, 3.91416E-11
DataValue, 3.5, 0, 4.26684E-11, 6.2E-12, 2.6070000000000003E-11, 6.2E-12, 4.26684E-11
DataValue, 3.6, 0, 5.98878E-11, -2.3130000000000002E-11, -8.302E-11, 2.3130000000000002E-11, 5.98878E-11
DataValue, 3.7, 0, 6.4475E-11, -2.7920000000000002E-11, -3.7350000000000005E-11, 2.7920000000000002E-11, 6.4475E-11
DataValue, 3.8000000000000003, 0, 6.7519E-11, -1.149E-11, -4.032E-11, 1.149E-11, 6.7519E-11
DataValue, 3.9, 0, 7.1711E-11, 1.633E-11, -3.922E-11, 1.633E-11, 7.1711E-11
DataValue, 4, 0, 8.59286E-11, -9.755E-11, -4.8740000000000004E-11, 9.755E-11, 8.59286E-11
DataValue, 4.1, 0, 8.52124E-11, -5.612E-11, -1.0493E-10, 5.612E-11, 8.52124E-11
DataValue, 4.2, 0, 6.70846E-11, -2.622E-11, -8E-13, 2.622E-11, 6.70846E-11
DataValue, 4.3, 0, 6.59428E-11, -2.008E-11, -4.0480000000000005E-11, 2.008E-11, 6.59428E-11
DataValue, 4.4, 0, 7.05836E-11, -4.829E-11, -4.2080000000000005E-11, 4.829E-11, 7.05836E-11
DataValue, 4.5, 0, 6.48208E-11, 2.067E-11, -5.1010000000000007E-11, 2.067E-11, 6.48208E-11
DataValue, 4.6000000000000005, 0, 7.68492E-11, -7.684E-11, -4.599E-11, 7.684E-11, 7.68492E-11
DataValue, 4.7, 0, 6.88976E-11, 3.2210000000000004E-11, -3.965E-11, 3.2210000000000004E-11, 6.88976E-11
DataValue, 4.8, 0, 7.13902E-11, -1.126E-11, 1.4480000000000001E-11, 1.126E-11, 7.13902E-11
DataValue, 4.9, 0, 8.52794E-11, -3.06E-11, -8.87E-11, 3.06E-11, 8.52794E-11
DataValue, 5, 0, 8.37658E-11, -3.0930000000000003E-11, -5.455E-11, 3.0930000000000003E-11, 8.37658E-11
DataValue, 0, 0.5, -8.9222E-12, 5.7820000000000007E-11, -1.755E-11, 5.7820000000000007E-11, 8.9222E-12
DataValue, 0.1, 0.5, 2.7596E-09, 5.1140000000000004E-11, -2.6626E-09, 5.1140000000000004E-11, 2.7596E-09
DataValue, 0.2, 0.5, 2.9644E-09, 2.3550000000000002E-11, -2.9205E-09, 2.3550000000000002E-11, 2.9644E-09
DataValue, 0.3, 0.5, 2.996E-09, 8.0000000000000013E-14, -2.9815E-09, 8.0000000000000013E-14, 2.996E-09
DataValue, 0.4, 0.5, 2.8685E-09, -4.199E-11, -2.8698E-09, 4.199E-11, 2.8685E-09
DataValue, 0.5, 0.5, 2.7869E-09, 1.2480000000000002E-11, -2.7268E-09, 1.2480000000000002E-11, 2.7869E-09
DataValue, 0.6, 0.5, 2.775E-09, -1.9E-12, -2.7388E-09, 1.9E-12, 2.775E-09
DataValue, 0.70000000000000007, 0.5, 2.6731E-09, -4.741E-11, -2.6746E-09, 4.741E-11, 2.6731E-09
DataValue, 0.8, 0.5, 2.605E-09, 4.87E-12, -2.5459E-09, 4.87E-12, 2.605E-09
DataValue, 0.9, 0.5, 2.626E-09, -2.14E-12, -2.5927E-09, 2.14E-12, 2.626E-09
DataValue, 1, 0.5, 2.5331E-09, -5.2750000000000005E-11, -2.5202E-09, 5.2750000000000005E-11, 2.5331E-09
DataValue, 1.1, 0.5, 2.4837E-09, 2.13E-12, -2.4116E-09, 2.13E-12, 2.4837E-09
DataValue, 1.2, 0.5, 2.4925E-09, -2.0500000000000004E-12, -2.4489E-09, 2.0500000000000004E-12, 2.4925E-09
DataValue, 1.3, 0.5, 2.4202E-09, -5.4670000000000004E-11, -2.4136E-09, 5.4670000000000004E-11, 2.4202E-09
DataValue, 1.4000000000000001, 0.5, 2.3723E-09, 1.78E-12, -2.3077E-09, 1.78E-12, 2.3723E-09
DataValue, 1.5, 0.5, 2.3919E-09, -1.51E-12, -2.358E-09, 1.51E-12, 2.3919E-09
DataValue, 1.6, 0.5, 2.3315E-09, -5.761E-11, -2.3264E-09, 5.761E-11, 2.3315E-09
DataValue, 1.7, 0.5, 2.2992E-09, 1.4E-12, -2.2297E-09, 1.4E-12, 2.2992E-09
DataValue, 1.8, 0.5, 2.3203E-09, 1.1000000000000001E-13, -2.2858E-09, 1.1000000000000001E-13, 2.3203E-09
DataValue, 1.9000000000000001, 0.5, 2.2633E-09, -5.876E-11, -2.2604E-09, 5.876E-11, 2.2633E-09
DataValue, 2, 0.5, 2.223E-09, 1.45E-12, -2.1675E-09, 1.45E-12, 2.223E-09
DataValue, 2.1, 0.5, 2.2654E-09, 3.28E-12, -2.2263E-09, 3.28E-12, 2.2654E-09
DataValue, 2.2, 0.5, 2.2175E-09, -5.8380000000000009E-11, -2.2212E-09, 5.8380000000000009E-11, 2.2175E-09
DataValue, 2.3000000000000003, 0.5, 2.1604E-09, -7.9000000000000007E-13, -2.109E-09, 7.9000000000000007E-13, 2.1604E-09
DataValue, 2.4, 0.5, 2.2077E-09, 6.4300000000000007E-12, -2.1706E-09, 6.4300000000000007E-12, 2.2077E-09
DataValue, 2.5, 0.5, 2.1663E-09, -5.517E-11, -2.1723E-09, 5.517E-11, 2.1663E-09
DataValue, 2.6, 0.5, 2.1162E-09, -8.5000000000000011E-13, -2.0708E-09, 8.5000000000000011E-13, 2.1162E-09
DataValue, 2.7, 0.5, 2.152E-09, 1.117E-11, -2.1252E-09, 1.117E-11, 2.152E-09
DataValue, 2.8000000000000003, 0.5, 2.1147E-09, -5.1140000000000004E-11, -2.1215E-09, 5.1140000000000004E-11, 2.1147E-09
DataValue, 2.9, 0.5, 2.0565E-09, -2.4500000000000003E-12, -2.0272E-09, 2.4500000000000003E-12, 2.0565E-09
DataValue, 3, 0.5, 2.1119E-09, 1.9110000000000002E-11, -2.0846E-09, 1.9110000000000002E-11, 2.1119E-09
DataValue, 3.1, 0.5, 2.0736E-09, -4.0150000000000005E-11, -2.1043E-09, 4.0150000000000005E-11, 2.0736E-09
DataValue, 3.2, 0.5, 2.0271E-09, -4.1500000000000007E-12, -2.0091E-09, 4.1500000000000007E-12, 2.0271E-09
DataValue, 3.3000000000000003, 0.5, 2.0755E-09, 2.5970000000000002E-11, -2.0476E-09, 2.5970000000000002E-11, 2.0755E-09
DataValue, 3.4, 0.5, 2.0389E-09, -3.711E-11, -2.0693E-09, 3.711E-11, 2.0389E-09
DataValue, 3.5, 0.5, 1.9926E-09, -5.63E-12, -1.9892E-09, 5.63E-12, 1.9926E-09
DataValue, 3.6, 0.5, 2.0288E-09, 3.004E-11, -2.0111E-09, 3.004E-11, 2.0288E-09
DataValue, 3.7, 0.5, 2.0281E-09, -2.989E-11, -2.0606E-09, 2.989E-11, 2.0281E-09
DataValue, 3.8000000000000003, 0.5, 1.9643E-09, -7.84E-12, -1.9604E-09, 7.84E-12, 1.9643E-09
DataValue, 3.9, 0.5, 2.004E-09, 3.122E-11, -1.9874E-09, 3.122E-11, 2.004E-09
DataValue, 4, 0.5, 2.0038E-09, -2.9510000000000003E-11, -2.0433E-09, 2.9510000000000003E-11, 2.0038E-09
DataValue, 4.1, 0.5, 1.9415E-09, -1.199E-11, -1.9479E-09, 1.199E-11, 1.9415E-09
DataValue, 4.2, 0.5, 1.9802E-09, 2.864E-11, -1.9612E-09, 2.864E-11, 1.9802E-09
DataValue, 4.3, 0.5, 1.9753E-09, -2.8890000000000003E-11, -2.0101E-09, 2.8890000000000003E-11, 1.9753E-09
DataValue, 4.4, 0.5, 1.9137E-09, -1.866E-11, -1.9321E-09, 1.866E-11, 1.9137E-09
DataValue, 4.5, 0.5, 1.9605E-09, 2.704E-11, -1.9312E-09, 2.704E-11, 1.9605E-09
DataValue, 4.6000000000000005, 0.5, 1.9632E-09, -3.1670000000000005E-11, -1.9866E-09, 3.1670000000000005E-11, 1.9632E-09
DataValue, 4.7, 0.5, 1.8998E-09, -2.916E-11, -1.9092E-09, 2.916E-11, 1.8998E-09
DataValue, 4.8, 0.5, 1.9433E-09, 1.724E-11, -1.9101E-09, 1.724E-11, 1.9433E-09
DataValue, 4.9, 0.5, 1.9598E-09, -4.413E-11, -1.9669E-09, 4.413E-11, 1.9598E-09
DataValue, 5, 0.5, 1.8973E-09, -4.3610000000000005E-11, -1.8923999999999998E-09, 4.3610000000000005E-11, 1.8973E-09
DataValue, 0, 1, -2.02092E-11, -7.1000000000000008E-12, 2.174E-11, 7.1000000000000008E-12, 2.02092E-11
DataValue, 0.1, 1, 1.62306E-08, -4.002E-11, -1.5071399999999998E-08, 4.002E-11, 1.62306E-08
DataValue, 0.2, 1, 1.77244E-08, -5.5000000000000008E-13, -1.7656199999999997E-08, 5.5000000000000008E-13, 1.77244E-08
DataValue, 0.3, 1, 1.77708E-08, 4.6100000000000008E-12, -1.76722E-08, 4.6100000000000008E-12, 1.77708E-08
DataValue, 0.4, 1, 1.7462799999999998E-08, -3.2E-12, -1.73864E-08, 3.2E-12, 1.7462799999999998E-08
DataValue, 0.5, 1, 1.7173599999999997E-08, 1.4470000000000001E-11, -1.71092E-08, 1.4470000000000001E-11, 1.7173599999999997E-08
DataValue, 0.6, 1, 1.68858E-08, -2.4750000000000002E-11, -1.6862999999999997E-08, 2.4750000000000002E-11, 1.68858E-08
DataValue, 0.70000000000000007, 1, 1.6618799999999997E-08, 3.587E-11, -1.6553E-08, 3.587E-11, 1.6618799999999997E-08
DataValue, 0.8, 1, 1.64092E-08, -4.8480000000000003E-11, -1.6365599999999997E-08, 4.8480000000000003E-11, 1.64092E-08
DataValue, 0.9, 1, 1.61054E-08, 5.536E-11, -1.6097E-08, 5.536E-11, 1.61054E-08
DataValue, 1, 1, 1.5919E-08, -5.6870000000000006E-11, -1.5894999999999998E-08, 5.6870000000000006E-11, 1.5919E-08
DataValue, 1.1, 1, 1.57166E-08, 4.4620000000000003E-11, -1.57264E-08, 4.4620000000000003E-11, 1.57166E-08
DataValue, 1.2, 1, 1.5462199999999997E-08, -3.4800000000000005E-11, -1.5509199999999998E-08, 3.4800000000000005E-11, 1.5462199999999997E-08
DataValue, 1.3, 1, 1.5385599999999998E-08, 2.449E-11, -1.53456E-08, 2.449E-11, 1.5385599999999998E-08
DataValue, 1.4000000000000001, 1, 1.5172E-08, -1.774E-11, -1.5150199999999998E-08, 1.774E-11, 1.5172E-08
DataValue, 1.5, 1, 1.5051999999999998E-08, 6.5800000000000006E-12, -1.50278E-08, 6.5800000000000006E-12, 1.5051999999999998E-08
DataValue, 1.6, 1, 1.4882199999999998E-08, -2.7800000000000003E-12, -1.49094E-08, 2.7800000000000003E-12, 1.4882199999999998E-08
DataValue, 1.7, 1, 1.4766199999999999E-08, -2.1500000000000003E-12, -1.4780199999999998E-08, 2.1500000000000003E-12, 1.4766199999999999E-08
DataValue, 1.8, 1, 1.4623399999999998E-08, 1.1100000000000001E-12, -1.4601799999999998E-08, 1.1100000000000001E-12, 1.4623399999999998E-08
DataValue, 1.9000000000000001, 1, 1.4596999999999998E-08, -2.59E-12, -1.4640999999999999E-08, 2.59E-12, 1.4596999999999998E-08
DataValue, 2, 1, 1.4409399999999999E-08, 4.6000000000000006E-13, -1.4440199999999998E-08, 4.6000000000000006E-13, 1.4409399999999999E-08
DataValue, 2.1, 1, 1.442E-08, -3.33E-12, -1.4426799999999998E-08, 3.33E-12, 1.442E-08
DataValue, 2.2, 1, 1.4226999999999999E-08, 3.1000000000000004E-13, -1.4192199999999998E-08, 3.1000000000000004E-13, 1.4226999999999999E-08
DataValue, 2.3000000000000003, 1, 1.4236799999999998E-08, -3.0900000000000004E-12, -1.4259399999999999E-08, 3.0900000000000004E-12, 1.4236799999999998E-08
DataValue, 2.4, 1, 1.4049599999999998E-08, 9.9E-13, -1.4036599999999998E-08, 9.9E-13, 1.4049599999999998E-08
DataValue, 2.5, 1, 1.4047399999999999E-08, -4.52E-12, -1.4072999999999998E-08, 4.52E-12, 1.4047399999999999E-08
DataValue, 2.6, 1, 1.3876199999999999E-08, 1.7E-13, -1.39232E-08, 1.7E-13, 1.3876199999999999E-08
DataValue, 2.7, 1, 1.3899799999999998E-08, -6.05E-12, -1.39016E-08, 6.05E-12, 1.3899799999999998E-08
DataValue, 2.8000000000000003, 1, 1.3787799999999998E-08, 6.2800000000000007E-12, -1.3779999999999998E-08, 6.2800000000000007E-12, 1.3787799999999998E-08
DataValue, 2.9, 1, 1.3813E-08, -2.3460000000000002E-11, -1.3827199999999998E-08, 2.3460000000000002E-11, 1.3813E-08
