
SetupTitle, TFT stab RollOut
PrimitiveTest, I/V Sweep
TestParameter, Context.MainFrame, B1500A
TestParameter, Channel.UnitType, SMU, SMU, SMU
TestParameter, Channel.Unit, SMU2:HR, SMU3:MP, SMU4:MP
TestParameter, Channel.IName, ID, IG, IS
TestParameter, Channel.VName, VD, VG, VS
TestParameter, Channel.Mode, V, V, COMMON
TestParameter, Channel.Func, CONST, VAR1, CONST
TestParameter, Channel.Index, 
TestParameter, Channel.Time, 
TestParameter, Measurement.Port.Unit, SMU2:HR, SMU3:MP, SMU4:MP
TestParameter, Measurement.Port.SeriesResistor, NONE, NONE, NONE
TestParameter, Measurement.Port.Filter, ON, ON, ON
TestParameter, Measurement.Port.OutputVoltageComparison, 0, 0, 0
TestParameter, Measurement.Primary.Locus, Single
TestParameter, Measurement.Primary.Scale, LINEAR
TestParameter, Measurement.Primary.Start, -2
TestParameter, Measurement.Primary.Stop, 3
TestParameter, Measurement.Primary.Step, 0.05
TestParameter, Measurement.Primary.Compliance, 0.001
TestParameter, Measurement.Primary.PowerCompliance, 0
TestParameter, Measurement.Aborting.Condition, CONTINUE AT ANY
TestParameter, Measurement.PostOutput.Value, START
TestParameter, Measurement.PostOutput.Retention, OFF
TestParameter, Measurement.Bias.Source, 3, -2, 0
TestParameter, Measurement.Bias.Compliance, 0.0001, 0.001, 0.1
TestParameter, Measurement.Monitor.Unit, SMU2:HR, SMU3:MP, SMU4:MP
TestParameter, Measurement.Monitor.Adc, HR ADC, HR ADC, HR ADC
TestParameter, Measurement.Monitor.Measurement, Compliance Side, Compliance Side, Compliance Side
TestParameter, Measurement.Monitor.RangingMode, LIMITED, LIMITED, LIMITED
TestParameter, Measurement.Monitor.RangeBoundary, 100pA, 1nA, 1nA
TestParameter, Measurement.Monitor.RangeRating, BY FULL RANGE, BY FULL RANGE, BY FULL RANGE
TestParameter, Measurement.Monitor.RangeRatingCoeff, 50, 50, 50
TestParameter, Measurement.Timing.Hold, 0.5
TestParameter, Measurement.Timing.Delay, 0.05
TestParameter, Measurement.Adc.HighSpeed.Mode, AUTO
TestParameter, Measurement.Adc.HighSpeed.Coeff, 1
TestParameter, Measurement.Adc.HighResolution.AutoZero, OFF
TestParameter, Measurement.Adc.HighResolution.Mode, AUTO
TestParameter, Measurement.Adc.HighResolution.Coeff, 6
TestParameter, Measurement.WaitTime.Source.Coeff, 1
TestParameter, Measurement.WaitTime.Source.Offset, 0
TestParameter, Measurement.WaitTime.Monitor.Coeff, 1
TestParameter, Measurement.WaitTime.Monitor.Offset, 0
TestParameter, Function.Analysis.Name, dIddVg, absIg, absId
TestParameter, Function.Analysis.Unit, S, A, A
TestParameter, Function.Analysis.Definition, (delta(sqrt(ID))/delta(VG))^2, abs(IG), abs(ID)
TestParameter, Output.Graph.Enabled, true
TestParameter, Output.Graph.AutoScaling, false
TestParameter, Output.Graph.XAxis.Data, VG
TestParameter, Output.Graph.XAxis.Scale, Linear
TestParameter, Output.Graph.XAxis.Left, -2
TestParameter, Output.Graph.XAxis.Right, 6
TestParameter, Output.Graph.XAxis.RunTimeAutoScale, true
TestParameter, Output.Graph.YAxis.Data, ID, absIg
TestParameter, Output.Graph.YAxis.Scale, Log, Log
TestParameter, Output.Graph.YAxis.Bottom, 0.001, 0
TestParameter, Output.Graph.YAxis.Top, 0.01, 1
TestParameter, Output.Graph.YAxis.Group, , 
TestParameter, Output.Graph.YAxis.RunTimeAutoScale, true, true
TestParameter, Output.List.Data, VG, IG, ID, IS, VD, dIddVg, absIg, absId
TestParameter, AutoAnalysis.Interpolation, false
TestParameter, AutoAnalysis.Line1.Enabled, false
TestParameter, AutoAnalysis.Line1.Type, 1
TestParameter, AutoAnalysis.Line1.Fix, True
TestParameter, AutoAnalysis.Line1.YAxis, 0
TestParameter, AutoAnalysis.Line1.Point1.Type, 0
TestParameter, AutoAnalysis.Line1.Point1.XY.X, 
TestParameter, AutoAnalysis.Line1.Point1.XY.Y, 
TestParameter, AutoAnalysis.Line1.Point1.Data.Var, 
TestParameter, AutoAnalysis.Line1.Point1.Data.Condition, 
TestParameter, AutoAnalysis.Line1.Point1.Data.Start, false
TestParameter, AutoAnalysis.Line1.Point1.Data.StartVar, 
TestParameter, AutoAnalysis.Line1.Point1.Data.StartCondition, 
TestParameter, AutoAnalysis.Line1.Point2.Type, 0
TestParameter, AutoAnalysis.Line1.Point2.XY.X, 
TestParameter, AutoAnalysis.Line1.Point2.XY.Y, 
TestParameter, AutoAnalysis.Line1.Point2.Data.Var, 
TestParameter, AutoAnalysis.Line1.Point2.Data.Condition, 
TestParameter, AutoAnalysis.Line1.Point2.Data.Start, false
TestParameter, AutoAnalysis.Line1.Point2.Data.StartVar, 
TestParameter, AutoAnalysis.Line1.Point2.Data.StartCondition, 
TestParameter, AutoAnalysis.Line1.GradientExpr, 0
TestParameter, AutoAnalysis.Line2.Enabled, false
TestParameter, AutoAnalysis.Line2.Type, 1
TestParameter, AutoAnalysis.Line2.Fix, True
TestParameter, AutoAnalysis.Line2.YAxis, 0
TestParameter, AutoAnalysis.Line2.Point1.Type, 0
TestParameter, AutoAnalysis.Line2.Point1.XY.X, 
TestParameter, AutoAnalysis.Line2.Point1.XY.Y, 
TestParameter, AutoAnalysis.Line2.Point1.Data.Var, 
TestParameter, AutoAnalysis.Line2.Point1.Data.Condition, 
TestParameter, AutoAnalysis.Line2.Point1.Data.Start, false
TestParameter, AutoAnalysis.Line2.Point1.Data.StartVar, 
TestParameter, AutoAnalysis.Line2.Point1.Data.StartCondition, 
TestParameter, AutoAnalysis.Line2.Point2.Type, 0
TestParameter, AutoAnalysis.Line2.Point2.XY.X, 
TestParameter, AutoAnalysis.Line2.Point2.XY.Y, 
TestParameter, AutoAnalysis.Line2.Point2.Data.Var, 
TestParameter, AutoAnalysis.Line2.Point2.Data.Condition, 
TestParameter, AutoAnalysis.Line2.Point2.Data.Start, false
TestParameter, AutoAnalysis.Line2.Point2.Data.StartVar, 
TestParameter, AutoAnalysis.Line2.Point2.Data.StartCondition, 
TestParameter, AutoAnalysis.Line2.GradientExpr, 0
TestParameter, AutoAnalysis.Marker.Enabled, false
TestParameter, AutoAnalysis.Marker.Data.Var, 
TestParameter, AutoAnalysis.Marker.Data.Condition, 
TestParameter, AutoAnalysis.Marker.Data.Start, false
TestParameter, AutoAnalysis.Marker.Data.StartVar, 
TestParameter, AutoAnalysis.Marker.Data.StartCondition, 
MetaData, TestRecord.EntryPoint, true
MetaData, TestRecord.RecordTime, 07/03/2019 11:31:55
MetaData, TestRecord.TestTarget, 6-44
MetaData, TestRecord.IterationIndex, 5
MetaData, TestRecord.Preservation, true
MetaData, TestRecord.Flag, 
MetaData, TestRecord.Remarks, good
MetaData, TestRecord.LinkKey, 0059a883-4ef7-483c-bed2-fd6868442980
Dimension1, 101, 101, 101, 101, 101, 101, 101, 101
Dimension2, 1, 1, 1, 1, 1, 1, 1, 1
DataName, VG, VD, ID, IG, IS, dIddVg, absIg, absId
DataValue, -2, 3, 2.0790000000000003E-10, -2.1027000000000001E-10, -9.94E-12, 7.9788742320528055E-11, 2.1027000000000001E-10, 2.0790000000000003E-10
DataValue, -1.95, 3, 1.9522000000000003E-10, -2.4537E-10, 4.77E-12, 5.8324090926849228E-11, 2.4537E-10, 1.9522000000000003E-10
DataValue, -1.9000000000000001, 3, 1.8646000000000002E-10, -1.8072000000000002E-10, 6.493E-11, 1.4883710251967603E-10, 1.8072000000000002E-10, 1.8646000000000002E-10
DataValue, -1.85, 3, 2.3080000000000002E-10, -1.8978000000000002E-10, -9.25E-12, 1.5927573134711586E-11, 1.8978000000000002E-10, 2.3080000000000002E-10
DataValue, -1.8, 3, 1.7572000000000002E-10, -2.2511E-10, 2.19E-12, 5.2111951884413513E-10, 2.2511E-10, 1.7572000000000002E-10
DataValue, -1.75, 3, 1.6665000000000001E-10, -1.6242000000000002E-10, 6.2270000000000008E-11, 1.3812692127690809E-10, 1.6242000000000002E-10, 1.6665000000000001E-10
DataValue, -1.7, 3, 2.0826E-10, -1.6947E-10, -1.544E-11, 5.3862971509095188E-11, 1.6947E-10, 2.0826E-10
DataValue, -1.6500000000000001, 3, 1.4824000000000002E-10, -1.9626E-10, 7.9000000000000007E-13, 5.6865073948032769E-10, 1.9626E-10, 1.4824000000000002E-10
DataValue, -1.6, 3, 1.4512E-10, -1.358E-10, 5.906E-11, 1.0937187666240478E-10, 1.358E-10, 1.4512E-10
DataValue, -1.55, 3, 1.748E-10, -1.3366E-10, -1.6200000000000003E-11, 2.9965479256363686E-10, 1.3366E-10, 1.748E-10
DataValue, -1.5, 3, 1.0641000000000001E-10, -1.5469E-10, 1.51E-12, 8.2638892414309532E-10, 1.5469E-10, 1.0641000000000001E-10
DataValue, -1.45, 3, 1.0705000000000001E-10, -5.626E-11, 8.13E-12, 7.8309072518734545E-11, 5.626E-11, 1.0705000000000001E-10
DataValue, -1.4000000000000001, 3, 1.2545000000000002E-10, -1.0566000000000001E-10, -7.3430000000000012E-11, 1.2680539254153465E-10, 1.0566000000000001E-10, 1.2545000000000002E-10
DataValue, -1.35, 3, 1.3162E-10, -9.2520000000000007E-11, -3.0900000000000004E-12, 1.5128755501875745E-10, 9.2520000000000007E-11, 1.3162E-10
DataValue, -1.3, 3, 9.9410000000000009E-11, -1.4890000000000002E-10, -1.3880000000000001E-11, 4.47235490038255E-13, 1.4890000000000002E-10, 9.9410000000000009E-11
DataValue, -1.25, 3, 1.3009000000000001E-10, -9.1030000000000008E-11, -3.15E-12, 2.0310719968957411E-10, 9.1030000000000008E-11, 1.3009000000000001E-10
DataValue, -1.2, 3, 1.2986E-10, -8.9560000000000012E-11, -1.55E-12, 3.4685752414893948E-13, 8.9560000000000012E-11, 1.2986E-10
DataValue, -1.1500000000000001, 3, 1.2875000000000002E-10, -8.6970000000000011E-11, -4.89E-12, 3.0037729212619639E-12, 8.6970000000000011E-11, 1.2875000000000002E-10
DataValue, -1.1, 3, 1.2594E-10, -8.536E-11, -7.39E-12, 8.31311958168378E-12, 8.536E-11, 1.2594E-10
DataValue, -1.05, 3, 1.2229E-10, -8.164E-11, -1.5580000000000003E-11, 1.4705699153471206E-11, 8.164E-11, 1.2229E-10
DataValue, -1, 3, 1.1748000000000002E-10, -7.7520000000000007E-11, -4.4900000000000005E-12, 4.3512339743573393E-12, 7.7520000000000007E-11, 1.1748000000000002E-10
DataValue, -0.95000000000000007, 3, 1.1772E-10, -7.565E-11, -4.67E-12, 4.3289443999044867E-10, 7.565E-11, 1.1772E-10
DataValue, -0.9, 3, 7.67062E-11, -7.77E-11, -6.717E-11, 6.9360848063980631E-10, 7.77E-11, 7.67062E-11
DataValue, -0.85, 3, 6.75066E-11, -6.631E-11, 3.23E-12, 1.858638098929656E-11, 6.631E-11, 6.75066E-11
DataValue, -0.8, 3, 6.93404E-11, -1.142E-10, 2.4500000000000003E-12, 5.80060895050156E-11, 1.142E-10, 6.93404E-11
DataValue, -0.75, 3, 5.5571399999999996E-11, -5.905E-11, 7.436E-11, 4.1370120220616637E-11, 5.905E-11, 5.5571399999999996E-11
DataValue, -0.70000000000000007, 3, 5.90422E-11, -5.816E-11, 4.6500000000000006E-12, 3.179756591285146E-12, 5.816E-11, 5.90422E-11
DataValue, -0.65, 3, 5.29446E-11, -1.872E-11, -3.51E-12, 4.2170938502252035E-11, 1.872E-11, 5.29446E-11
DataValue, -0.6, 3, 4.94842E-11, -2.4770000000000002E-11, 5.088E-11, 1.9431120913178737E-12, 2.4770000000000002E-11, 4.94842E-11
DataValue, -0.55, 3, 5.49926E-11, -5.3890000000000007E-11, -6.05E-12, 8.2699649450868752E-12, 5.3890000000000007E-11, 5.49926E-11
DataValue, -0.5, 3, 4.5521E-11, -6.7E-12, -2.24E-12, 9.0780878586223222E-11, 6.7E-12, 4.5521E-11
DataValue, -0.45, 3, 4.17692E-11, -2.263E-11, 5.4640000000000005E-11, 4.859448374026741E-12, 2.263E-11, 4.17692E-11
DataValue, -0.4, 3, 4.8544199999999996E-11, -4.825E-11, -4.5500000000000006E-12, 2.5691575672226813E-13, 4.825E-11, 4.8544199999999996E-11
DataValue, -0.35000000000000003, 3, 4.11166E-11, -7.3E-13, -3.2400000000000003E-12, 1.5130383039473196E-11, 7.3E-13, 4.11166E-11
DataValue, -0.3, 3, 4.32752E-11, -1.6540000000000002E-11, 4.6410000000000004E-11, 3.6755907994761492E-10, 1.6540000000000002E-11, 4.32752E-11
DataValue, -0.25, 3, 6.9379E-11, -4.184E-11, -3.561E-11, 4.2810427326589873E-09, 4.184E-11, 6.9379E-11
DataValue, -0.2, 3, 1.7217E-10, -3.973E-11, -1.0102E-10, 8.1505026345823832E-09, 3.973E-11, 1.7217E-10
DataValue, -0.15, 3, 3.0128E-10, -7.852E-11, -2.6757000000000004E-10, 1.5789932176269094E-08, 7.852E-11, 3.0128E-10
DataValue, -0.1, 3, 6.5983000000000009E-10, -1.7690000000000002E-11, -5.6742000000000009E-10, 2.2880867199702194E-08, 1.7690000000000002E-11, 6.5983000000000009E-10
DataValue, -0.05, 3, 1.0552E-09, -1.259E-11, -1.0352E-09, 1.9214250815937927E-08, 1.259E-11, 1.0552E-09
DataValue, 0, 3, 1.5641E-09, -2.916E-11, -1.4717E-09, 1.7841445843278593E-08, 2.916E-11, 1.5641E-09
DataValue, 0.05, 3, 2.1014E-09, -2.551E-11, -2.0105E-09, 1.1069663670479151E-08, 2.551E-11, 2.1014E-09
DataValue, 0.1, 3, 2.507E-09, -7.993E-11, -2.4479E-09, 7.4303806254079418E-09, 7.993E-11, 2.507E-09
DataValue, 0.15, 3, 2.966E-09, -2.389E-11, -2.8509E-09, 9.1902243053651764E-09, 2.389E-11, 2.966E-09
DataValue, 0.2, 3, 3.5589E-09, -2.684E-11, -3.4465E-09, 1.0139720009161171E-08, 2.684E-11, 3.5589E-09
DataValue, 0.25, 3, 4.1642E-09, -7.064E-11, -4.1029E-09, 1.0787579278365396E-08, 7.064E-11, 4.1642E-09
DataValue, 0.3, 3, 4.906E-09, -8.66E-12, -4.7819E-09, 1.4135497434943971E-08, 8.66E-12, 4.906E-09
DataValue, 0.35000000000000003, 3, 5.84E-09, -2.2480000000000003E-11, -5.7273E-09, 1.5694406509646931E-08, 2.2480000000000003E-11, 5.84E-09
DataValue, 0.4, 3, 6.8179E-09, -4.333E-11, -6.562E-09, 1.6925926961674253E-08, 4.333E-11, 6.8179E-09
DataValue, 0.45, 3, 7.9977E-09, -7.1950000000000007E-11, -7.6217E-09, 1.6020081775405958E-08, 7.1950000000000007E-11, 7.9977E-09
DataValue, 0.5, 3, 9.0683E-09, 3.023E-11, -8.7303E-09, 7.7144127480509066E-09, 3.023E-11, 9.0683E-09
DataValue, 0.55, 3, 9.6458E-09, -1.5960000000000002E-11, -9.3419E-09, 6.7742481344197071E-09, 1.5960000000000002E-11, 9.6458E-09
DataValue, 0.6, 3, 1.07036E-08, -1.508E-11, -1.0662799999999998E-08, 3.9872833325728914E-08, 1.508E-11, 1.07036E-08
DataValue, 0.65, 3, 1.39668E-08, -4.035E-11, -1.3798199999999998E-08, 7.8876411841415047E-08, 4.035E-11, 1.39668E-08
DataValue, 0.70000000000000007, 3, 1.73036E-08, -1.606E-11, -1.7141799999999998E-08, 7.1304352379157339E-08, 1.606E-11, 1.73036E-08
DataValue, 0.75, 3, 2.0991399999999998E-08, -9.0000000000000012E-12, -2.08546E-08, 7.9215779140362483E-08, 9.0000000000000012E-12, 2.0991399999999998E-08
DataValue, 0.8, 3, 2.55004E-08, -6.388E-11, -2.5223599999999996E-08, 9.3070574632727672E-08, 6.388E-11, 2.55004E-08
DataValue, 0.85, 3, 3.07622E-08, -6.76E-12, -3.05456E-08, 1.0573665005141416E-07, 6.76E-12, 3.07622E-08
DataValue, 0.9, 3, 3.6942999999999995E-08, -8.33E-12, -3.6559199999999994E-08, 1.2859018439799764E-07, 8.33E-12, 3.6942999999999995E-08
DataValue, 0.95000000000000007, 3, 4.4626999999999993E-08, -4.0410000000000006E-11, -4.42548E-08, 1.5382393863589691E-07, 4.0410000000000006E-11, 4.4626999999999993E-08
DataValue, 1, 3, 5.3557999999999996E-08, 3.393E-11, -5.3106999999999994E-08, 1.7988888353678408E-07, 3.393E-11, 5.3557999999999996E-08
DataValue, 1.05, 3, 6.4345599999999991E-08, -6.4200000000000005E-12, -6.3761E-08, 2.1373357520185583E-07, 6.4200000000000005E-12, 6.4345599999999991E-08
DataValue, 1.1, 3, 7.70936E-08, -8.1700000000000009E-12, -7.6515E-08, 2.3898876361877537E-07, 8.1700000000000009E-12, 7.70936E-08
DataValue, 1.1500000000000001, 3, 9.1537E-08, -9.3100000000000013E-12, -9.008599999999999E-08, 2.6797598063387332E-07, 9.3100000000000013E-12, 9.1537E-08
DataValue, 1.2, 3, 1.0852E-07, -7.4E-12, -1.052E-07, 3.2273444012844735E-07, 7.4E-12, 1.0852E-07
DataValue, 1.25, 3, 1.2914E-07, -5.7310000000000007E-11, -1.2848E-07, 4.1151755173074287E-07, 5.7310000000000007E-11, 1.2914E-07
DataValue, 1.3, 3, 1.549E-07, -2.1500000000000003E-12, -1.5468E-07, 4.88851570706758E-07, 2.1500000000000003E-12, 1.549E-07
DataValue, 1.35, 3, 1.8428E-07, 2.236E-11, -1.8316E-07, 5.5164422047709453E-07, 2.236E-11, 1.8428E-07
DataValue, 1.4000000000000001, 3, 2.1887999999999999E-07, 8.8900000000000011E-12, -2.1756E-07, 6.389862874286719E-07, 8.8900000000000011E-12, 2.1887999999999999E-07
DataValue, 1.45, 3, 2.593E-07, -4.3400000000000005E-12, -2.5828E-07, 7.12400396333914E-07, 4.3400000000000005E-12, 2.593E-07
DataValue, 1.5, 3, 3.0497999999999997E-07, -4.8780000000000005E-11, -3.0396E-07, 7.843607106612342E-07, 4.8780000000000005E-11, 3.0497999999999997E-07
DataValue, 1.55, 3, 3.5734E-07, -1.8000000000000002E-13, -3.5675999999999997E-07, 9.0026302583512346E-07, 1.8000000000000002E-13, 3.5734E-07
DataValue, 1.6, 3, 4.1878E-07, 4.1710000000000004E-11, -4.172E-07, 1.0262883948502721E-06, 4.1710000000000004E-11, 4.1878E-07
DataValue, 1.6500000000000001, 3, 4.8872E-07, 2.5000000000000003E-12, -4.8636E-07, 1.1181445989455731E-06, 2.5000000000000003E-12, 4.8872E-07
DataValue, 1.7, 3, 5.6681999999999994E-07, -2.2200000000000002E-12, -5.6485999999999994E-07, 1.2582819060526114E-06, 2.2200000000000002E-12, 5.6681999999999994E-07
DataValue, 1.75, 3, 6.5813999999999994E-07, -4.137E-11, -6.5666E-07, 1.4086681110608837E-06, 4.137E-11, 6.5813999999999994E-07
DataValue, 1.8, 3, 7.5962E-07, 1.55E-12, -7.5734E-07, 1.5595697023673557E-06, 1.55E-12, 7.5962E-07
DataValue, 1.85, 3, 8.7635999999999994E-07, 5.3540000000000003E-11, -8.7411999999999994E-07, 1.5751223497418567E-06, 5.3540000000000003E-11, 8.7635999999999994E-07
DataValue, 1.9000000000000001, 3, 9.9414E-07, 1.27E-12, -9.8454E-07, 1.5965849805011926E-06, 1.27E-12, 9.9414E-07
DataValue, 1.95, 3, 1.1289000000000001E-06, 1.98E-12, -1.1102000000000002E-06, 1.9622365565129133E-06, 1.98E-12, 1.1289000000000001E-06
DataValue, 2, 3, 1.2931000000000002E-06, -2.39E-12, -1.292E-06, 2.4871763430387619E-06, 2.39E-12, 1.2931000000000002E-06
DataValue, 2.05, 3, 1.4889E-06, -1.271E-11, -1.4875000000000002E-06, 2.7992087178112394E-06, 1.271E-11, 1.4889E-06
DataValue, 2.1, 3, 1.7016000000000002E-06, 6.8300000000000006E-12, -1.7007E-06, 2.9777688442997024E-06, 6.8300000000000006E-12, 1.7016000000000002E-06
DataValue, 2.15, 3, 1.9398E-06, 1.106E-11, -1.9388000000000004E-06, 3.2996132420489256E-06, 1.106E-11, 1.9398E-06
DataValue, 2.2, 3, 2.2085E-06, -7.6E-12, -2.2030000000000003E-06, 3.5913968258095512E-06, 7.6E-12, 2.2085E-06
DataValue, 2.25, 3, 2.5036E-06, -4.9500000000000005E-12, -2.5014000000000003E-06, 3.9286277759962857E-06, 4.9500000000000005E-12, 2.5036E-06
DataValue, 2.3000000000000003, 3, 2.8369000000000003E-06, 1.3500000000000002E-11, -2.8316E-06, 4.339291261208446E-06, 1.3500000000000002E-11, 2.8369000000000003E-06
DataValue, 2.35, 3, 3.2062000000000003E-06, 6.97E-12, -3.2022000000000004E-06, 4.7950787848351391E-06, 6.97E-12, 3.2062000000000003E-06
DataValue, 2.4, 3, 3.6225000000000005E-06, -1.3770000000000001E-11, -3.6170000000000003E-06, 5.3336782329783672E-06, 1.3770000000000001E-11, 3.6225000000000005E-06
DataValue, 2.45, 3, 4.0866000000000008E-06, -6.6E-13, -4.079E-06, 5.8490163619130945E-06, 6.6E-13, 4.0866000000000008E-06
DataValue, 2.5, 3, 4.6016E-06, 2.4960000000000004E-11, -4.5959E-06, 6.3941693948104727E-06, 2.4960000000000004E-11, 4.6016E-06
DataValue, 2.5500000000000003, 3, 5.1729000000000009E-06, 3.5400000000000003E-12, -5.1648000000000009E-06, 6.8318443345996744E-06, 3.5400000000000003E-12, 5.1729000000000009E-06
DataValue, 2.6, 3, 5.7913000000000008E-06, -2.7890000000000003E-11, -5.7812000000000007E-06, 7.2966170942348121E-06, 2.7890000000000003E-11, 5.7913000000000008E-06
DataValue, 2.65, 3, 6.4746000000000007E-06, 3.8800000000000004E-12, -6.4669000000000007E-06, 7.955580914957501E-06, 3.8800000000000004E-12, 6.4746000000000007E-06
DataValue, 2.7, 3, 7.228400000000001E-06, 4.006E-11, -7.2142E-06, 8.4815109180333215E-06, 4.006E-11, 7.228400000000001E-06
DataValue, 2.75, 3, 8.0415000000000009E-06, 2.3200000000000002E-12, -8.025E-06, 8.91044904407374E-06, 2.3200000000000002E-12, 8.0415000000000009E-06
DataValue, 2.8000000000000003, 3, 8.9226000000000016E-06, -3.912E-11, -8.9074E-06, 9.3585615675353618E-06, 3.912E-11, 8.9226000000000016E-06
DataValue, 2.85, 3, 9.8701E-06, 4.4000000000000006E-12, -9.8464000000000011E-06, 9.7166559797798422E-06, 4.4000000000000006E-12, 9.8701E-06
DataValue, 2.9, 3, 1.0882E-05, 3.689E-11, -1.0859400000000001E-05, 1.0377508053603766E-05, 3.689E-11, 1.0882E-05
DataValue, 2.95, 3, 1.1998000000000001E-05, 4.4400000000000005E-12, -1.189E-05, 1.0119848802324711E-05, 4.4400000000000005E-12, 1.1998000000000001E-05
DataValue, 3, 3, 1.3082000000000001E-05, -4.84E-12, -1.3056E-05, 9.3748428867201156E-06, 4.84E-12, 1.3082000000000001E-05
SetupTitle, TFT stab RollOut
PrimitiveTest, I/V Sweep
TestParameter, Context.MainFrame, B1500A
TestParameter, Channel.UnitType, SMU, SMU, SMU
TestParameter, Channel.Unit, SMU2:HR, SMU3:MP, SMU4:MP
TestParameter, Channel.IName, ID, IG, IS
TestParameter, Channel.VName, VD, VG, VS
TestParameter, Channel.Mode, V, V, COMMON
TestParameter, Channel.Func, CONST, VAR1, CONST
TestParameter, Channel.Index, 
TestParameter, Channel.Time, 
TestParameter, Measurement.Port.Unit, SMU2:HR, SMU3:MP, SMU4:MP
