
SetupTitle, TFT lin RollOut
PrimitiveTest, I/V Sweep
TestParameter, Context.MainFrame, B1500A
TestParameter, Channel.UnitType, SMU, SMU, SMU
TestParameter, Channel.Unit, SMU2:HR, SMU3:MP, SMU4:MP
TestParameter, Channel.IName, ID, IG, IS
TestParameter, Channel.VName, VD, VG, VS
TestParameter, Channel.Mode, V, V, COMMON
TestParameter, Channel.Func, CONST, VAR1, CONST
TestParameter, Channel.Index, 
TestParameter, Channel.Time, 
TestParameter, Measurement.Port.Unit, SMU2:HR, SMU3:MP, SMU4:MP
TestParameter, Measurement.Port.SeriesResistor, NONE, NONE, NONE
TestParameter, Measurement.Port.Filter, ON, ON, ON
TestParameter, Measurement.Port.OutputVoltageComparison, 0, 0, 0
TestParameter, Measurement.Primary.Locus, Double
TestParameter, Measurement.Primary.Scale, LINEAR
TestParameter, Measurement.Primary.Start, -2
TestParameter, Measurement.Primary.Stop, 5
TestParameter, Measurement.Primary.Step, 0.07
TestParameter, Measurement.Primary.Compliance, 0.001
TestParameter, Measurement.Primary.PowerCompliance, 0
TestParameter, Measurement.Aborting.Condition, CONTINUE AT ANY
TestParameter, Measurement.PostOutput.Value, START
TestParameter, Measurement.PostOutput.Retention, OFF
TestParameter, Measurement.Bias.Source, 0.1, -2, 0
TestParameter, Measurement.Bias.Compliance, 0.0001, 0.001, 0.1
TestParameter, Measurement.Monitor.Unit, SMU2:HR, SMU3:MP, SMU4:MP
TestParameter, Measurement.Monitor.Adc, HR ADC, HR ADC, HR ADC
TestParameter, Measurement.Monitor.Measurement, Compliance Side, Compliance Side, Compliance Side
TestParameter, Measurement.Monitor.RangingMode, LIMITED, LIMITED, LIMITED
TestParameter, Measurement.Monitor.RangeBoundary, 100pA, 1nA, 1nA
TestParameter, Measurement.Monitor.RangeRating, BY FULL RANGE, BY FULL RANGE, BY FULL RANGE
TestParameter, Measurement.Monitor.RangeRatingCoeff, 50, 50, 50
TestParameter, Measurement.Timing.Hold, 0.5
TestParameter, Measurement.Timing.Delay, 0.05
TestParameter, Measurement.Adc.HighSpeed.Mode, AUTO
TestParameter, Measurement.Adc.HighSpeed.Coeff, 1
TestParameter, Measurement.Adc.HighResolution.AutoZero, OFF
TestParameter, Measurement.Adc.HighResolution.Mode, AUTO
TestParameter, Measurement.Adc.HighResolution.Coeff, 6
TestParameter, Measurement.WaitTime.Source.Coeff, 1
TestParameter, Measurement.WaitTime.Source.Offset, 0
TestParameter, Measurement.WaitTime.Monitor.Coeff, 1
TestParameter, Measurement.WaitTime.Monitor.Offset, 0
TestParameter, Function.Analysis.Name, dIddVg, absIg, absId
TestParameter, Function.Analysis.Unit, S, A, A
TestParameter, Function.Analysis.Definition, delta(ID)/delta(VG), abs(IG), abs(ID)
TestParameter, Output.Graph.Enabled, true
TestParameter, Output.Graph.AutoScaling, false
TestParameter, Output.Graph.XAxis.Data, VG
TestParameter, Output.Graph.XAxis.Scale, Linear
TestParameter, Output.Graph.XAxis.Left, -2
TestParameter, Output.Graph.XAxis.Right, 6
TestParameter, Output.Graph.XAxis.RunTimeAutoScale, true
TestParameter, Output.Graph.YAxis.Data, absId, absIg, dIddVg, IS
TestParameter, Output.Graph.YAxis.Scale, Log, Log, Linear, Linear
TestParameter, Output.Graph.YAxis.Bottom, 0, 0, 0, -0.1
TestParameter, Output.Graph.YAxis.Top, 1, 1, 1, 0.1
TestParameter, Output.Graph.YAxis.Group, , , , 
TestParameter, Output.Graph.YAxis.RunTimeAutoScale, true, true, true, false
TestParameter, Output.List.Data, VG, IG, ID, IS, VD, dIddVg, absIg, absId
TestParameter, AutoAnalysis.Interpolation, false
TestParameter, AutoAnalysis.Line1.Enabled, false
TestParameter, AutoAnalysis.Line1.Type, 1
TestParameter, AutoAnalysis.Line1.Fix, True
TestParameter, AutoAnalysis.Line1.YAxis, 0
TestParameter, AutoAnalysis.Line1.Point1.Type, 0
TestParameter, AutoAnalysis.Line1.Point1.XY.X, 
TestParameter, AutoAnalysis.Line1.Point1.XY.Y, 
TestParameter, AutoAnalysis.Line1.Point1.Data.Var, 
TestParameter, AutoAnalysis.Line1.Point1.Data.Condition, 
TestParameter, AutoAnalysis.Line1.Point1.Data.Start, false
TestParameter, AutoAnalysis.Line1.Point1.Data.StartVar, 
TestParameter, AutoAnalysis.Line1.Point1.Data.StartCondition, 
TestParameter, AutoAnalysis.Line1.Point2.Type, 0
TestParameter, AutoAnalysis.Line1.Point2.XY.X, 
TestParameter, AutoAnalysis.Line1.Point2.XY.Y, 
TestParameter, AutoAnalysis.Line1.Point2.Data.Var, 
TestParameter, AutoAnalysis.Line1.Point2.Data.Condition, 
TestParameter, AutoAnalysis.Line1.Point2.Data.Start, false
TestParameter, AutoAnalysis.Line1.Point2.Data.StartVar, 
TestParameter, AutoAnalysis.Line1.Point2.Data.StartCondition, 
TestParameter, AutoAnalysis.Line1.GradientExpr, 0
TestParameter, AutoAnalysis.Line2.Enabled, false
TestParameter, AutoAnalysis.Line2.Type, 1
TestParameter, AutoAnalysis.Line2.Fix, True
TestParameter, AutoAnalysis.Line2.YAxis, 0
TestParameter, AutoAnalysis.Line2.Point1.Type, 0
TestParameter, AutoAnalysis.Line2.Point1.XY.X, 
TestParameter, AutoAnalysis.Line2.Point1.XY.Y, 
TestParameter, AutoAnalysis.Line2.Point1.Data.Var, 
TestParameter, AutoAnalysis.Line2.Point1.Data.Condition, 
TestParameter, AutoAnalysis.Line2.Point1.Data.Start, false
TestParameter, AutoAnalysis.Line2.Point1.Data.StartVar, 
TestParameter, AutoAnalysis.Line2.Point1.Data.StartCondition, 
TestParameter, AutoAnalysis.Line2.Point2.Type, 0
TestParameter, AutoAnalysis.Line2.Point2.XY.X, 
TestParameter, AutoAnalysis.Line2.Point2.XY.Y, 
TestParameter, AutoAnalysis.Line2.Point2.Data.Var, 
TestParameter, AutoAnalysis.Line2.Point2.Data.Condition, 
TestParameter, AutoAnalysis.Line2.Point2.Data.Start, false
TestParameter, AutoAnalysis.Line2.Point2.Data.StartVar, 
TestParameter, AutoAnalysis.Line2.Point2.Data.StartCondition, 
TestParameter, AutoAnalysis.Line2.GradientExpr, 0
TestParameter, AutoAnalysis.Marker.Enabled, false
TestParameter, AutoAnalysis.Marker.Data.Var, 
TestParameter, AutoAnalysis.Marker.Data.Condition, 
TestParameter, AutoAnalysis.Marker.Data.Start, false
TestParameter, AutoAnalysis.Marker.Data.StartVar, 
TestParameter, AutoAnalysis.Marker.Data.StartCondition, 
MetaData, TestRecord.EntryPoint, true
MetaData, TestRecord.RecordTime, 07/03/2019 12:18:03
MetaData, TestRecord.TestTarget, 6-46
MetaData, TestRecord.IterationIndex, 1
MetaData, TestRecord.Preservation, true
MetaData, TestRecord.Flag, 
MetaData, TestRecord.Remarks, good
MetaData, TestRecord.LinkKey, 931ccb22-e5a8-4225-8ea5-4ccba4ddfc6b
Dimension1, 202, 202, 202, 202, 202, 202, 202, 202
Dimension2, 1, 1, 1, 1, 1, 1, 1, 1
DataName, VG, VD, ID, IG, IS, dIddVg, absIg, absId
DataValue, -2, 0.1, 8.8885999999999991E-12, -5.79E-12, 4.986E-11, -5.4314285714285483E-12, 5.79E-12, 8.8885999999999991E-12
DataValue, -1.93, 0.1, 8.5084E-12, -2.453E-11, 8E-13, -6.1244285714285747E-11, 2.453E-11, 8.5084E-12
DataValue, -1.86, 0.1, 3.144E-13, 4.7500000000000004E-11, 1.5800000000000001E-12, 1.4771428571428579E-11, 4.7500000000000004E-11, 3.144E-13
DataValue, -1.79, 0.1, 1.05764E-11, -6.7900000000000008E-12, -6.736E-11, 2.0255714285714268E-11, 6.7900000000000008E-12, 1.05764E-11
DataValue, -1.72, 0.1, 3.1502E-12, -4.5000000000000005E-13, -2.31E-12, -1.5605714285714303E-11, 4.5000000000000005E-13, 3.1502E-12
DataValue, -1.6500000000000001, 0.1, 8.3915999999999991E-12, -5.394E-11, -6.1E-13, 4.176714285714289E-11, 5.394E-11, 8.3915999999999991E-12
DataValue, -1.58, 0.1, 8.9976E-12, -1.0440000000000002E-11, -6.8390000000000009E-11, -4.2155714285714239E-11, 1.0440000000000002E-11, 8.9976E-12
DataValue, -1.51, 0.1, 2.4897999999999998E-12, -3.0600000000000003E-12, 3.8E-12, -8.1547142857142784E-11, 3.0600000000000003E-12, 2.4897999999999998E-12
DataValue, -1.44, 0.1, -2.419E-12, 3.936E-11, -1.3900000000000001E-12, -5.024142857142861E-11, 3.936E-11, 2.419E-12
DataValue, -1.37, 0.1, -4.544E-12, 1.8180000000000002E-11, 5.7910000000000003E-11, 3.65914285714286E-11, 1.8180000000000002E-11, 4.544E-12
DataValue, -1.3, 0.1, 2.7038E-12, -2.6100000000000004E-12, -2.77E-12, 5.289999999999997E-12, 2.6100000000000004E-12, 2.7038E-12
DataValue, -1.23, 0.1, -3.8034E-12, 4.6880000000000004E-11, 0, -5.86428571428571E-11, 4.6880000000000004E-11, 3.8034E-12
DataValue, -1.16, 0.1, -5.5062E-12, 9.4200000000000015E-12, 6.813E-11, 3.2937142857142874E-11, 9.4200000000000015E-12, 5.5062E-12
DataValue, -1.09, 0.1, 8.078E-13, -1.5200000000000002E-12, -4.6100000000000008E-12, 4.7800000000000067E-12, 1.5200000000000002E-12, 8.078E-13
DataValue, -1.02, 0.1, -4.837E-12, 5.16E-11, 2.3000000000000003E-13, 3.5745714285714284E-11, 5.16E-11, 4.837E-12
DataValue, -0.95000000000000007, 0.1, 5.8122E-12, -1.09E-12, -7.193E-11, 3.0769999999999994E-11, 1.09E-12, 5.8122E-12
DataValue, -0.88, 0.1, -5.292E-13, 7.2000000000000006E-13, -1.2900000000000002E-12, -1.2719999999999998E-11, 7.2000000000000006E-13, 5.292E-13
DataValue, -0.81, 0.1, 4.0314E-12, -4.3400000000000007E-11, 1.5000000000000002E-13, 4.3571428571428563E-11, 4.3400000000000007E-11, 4.0314E-12
DataValue, -0.74, 0.1, 5.5708E-12, -2.034E-11, -5.8460000000000011E-11, -4.4457142857142851E-11, 2.034E-11, 5.5708E-12
DataValue, -0.67, 0.1, -2.1925999999999998E-12, 1.9700000000000003E-12, 2.9600000000000003E-12, -1.0437142857142852E-11, 1.9700000000000003E-12, 2.1925999999999998E-12
DataValue, -0.6, 0.1, 4.1096E-12, -4.7970000000000003E-11, 1.3800000000000002E-12, 5.4884285714285704E-11, 4.7970000000000003E-11, 4.1096E-12
DataValue, -0.53, 0.1, 5.4912E-12, -1.1010000000000001E-11, -6.428000000000001E-11, -3.686428571428573E-11, 1.1010000000000001E-11, 5.4912E-12
DataValue, -0.46, 0.1, -1.0514E-12, 1.9700000000000003E-12, 3.5000000000000004E-12, -7.3154285714285709E-11, 1.9700000000000003E-12, 1.0514E-12
DataValue, -0.39, 0.1, -4.7504E-12, 4.009E-11, -1.8000000000000002E-12, -3.9531428571428563E-11, 4.009E-11, 4.7504E-12
DataValue, -0.32, 0.1, -6.5858E-12, 2.553E-11, 5.397E-11, 4.3448571428571424E-11, 2.553E-11, 6.5858E-12
DataValue, -0.25, 0.1, 1.3324E-12, -9.1000000000000016E-13, -3.71E-12, 1.0128571428571427E-11, 9.1000000000000016E-13, 1.3324E-12
DataValue, -0.18, 0.1, -5.1678E-12, 4.7990000000000007E-11, 5E-14, -5.1684285714285711E-11, 4.7990000000000007E-11, 5.1678E-12
DataValue, -0.11, 0.1, -5.9034E-12, 1.218E-11, 6.4750000000000009E-11, 7.8718571428571435E-11, 1.218E-11, 5.9034E-12
DataValue, -0.04, 0.1, 5.8528E-12, -3.1000000000000004E-13, -1.016E-11, 2.4571857142857141E-10, 3.1000000000000004E-13, 5.8528E-12
DataValue, 0.03, 0.1, 2.84972E-11, 5.0460000000000006E-11, -3.547E-11, 9.3390857142857129E-10, 5.0460000000000006E-11, 2.84972E-11
DataValue, 0.1, 0.1, 1.366E-10, 2.24E-12, -8.263E-11, 4.0093771428571432E-09, 2.24E-12, 1.366E-10
DataValue, 0.17, 0.1, 5.8981000000000005E-10, 1.9400000000000002E-12, -5.4882000000000008E-10, 7.3164285714285729E-09, 1.9400000000000002E-12, 5.8981000000000005E-10
DataValue, 0.24, 0.1, 1.1609E-09, 4.268E-11, -1.129E-09, 9.6056428571428564E-09, 4.268E-11, 1.1609E-09
DataValue, 0.31, 0.1, 1.9346E-09, 4.2000000000000007E-12, -1.8569E-09, 1.1477857142857142E-08, 4.2000000000000007E-12, 1.9346E-09
DataValue, 0.38, 0.1, 2.7678E-09, 1.07E-12, -2.6882E-09, 1.1492142857142856E-08, 1.07E-12, 2.7678E-09
DataValue, 0.45, 0.1, 3.5435E-09, -5.051E-11, -3.4822E-09, 1.2344285714285715E-08, 5.051E-11, 3.5435E-09
DataValue, 0.52, 0.1, 4.496E-09, 6.09E-12, -4.3759E-09, 1.5825E-08, 6.09E-12, 4.496E-09
DataValue, 0.59, 0.1, 5.759E-09, 5E-13, -5.6698E-09, 1.9494285714285713E-08, 5E-13, 5.759E-09
DataValue, 0.66, 0.1, 7.2252E-09, -3.6940000000000004E-11, -6.8744E-09, 2.0135714285714292E-08, 3.6940000000000004E-11, 7.2252E-09
DataValue, 0.73, 0.1, 8.578E-09, -1.5000000000000002E-13, -8.2858E-09, 2.605714285714284E-08, 1.5000000000000002E-13, 8.578E-09
DataValue, 0.8, 0.1, 1.0873199999999998E-08, -5.94E-12, -1.0613999999999998E-08, 3.9691428571428549E-08, 5.94E-12, 1.0873199999999998E-08
DataValue, 0.87, 0.1, 1.4134799999999998E-08, -1.834E-11, -1.3988599999999999E-08, 5.2484285714285709E-08, 1.834E-11, 1.4134799999999998E-08
DataValue, 0.94000000000000006, 0.1, 1.8220999999999998E-08, 5.0390000000000006E-11, -1.80172E-08, 6.6268571428571409E-08, 5.0390000000000006E-11, 1.8220999999999998E-08
DataValue, 1.01, 0.1, 2.3412399999999997E-08, 3.5900000000000003E-12, -2.3124E-08, 8.4414285714285685E-08, 3.5900000000000003E-12, 2.3412399999999997E-08
DataValue, 1.08, 0.1, 3.0038999999999995E-08, 7.3E-13, -2.9736999999999997E-08, 1.0757142857142849E-07, 7.3E-13, 3.0038999999999995E-08
DataValue, 1.1500000000000001, 0.1, 3.84724E-08, 5.248E-11, -3.8130799999999995E-08, 1.3662714285714296E-07, 5.248E-11, 3.84724E-08
DataValue, 1.22, 0.1, 4.9166799999999995E-08, -2.283E-11, -4.8706999999999994E-08, 1.7400285714285723E-07, 2.283E-11, 4.9166799999999995E-08
DataValue, 1.29, 0.1, 6.2832799999999993E-08, 1.4E-12, -6.21752E-08, 2.1704714285714264E-07, 1.4E-12, 6.2832799999999993E-08
DataValue, 1.36, 0.1, 7.9553399999999993E-08, 5.0500000000000005E-12, -7.8884199999999991E-08, 2.714800000000002E-07, 5.0500000000000005E-12, 7.9553399999999993E-08
DataValue, 1.43, 0.1, 1.0084E-07, 1.9400000000000002E-12, -1.0046E-07, 3.387614285714288E-07, 1.9400000000000002E-12, 1.0084E-07
DataValue, 1.5, 0.1, 1.2698E-07, -5.062E-11, -1.2662E-07, 4.0842857142857116E-07, 5.062E-11, 1.2698E-07
DataValue, 1.57, 0.1, 1.5802E-07, 3.48E-12, -1.576E-07, 4.9057142857142814E-07, 3.48E-12, 1.5802E-07
DataValue, 1.6400000000000001, 0.1, 1.9566E-07, 1.586E-11, -1.907E-07, 5.60571428571429E-07, 1.586E-11, 1.9566E-07
DataValue, 1.71, 0.1, 2.365E-07, 1.3800000000000002E-12, -2.3588E-07, 6.57428571428572E-07, 1.3800000000000002E-12, 2.365E-07
DataValue, 1.78, 0.1, 2.877E-07, -4.8300000000000004E-11, -2.8684E-07, 7.8414285714285641E-07, 4.8300000000000004E-11, 2.877E-07
DataValue, 1.85, 0.1, 3.4628E-07, 3.87E-12, -3.4536E-07, 8.7500000000000052E-07, 3.87E-12, 3.4628E-07
DataValue, 1.92, 0.1, 4.102E-07, 4.654E-11, -4.0954E-07, 9.6485714285714359E-07, 4.654E-11, 4.102E-07
DataValue, 1.99, 0.1, 4.8136E-07, 7.1500000000000008E-12, -4.8084E-07, 1.0669999999999989E-06, 7.1500000000000008E-12, 4.8136E-07
DataValue, 2.06, 0.1, 5.5958E-07, 1.6700000000000002E-12, -5.5882E-07, 1.1542857142857148E-06, 1.6700000000000002E-12, 5.5958E-07
DataValue, 2.13, 0.1, 6.4296E-07, -3.9890000000000004E-11, -6.4235999999999994E-07, 1.2364285714285702E-06, 3.9890000000000004E-11, 6.4296E-07
DataValue, 2.2, 0.1, 7.3268E-07, 3.9900000000000006E-12, -7.3202E-07, 1.32642857142857E-06, 3.9900000000000006E-12, 7.3268E-07
DataValue, 2.27, 0.1, 8.2866E-07, 5.7020000000000007E-11, -8.2779999999999993E-07, 1.4017142857142886E-06, 5.7020000000000007E-11, 8.2866E-07
DataValue, 2.34, 0.1, 9.2891999999999993E-07, 2.59E-12, -9.2848E-07, 1.4668571428571411E-06, 2.59E-12, 9.2891999999999993E-07
DataValue, 2.41, 0.1, 1.0340199999999999E-06, -6.7800000000000006E-12, -1.03386E-06, 1.5269999999999997E-06, 6.7800000000000006E-12, 1.0340199999999999E-06
DataValue, 2.48, 0.1, 1.1427E-06, 2.6000000000000002E-12, -1.1416000000000002E-06, 1.591285714285715E-06, 2.6000000000000002E-12, 1.1427E-06
DataValue, 2.5500000000000003, 0.1, 1.2568000000000002E-06, 2.4800000000000003E-12, -1.2565000000000002E-06, 1.6635714285714281E-06, 2.4800000000000003E-12, 1.2568000000000002E-06
DataValue, 2.62, 0.1, 1.3756000000000002E-06, -4.9790000000000003E-11, -1.376E-06, 1.720000000000003E-06, 4.9790000000000003E-11, 1.3756000000000002E-06
DataValue, 2.69, 0.1, 1.4976E-06, 5.7700000000000007E-12, -1.4978E-06, 1.7621428571428548E-06, 5.7700000000000007E-12, 1.4976E-06
DataValue, 2.7600000000000002, 0.1, 1.6223000000000001E-06, 5.8660000000000007E-11, -1.6225000000000001E-06, 1.7999999999999991E-06, 5.8660000000000007E-11, 1.6223000000000001E-06
DataValue, 2.83, 0.1, 1.7496000000000002E-06, 2.6100000000000004E-12, -1.7496000000000002E-06, 1.8364285714285759E-06, 2.6100000000000004E-12, 1.7496000000000002E-06
DataValue, 2.9, 0.1, 1.8794000000000002E-06, -5.0100000000000007E-11, -1.8798000000000002E-06, 1.8642857142857135E-06, 5.0100000000000007E-11, 1.8794000000000002E-06
DataValue, 2.97, 0.1, 2.0106000000000003E-06, 5.8600000000000005E-12, -2.0106000000000003E-06, 1.8885714285714266E-06, 5.8600000000000005E-12, 2.0106000000000003E-06
DataValue, 3.04, 0.1, 2.1438E-06, 5.895E-11, -2.1439000000000003E-06, 1.9071428571428625E-06, 5.895E-11, 2.1438E-06
DataValue, 3.11, 0.1, 2.2776000000000004E-06, 4.03E-12, -2.2779000000000002E-06, 1.914285714285714E-06, 4.03E-12, 2.2776000000000004E-06
DataValue, 3.18, 0.1, 2.4118000000000004E-06, -4.73E-11, -2.4123E-06, 1.9257142857142835E-06, 4.73E-11, 2.4118000000000004E-06
DataValue, 3.25, 0.1, 2.5472000000000004E-06, 6.7900000000000008E-12, -2.5473E-06, 1.9364285714285684E-06, 6.7900000000000008E-12, 2.5472000000000004E-06
DataValue, 3.3200000000000003, 0.1, 2.6829E-06, 5.7490000000000006E-11, -2.6832000000000004E-06, 1.9399999999999988E-06, 5.7490000000000006E-11, 2.6829E-06
DataValue, 3.39, 0.1, 2.8188000000000004E-06, 3.38E-12, -2.8192000000000005E-06, 1.942857142857148E-06, 3.38E-12, 2.8188000000000004E-06
DataValue, 3.46, 0.1, 2.9549000000000003E-06, -4.5290000000000006E-11, -2.9553000000000003E-06, 1.9399999999999988E-06, 4.5290000000000006E-11, 2.9549000000000003E-06
DataValue, 3.5300000000000002, 0.1, 3.0904000000000005E-06, 6.21E-12, -3.0907000000000003E-06, 1.9371428571428559E-06, 6.21E-12, 3.0904000000000005E-06
DataValue, 3.6, 0.1, 3.2261000000000003E-06, 5.7260000000000004E-11, -3.2266E-06, 1.9428571428571451E-06, 5.7260000000000004E-11, 3.2261000000000003E-06
DataValue, 3.67, 0.1, 3.3624E-06, 3.38E-12, -3.3627000000000004E-06, 1.9435714285714262E-06, 3.38E-12, 3.3624E-06
DataValue, 3.74, 0.1, 3.4982000000000002E-06, -4.312E-11, -3.4984000000000003E-06, 1.9385714285714271E-06, 4.312E-11, 3.4982000000000002E-06
DataValue, 3.81, 0.1, 3.6338000000000003E-06, 5.894E-11, -3.6338000000000003E-06, 1.9328571428571473E-06, 5.894E-11, 3.6338000000000003E-06
DataValue, 3.88, 0.1, 3.7688000000000002E-06, 3.95E-12, -3.7691000000000005E-06, 1.929999999999998E-06, 3.95E-12, 3.7688000000000002E-06
DataValue, 3.95, 0.1, 3.904E-06, -4.6890000000000006E-11, -3.9044E-06, 1.9321428571428509E-06, 4.6890000000000006E-11, 3.904E-06
DataValue, 4.0200000000000005, 0.1, 4.0393000000000004E-06, 7.32E-12, -4.0396E-06, 1.9250000000000083E-06, 7.32E-12, 4.0393000000000004E-06
DataValue, 4.09, 0.1, 4.1735000000000008E-06, 5.832E-11, -4.1737E-06, 1.9221428571428594E-06, 5.832E-11, 4.1735000000000008E-06
DataValue, 4.16, 0.1, 4.3084E-06, 4.48E-12, -4.3079000000000007E-06, 1.9178571428571356E-06, 4.48E-12, 4.3084E-06
DataValue, 4.23, 0.1, 4.4420000000000008E-06, -4.606E-11, -4.4419000000000006E-06, 1.9064285714285752E-06, 4.606E-11, 4.4420000000000008E-06
DataValue, 4.3, 0.1, 4.5753E-06, 7.6800000000000012E-12, -4.5751000000000005E-06, 1.9014285714285704E-06, 7.6800000000000012E-12, 4.5753E-06
DataValue, 4.37, 0.1, 4.7082E-06, 5.7010000000000005E-11, -4.7084000000000005E-06, 1.9028571428571389E-06, 5.7010000000000005E-11, 4.7082E-06
DataValue, 4.44, 0.1, 4.8417000000000006E-06, 5.3600000000000006E-12, -4.8409000000000005E-06, 1.8921428571428661E-06, 5.3600000000000006E-12, 4.8417000000000006E-06
DataValue, 4.51, 0.1, 4.9731000000000007E-06, -4.2960000000000006E-11, -4.9732E-06, 1.8800000000000064E-06, 4.2960000000000006E-11, 4.9731000000000007E-06
DataValue, 4.58, 0.1, 5.1049000000000009E-06, 6.068E-11, -5.1044000000000006E-06, 1.8757142857142768E-06, 6.068E-11, 5.1049000000000009E-06
DataValue, 4.65, 0.1, 5.2357000000000005E-06, 5.4700000000000007E-12, -5.2349000000000005E-06, 1.8628571428571418E-06, 5.4700000000000007E-12, 5.2357000000000005E-06
DataValue, 4.72, 0.1, 5.3657E-06, -4.738E-11, -5.3656000000000008E-06, 1.8621428571428606E-06, 4.738E-11, 5.3657E-06
DataValue, 4.79, 0.1, 5.4964000000000004E-06, 5.7750000000000007E-11, -5.4950000000000008E-06, 1.8507142857142827E-06, 5.7750000000000007E-11, 5.4964000000000004E-06
DataValue, 4.86, 0.1, 5.6248000000000008E-06, 4.06E-12, -5.6240000000000007E-06, 1.8357142857142918E-06, 4.06E-12, 5.6248000000000008E-06
DataValue, 4.93, 0.1, 5.7534000000000007E-06, -4.6820000000000006E-11, -5.7536E-06, 1.8400000000000034E-06, 4.6820000000000006E-11, 5.7534000000000007E-06
