
SetupTitle, output RollOut
PrimitiveTest, I/V Sweep
TestParameter, Context.MainFrame, B1500A
TestParameter, Channel.UnitType, SMU, SMU, SMU
TestParameter, Channel.Unit, SMU2:HR, SMU3:MP, SMU4:MP
TestParameter, Channel.IName, ID, IG, IS
TestParameter, Channel.VName, VD, VG, VS
TestParameter, Channel.Mode, V, V, COMMON
TestParameter, Channel.Func, VAR1, VAR2, CONST
TestParameter, Channel.Index, 
TestParameter, Channel.Time, 
TestParameter, Measurement.Port.Unit, SMU2:HR, SMU3:MP, SMU4:MP
TestParameter, Measurement.Port.SeriesResistor, NONE, NONE, NONE
TestParameter, Measurement.Port.Filter, ON, ON, ON
TestParameter, Measurement.Port.OutputVoltageComparison, 0, 0, 0
TestParameter, Measurement.Primary.Locus, Single
TestParameter, Measurement.Primary.Scale, LINEAR
TestParameter, Measurement.Primary.Start, 0
TestParameter, Measurement.Primary.Stop, 5
TestParameter, Measurement.Primary.Step, 0.1
TestParameter, Measurement.Primary.Compliance, 0.01
TestParameter, Measurement.Primary.PowerCompliance, 0
TestParameter, Measurement.Aborting.Condition, CONTINUE AT ANY
TestParameter, Measurement.PostOutput.Value, START
TestParameter, Measurement.PostOutput.Retention, OFF
TestParameter, Measurement.Secondary.Start, 0
TestParameter, Measurement.Secondary.Count, 7
TestParameter, Measurement.Secondary.Step, 0.5
TestParameter, Measurement.Secondary.Compliance, 1E-06
TestParameter, Measurement.Secondary.PowerCompliance, 0
TestParameter, Measurement.Bias.Source, 0, 0, 0
TestParameter, Measurement.Bias.Compliance, 0.01, 1E-06, 0.1
TestParameter, Measurement.Monitor.Unit, SMU2:HR, SMU3:MP, SMU4:MP
TestParameter, Measurement.Monitor.Adc, HR ADC, HR ADC, HR ADC
TestParameter, Measurement.Monitor.Measurement, Compliance Side, Compliance Side, Compliance Side
TestParameter, Measurement.Monitor.RangingMode, LIMITED, LIMITED, LIMITED
TestParameter, Measurement.Monitor.RangeBoundary, 100pA, 1nA, 1nA
TestParameter, Measurement.Monitor.RangeRating, BY FULL RANGE, BY FULL RANGE, BY FULL RANGE
TestParameter, Measurement.Monitor.RangeRatingCoeff, 50, 50, 50
TestParameter, Measurement.Timing.Hold, 0.5
TestParameter, Measurement.Timing.Delay, 0.05
TestParameter, Measurement.Adc.HighSpeed.Mode, AUTO
TestParameter, Measurement.Adc.HighSpeed.Coeff, 1
TestParameter, Measurement.Adc.HighResolution.AutoZero, OFF
TestParameter, Measurement.Adc.HighResolution.Mode, AUTO
TestParameter, Measurement.Adc.HighResolution.Coeff, 6
TestParameter, Measurement.WaitTime.Source.Coeff, 1
TestParameter, Measurement.WaitTime.Source.Offset, 0
TestParameter, Measurement.WaitTime.Monitor.Coeff, 1
TestParameter, Measurement.WaitTime.Monitor.Offset, 0
TestParameter, Function.Analysis.Name, absIg, absId
TestParameter, Function.Analysis.Unit, A, A
TestParameter, Function.Analysis.Definition, abs(IG), abs(ID)
TestParameter, Output.Graph.Enabled, true
TestParameter, Output.Graph.AutoScaling, false
TestParameter, Output.Graph.XAxis.Data, VD
TestParameter, Output.Graph.XAxis.Scale, Linear
TestParameter, Output.Graph.XAxis.Left, 0
TestParameter, Output.Graph.XAxis.Right, 8
TestParameter, Output.Graph.XAxis.RunTimeAutoScale, true
TestParameter, Output.Graph.YAxis.Data, absId, absIg, IS
TestParameter, Output.Graph.YAxis.Scale, Linear, Log, Linear
TestParameter, Output.Graph.YAxis.Bottom, 0, 0, -0.1
TestParameter, Output.Graph.YAxis.Top, 1, 1, 0.1
TestParameter, Output.Graph.YAxis.Group, , , 
TestParameter, Output.Graph.YAxis.RunTimeAutoScale, true, true, true
TestParameter, Output.List.Data, VG, IG, ID, IS, IS, VD, absIg, absId
TestParameter, AutoAnalysis.Interpolation, false
TestParameter, AutoAnalysis.Line1.Enabled, false
TestParameter, AutoAnalysis.Line1.Type, 1
TestParameter, AutoAnalysis.Line1.Fix, True
TestParameter, AutoAnalysis.Line1.YAxis, 0
TestParameter, AutoAnalysis.Line1.Point1.Type, 0
TestParameter, AutoAnalysis.Line1.Point1.XY.X, 
TestParameter, AutoAnalysis.Line1.Point1.XY.Y, 
TestParameter, AutoAnalysis.Line1.Point1.Data.Var, 
TestParameter, AutoAnalysis.Line1.Point1.Data.Condition, 
TestParameter, AutoAnalysis.Line1.Point1.Data.Start, false
TestParameter, AutoAnalysis.Line1.Point1.Data.StartVar, 
TestParameter, AutoAnalysis.Line1.Point1.Data.StartCondition, 
TestParameter, AutoAnalysis.Line1.Point2.Type, 0
TestParameter, AutoAnalysis.Line1.Point2.XY.X, 
TestParameter, AutoAnalysis.Line1.Point2.XY.Y, 
TestParameter, AutoAnalysis.Line1.Point2.Data.Var, 
TestParameter, AutoAnalysis.Line1.Point2.Data.Condition, 
TestParameter, AutoAnalysis.Line1.Point2.Data.Start, false
TestParameter, AutoAnalysis.Line1.Point2.Data.StartVar, 
TestParameter, AutoAnalysis.Line1.Point2.Data.StartCondition, 
TestParameter, AutoAnalysis.Line1.GradientExpr, 0
TestParameter, AutoAnalysis.Line2.Enabled, false
TestParameter, AutoAnalysis.Line2.Type, 1
TestParameter, AutoAnalysis.Line2.Fix, True
TestParameter, AutoAnalysis.Line2.YAxis, 0
TestParameter, AutoAnalysis.Line2.Point1.Type, 0
TestParameter, AutoAnalysis.Line2.Point1.XY.X, 
TestParameter, AutoAnalysis.Line2.Point1.XY.Y, 
TestParameter, AutoAnalysis.Line2.Point1.Data.Var, 
TestParameter, AutoAnalysis.Line2.Point1.Data.Condition, 
TestParameter, AutoAnalysis.Line2.Point1.Data.Start, false
TestParameter, AutoAnalysis.Line2.Point1.Data.StartVar, 
TestParameter, AutoAnalysis.Line2.Point1.Data.StartCondition, 
TestParameter, AutoAnalysis.Line2.Point2.Type, 0
TestParameter, AutoAnalysis.Line2.Point2.XY.X, 
TestParameter, AutoAnalysis.Line2.Point2.XY.Y, 
TestParameter, AutoAnalysis.Line2.Point2.Data.Var, 
TestParameter, AutoAnalysis.Line2.Point2.Data.Condition, 
TestParameter, AutoAnalysis.Line2.Point2.Data.Start, false
TestParameter, AutoAnalysis.Line2.Point2.Data.StartVar, 
TestParameter, AutoAnalysis.Line2.Point2.Data.StartCondition, 
TestParameter, AutoAnalysis.Line2.GradientExpr, 0
TestParameter, AutoAnalysis.Marker.Enabled, false
TestParameter, AutoAnalysis.Marker.Data.Var, 
TestParameter, AutoAnalysis.Marker.Data.Condition, 
TestParameter, AutoAnalysis.Marker.Data.Start, false
TestParameter, AutoAnalysis.Marker.Data.StartVar, 
TestParameter, AutoAnalysis.Marker.Data.StartCondition, 
MetaData, TestRecord.EntryPoint, true
MetaData, TestRecord.RecordTime, 07/03/2019 11:35:54
MetaData, TestRecord.TestTarget, 6-44
MetaData, TestRecord.IterationIndex, 1
MetaData, TestRecord.Preservation, true
MetaData, TestRecord.Flag, 
MetaData, TestRecord.Remarks, good
MetaData, TestRecord.LinkKey, 8a8ad90a-818d-40ad-9be2-c341be94ba44
Dimension1, 51, 51, 51, 51, 51, 51, 51
Dimension2, 7, 7, 7, 7, 7, 7, 7
DataName, VD, VG, ID, IG, IS, absIg, absId
DataValue, 0, 0, 5.8706E-12, -4.8230000000000004E-11, -1.5980000000000003E-11, 4.8230000000000004E-11, 5.8706E-12
DataValue, 0.1, 0, 3.5575000000000004E-10, 4.089E-11, -3.5112E-10, 4.089E-11, 3.5575000000000004E-10
DataValue, 0.2, 0, 4.3578E-10, -2.059E-11, -4.9045E-10, 2.059E-11, 4.3578E-10
DataValue, 0.3, 0, 4.2732000000000003E-10, 8.5000000000000011E-13, -4.4634000000000003E-10, 8.5000000000000011E-13, 4.2732000000000003E-10
DataValue, 0.4, 0, 5.088E-10, 2.755E-11, -4.9699000000000006E-10, 2.755E-11, 5.088E-10
DataValue, 0.5, 0, 5.1748000000000006E-10, -3.8730000000000005E-11, -5.54E-10, 3.8730000000000005E-11, 5.1748000000000006E-10
DataValue, 0.6, 0, 4.939E-10, 3.3E-13, -4.8208000000000006E-10, 3.3E-13, 4.939E-10
DataValue, 0.70000000000000007, 0, 5.6622E-10, 1.4480000000000001E-11, -5.4227E-10, 1.4480000000000001E-11, 5.6622E-10
DataValue, 0.8, 0, 5.5255E-10, -5.204E-11, -5.7155000000000006E-10, 5.204E-11, 5.5255E-10
DataValue, 0.9, 0, 5.2765E-10, 7.5E-13, -4.9014E-10, 7.5E-13, 5.2765E-10
DataValue, 1, 0, 5.9499E-10, 3.4500000000000004E-12, -5.6437000000000009E-10, 3.4500000000000004E-12, 5.9499E-10
DataValue, 1.1, 0, 5.6668000000000005E-10, -5.6620000000000007E-11, -5.7633E-10, 5.6620000000000007E-11, 5.6668000000000005E-10
DataValue, 1.2, 0, 5.4796E-10, -7.9000000000000007E-13, -4.9233E-10, 7.9000000000000007E-13, 5.4796E-10
DataValue, 1.3, 0, 6.0832E-10, -2.5800000000000003E-12, -5.698E-10, 2.5800000000000003E-12, 6.0832E-10
DataValue, 1.4000000000000001, 0, 5.7552E-10, -5.5600000000000007E-11, -5.7395000000000007E-10, 5.5600000000000007E-11, 5.7552E-10
DataValue, 1.5, 0, 5.6043E-10, -1.59E-12, -4.9999E-10, 1.59E-12, 5.6043E-10
DataValue, 1.6, 0, 6.1982E-10, -5.3200000000000008E-12, -5.7424000000000008E-10, 5.3200000000000008E-12, 6.1982E-10
DataValue, 1.7, 0, 5.7495000000000007E-10, -5.5070000000000003E-11, -5.6893E-10, 5.5070000000000003E-11, 5.7495000000000007E-10
DataValue, 1.8, 0, 5.6683E-10, -1.37E-12, -5.0495E-10, 1.37E-12, 5.6683E-10
DataValue, 1.9000000000000001, 0, 6.2373000000000008E-10, -8.9100000000000014E-12, -5.8164000000000007E-10, 8.9100000000000014E-12, 6.2373000000000008E-10
DataValue, 2, 0, 5.7498E-10, -4.9100000000000004E-11, -5.7059000000000009E-10, 4.9100000000000004E-11, 5.7498E-10
DataValue, 2.1, 0, 5.7575E-10, 1.228E-11, -5.1732E-10, 1.228E-11, 5.7575E-10
DataValue, 2.2, 0, 6.2485000000000007E-10, -1.228E-11, -5.9664E-10, 1.228E-11, 6.2485000000000007E-10
DataValue, 2.3000000000000003, 0, 5.7068E-10, -4.323E-11, -5.7213000000000007E-10, 4.323E-11, 5.7068E-10
DataValue, 2.4, 0, 5.8324E-10, 1.9040000000000003E-11, -5.3091000000000008E-10, 1.9040000000000003E-11, 5.8324E-10
DataValue, 2.5, 0, 6.2213E-10, -1.713E-11, -6.1325E-10, 1.713E-11, 6.2213E-10
DataValue, 2.6, 0, 5.6649000000000008E-10, -3.744E-11, -5.7232E-10, 3.744E-11, 5.6649000000000008E-10
DataValue, 2.7, 0, 5.8988E-10, 2.5570000000000002E-11, -5.4572000000000006E-10, 2.5570000000000002E-11, 5.8988E-10
DataValue, 2.8000000000000003, 0, 6.2398000000000005E-10, -2.7070000000000003E-11, -6.3461E-10, 2.7070000000000003E-11, 6.2398000000000005E-10
DataValue, 2.9, 0, 5.707E-10, -3.7310000000000005E-11, -5.6891000000000005E-10, 3.7310000000000005E-11, 5.707E-10
DataValue, 3, 0, 6.072E-10, 1.7180000000000002E-11, -5.6633E-10, 1.7180000000000002E-11, 6.072E-10
DataValue, 3.1, 0, 6.3463E-10, -4.316E-11, -6.4834000000000006E-10, 4.316E-11, 6.3463E-10
DataValue, 3.2, 0, 5.7793000000000009E-10, -4.523E-11, -5.6763E-10, 4.523E-11, 5.7793000000000009E-10
DataValue, 3.3000000000000003, 0, 6.1827000000000008E-10, 5.0500000000000005E-12, -5.752E-10, 5.0500000000000005E-12, 6.1827000000000008E-10
DataValue, 3.4, 0, 6.3825E-10, -5.4400000000000007E-11, -6.4334000000000008E-10, 5.4400000000000007E-11, 6.3825E-10
DataValue, 3.5, 0, 5.8593000000000006E-10, -5.7520000000000005E-11, -5.6638000000000006E-10, 5.7520000000000005E-11, 5.8593000000000006E-10
DataValue, 3.6, 0, 6.3469E-10, -1.464E-11, -5.7214000000000005E-10, 1.464E-11, 6.3469E-10
DataValue, 3.7, 0, 6.5129E-10, -7.392E-11, -6.4003E-10, 7.392E-11, 6.5129E-10
DataValue, 3.8000000000000003, 0, 5.995900000000001E-10, -6.837E-11, -5.6692E-10, 6.837E-11, 5.995900000000001E-10
DataValue, 3.9, 0, 6.4918E-10, -2.8190000000000002E-11, -5.7498E-10, 2.8190000000000002E-11, 6.4918E-10
DataValue, 4, 0, 6.5282E-10, -9.592E-11, -6.2576E-10, 9.592E-11, 6.5282E-10
DataValue, 4.1, 0, 6.0858000000000008E-10, -7.778E-11, -5.4260000000000007E-10, 7.778E-11, 6.0858000000000008E-10
DataValue, 4.2, 0, 6.7304000000000009E-10, -5.8150000000000007E-11, -5.7108000000000006E-10, 5.8150000000000007E-11, 6.7304000000000009E-10
DataValue, 4.3, 0, 6.6641000000000008E-10, -1.2878000000000002E-10, -6.0714E-10, 1.2878000000000002E-10, 6.6641000000000008E-10
DataValue, 4.4, 0, 6.3325000000000006E-10, -9.3650000000000007E-11, -5.1602E-10, 9.3650000000000007E-11, 6.3325000000000006E-10
DataValue, 4.5, 0, 7.0200000000000006E-10, -9.178E-11, -5.7247000000000009E-10, 9.178E-11, 7.0200000000000006E-10
DataValue, 4.6000000000000005, 0, 6.8691000000000006E-10, -1.6535E-10, -5.8466E-10, 1.6535E-10, 6.8691000000000006E-10
DataValue, 4.7, 0, 6.6796E-10, -1.1868E-10, -4.9682E-10, 1.1868E-10, 6.6796E-10
DataValue, 4.8, 0, 7.3251000000000009E-10, -1.2481E-10, -5.7157E-10, 1.2481E-10, 7.3251000000000009E-10
DataValue, 4.9, 0, 7.0369000000000008E-10, -1.8744000000000003E-10, -5.7232E-10, 1.8744000000000003E-10, 7.0369000000000008E-10
DataValue, 5, 0, 6.939900000000001E-10, -1.4079E-10, -4.9536E-10, 1.4079E-10, 6.939900000000001E-10
DataValue, 0, 0.5, -5.7551999999999995E-12, -3.4900000000000004E-11, 5.801E-11, 3.4900000000000004E-11, 5.7551999999999995E-12
DataValue, 0.1, 0.5, 5.7941E-09, -2.5430000000000003E-11, -5.6491E-09, 2.5430000000000003E-11, 5.7941E-09
DataValue, 0.2, 0.5, 6.5027E-09, -4.4890000000000006E-11, -6.4983E-09, 4.4890000000000006E-11, 6.5027E-09
DataValue, 0.3, 0.5, 6.459E-09, 4.37E-12, -6.4207E-09, 4.37E-12, 6.459E-09
DataValue, 0.4, 0.5, 6.3793E-09, 1.5340000000000002E-11, -6.3444E-09, 1.5340000000000002E-11, 6.3793E-09
DataValue, 0.5, 0.5, 6.2372E-09, -4.5390000000000004E-11, -6.2028E-09, 4.5390000000000004E-11, 6.2372E-09
DataValue, 0.6, 0.5, 6.0755E-09, 2.14E-12, -6.025E-09, 2.14E-12, 6.0755E-09
DataValue, 0.70000000000000007, 0.5, 6.0351E-09, 1.059E-11, -5.9838E-09, 1.059E-11, 6.0351E-09
DataValue, 0.8, 0.5, 5.8887E-09, -5.0200000000000005E-11, -5.8861E-09, 5.0200000000000005E-11, 5.8887E-09
DataValue, 0.9, 0.5, 5.7638E-09, 9.2000000000000012E-13, -5.7341E-09, 9.2000000000000012E-13, 5.7638E-09
DataValue, 1, 0.5, 5.7597E-09, 9.36E-12, -5.7251E-09, 9.36E-12, 5.7597E-09
DataValue, 1.1, 0.5, 5.6385E-09, -5.0090000000000005E-11, -5.633E-09, 5.0090000000000005E-11, 5.6385E-09
DataValue, 1.2, 0.5, 5.5231E-09, 5.5000000000000008E-13, -5.4731E-09, 5.5000000000000008E-13, 5.5231E-09
DataValue, 1.3, 0.5, 5.536E-09, 8.6700000000000008E-12, -5.5089E-09, 8.6700000000000008E-12, 5.536E-09
DataValue, 1.4000000000000001, 0.5, 5.4431E-09, -5.1550000000000006E-11, -5.4386E-09, 5.1550000000000006E-11, 5.4431E-09
DataValue, 1.5, 0.5, 5.3415E-09, -1.3E-13, -5.3111E-09, 1.3E-13, 5.3415E-09
DataValue, 1.6, 0.5, 5.3626E-09, 9.390000000000001E-12, -5.3357E-09, 9.390000000000001E-12, 5.3626E-09
DataValue, 1.7, 0.5, 5.2691E-09, -5.1910000000000005E-11, -5.2857E-09, 5.1910000000000005E-11, 5.2691E-09
DataValue, 1.8, 0.5, 5.206E-09, -1.02E-12, -5.1689E-09, 1.02E-12, 5.206E-09
DataValue, 1.9000000000000001, 0.5, 5.2256E-09, 7.6600000000000009E-12, -5.2059E-09, 7.6600000000000009E-12, 5.2256E-09
DataValue, 2, 0.5, 5.1499E-09, -5.353E-11, -5.1591E-09, 5.353E-11, 5.1499E-09
DataValue, 2.1, 0.5, 5.0839E-09, -2.97E-12, -5.0179E-09, 2.97E-12, 5.0839E-09
DataValue, 2.2, 0.5, 5.1149E-09, 5.89E-12, -5.0608E-09, 5.89E-12, 5.1149E-09
DataValue, 2.3000000000000003, 0.5, 5.0483E-09, -5.4820000000000004E-11, -5.0597E-09, 5.4820000000000004E-11, 5.0483E-09
DataValue, 2.4, 0.5, 4.9772E-09, -4.8500000000000005E-12, -4.9311E-09, 4.8500000000000005E-12, 4.9772E-09
DataValue, 2.5, 0.5, 4.9975E-09, 5.3700000000000007E-12, -4.9675E-09, 5.3700000000000007E-12, 4.9975E-09
DataValue, 2.6, 0.5, 4.9551E-09, -5.7510000000000004E-11, -4.9537E-09, 5.7510000000000004E-11, 4.9551E-09
DataValue, 2.7, 0.5, 4.8847E-09, -9.0100000000000014E-12, -4.8314E-09, 9.0100000000000014E-12, 4.8847E-09
DataValue, 2.8000000000000003, 0.5, 4.9044E-09, 5.4E-13, -4.8595E-09, 5.4E-13, 4.9044E-09
DataValue, 2.9, 0.5, 4.8742E-09, -5.934E-11, -4.8732E-09, 5.934E-11, 4.8742E-09
DataValue, 3, 0.5, 4.8011E-09, -1.5670000000000002E-11, -4.7457E-09, 1.5670000000000002E-11, 4.8011E-09
DataValue, 3.1, 0.5, 4.8363E-09, -4.38E-12, -4.7952E-09, 4.38E-12, 4.8363E-09
DataValue, 3.2, 0.5, 4.7999E-09, -6.821E-11, -4.7898E-09, 6.821E-11, 4.7999E-09
DataValue, 3.3000000000000003, 0.5, 4.7389E-09, -2.484E-11, -4.681E-09, 2.484E-11, 4.7389E-09
DataValue, 3.4, 0.5, 4.8004E-09, -1.4630000000000002E-11, -4.74E-09, 1.4630000000000002E-11, 4.8004E-09
DataValue, 3.5, 0.5, 4.7509E-09, -7.846E-11, -4.7218999999999996E-09, 7.846E-11, 4.7509E-09
DataValue, 3.6, 0.5, 4.6944E-09, -3.4720000000000004E-11, -4.6361E-09, 3.4720000000000004E-11, 4.6944E-09
DataValue, 3.7, 0.5, 4.7345E-09, -2.8110000000000004E-11, -4.6784E-09, 2.8110000000000004E-11, 4.7345E-09
DataValue, 3.8000000000000003, 0.5, 4.7088E-09, -9.2260000000000013E-11, -4.6758E-09, 9.2260000000000013E-11, 4.7088E-09
DataValue, 3.9, 0.5, 4.6526E-09, -4.6780000000000005E-11, -4.5627E-09, 4.6780000000000005E-11, 4.6526E-09
DataValue, 4, 0.5, 4.7025E-09, -4.512E-11, -4.6265E-09, 4.512E-11, 4.7025E-09
DataValue, 4.1, 0.5, 4.6733E-09, -1.1413000000000001E-10, -4.5983E-09, 1.1413000000000001E-10, 4.6733E-09
DataValue, 4.2, 0.5, 4.6122E-09, -6.528E-11, -4.5007E-09, 6.528E-11, 4.6122E-09
DataValue, 4.3, 0.5, 4.6669E-09, -6.2990000000000007E-11, -4.5695E-09, 6.2990000000000007E-11, 4.6669E-09
DataValue, 4.4, 0.5, 4.6554E-09, -1.3131E-10, -4.5573E-09, 1.3131E-10, 4.6554E-09
DataValue, 4.5, 0.5, 4.6001E-09, -8.701E-11, -4.4621E-09, 8.701E-11, 4.6001E-09
DataValue, 4.6000000000000005, 0.5, 4.6611E-09, -9.0230000000000008E-11, -4.5266E-09, 9.0230000000000008E-11, 4.6611E-09
DataValue, 4.7, 0.5, 4.6088E-09, -1.5621000000000002E-10, -4.5284E-09, 1.5621000000000002E-10, 4.6088E-09
DataValue, 4.8, 0.5, 4.5639E-09, -9.771E-11, -4.4164E-09, 9.771E-11, 4.5639E-09
DataValue, 4.9, 0.5, 4.6214E-09, -9.8030000000000009E-11, -4.4873E-09, 9.8030000000000009E-11, 4.6214E-09
DataValue, 5, 0.5, 4.5806E-09, -1.6379E-10, -4.4675E-09, 1.6379E-10, 4.5806E-09
DataValue, 0, 1, -4.9390000000000003E-11, 8.73E-12, 6.8530000000000008E-11, 8.73E-12, 4.9390000000000003E-11
DataValue, 0.1, 1, 3.8505999999999994E-08, -3.205E-11, -3.6481399999999996E-08, 3.205E-11, 3.8505999999999994E-08
DataValue, 0.2, 1, 4.5581799999999993E-08, -5.0930000000000005E-11, -4.51522E-08, 5.0930000000000005E-11, 4.5581799999999993E-08
DataValue, 0.3, 1, 4.5977199999999993E-08, 5.441E-11, -4.57526E-08, 5.441E-11, 4.5977199999999993E-08
DataValue, 0.4, 1, 4.5274399999999994E-08, -4.498E-11, -4.4972999999999995E-08, 4.498E-11, 4.5274399999999994E-08
DataValue, 0.5, 1, 4.4409799999999994E-08, 4.232E-11, -4.4345E-08, 4.232E-11, 4.4409799999999994E-08
DataValue, 0.6, 1, 4.3786799999999996E-08, -2.7190000000000002E-11, -4.37188E-08, 2.7190000000000002E-11, 4.3786799999999996E-08
DataValue, 0.70000000000000007, 1, 4.29768E-08, 2.0600000000000002E-11, -4.2946999999999994E-08, 2.0600000000000002E-11, 4.29768E-08
DataValue, 0.8, 1, 4.2285399999999993E-08, -8.32E-12, -4.2227199999999996E-08, 8.32E-12, 4.2285399999999993E-08
DataValue, 0.9, 1, 4.1815999999999995E-08, 1.5800000000000001E-12, -4.17458E-08, 1.5800000000000001E-12, 4.1815999999999995E-08
DataValue, 1, 1, 4.1315799999999993E-08, 1.8200000000000003E-12, -4.1236399999999995E-08, 1.8200000000000003E-12, 4.1315799999999993E-08
DataValue, 1.1, 1, 4.0791799999999995E-08, -2.41E-12, -4.08408E-08, 2.41E-12, 4.0791799999999995E-08
DataValue, 1.2, 1, 4.0358199999999994E-08, 8.1000000000000008E-13, -4.0377E-08, 8.1000000000000008E-13, 4.0358199999999994E-08
DataValue, 1.3, 1, 4.01282E-08, -1.88E-12, -4.0107799999999993E-08, 1.88E-12, 4.01282E-08
DataValue, 1.4000000000000001, 1, 3.9713999999999994E-08, 9.5E-13, -3.96124E-08, 9.5E-13, 3.9713999999999994E-08
DataValue, 1.5, 1, 3.9335599999999994E-08, -3.1100000000000003E-12, -3.92134E-08, 3.1100000000000003E-12, 3.9335599999999994E-08
DataValue, 1.6, 1, 3.8897599999999994E-08, 4E-13, -3.8949999999999995E-08, 4E-13, 3.8897599999999994E-08
DataValue, 1.7, 1, 3.8667E-08, -2.57E-12, -3.8631599999999996E-08, 2.57E-12, 3.8667E-08
DataValue, 1.8, 1, 3.8481399999999994E-08, 1.59E-12, -3.8431599999999995E-08, 1.59E-12, 3.8481399999999994E-08
DataValue, 1.9000000000000001, 1, 3.8197599999999994E-08, -7.7900000000000013E-12, -3.81408E-08, 7.7900000000000013E-12, 3.8197599999999994E-08
DataValue, 2, 1, 3.78696E-08, 1.5340000000000002E-11, -3.78784E-08, 1.5340000000000002E-11, 3.78696E-08
DataValue, 2.1, 1, 3.7680799999999994E-08, -3.282E-11, -3.77204E-08, 3.282E-11, 3.7680799999999994E-08
DataValue, 2.2, 1, 3.7570799999999995E-08, 3.7740000000000004E-11, -3.75318E-08, 3.7740000000000004E-11, 3.7570799999999995E-08
DataValue, 2.3000000000000003, 1, 3.72682E-08, -5.6020000000000004E-11, -3.7210999999999995E-08, 5.6020000000000004E-11, 3.72682E-08
DataValue, 2.4, 1, 3.7046999999999994E-08, 5.0600000000000005E-11, -3.7069399999999994E-08, 5.0600000000000005E-11, 3.7046999999999994E-08
