
SetupTitle, TFT lin RollOut
PrimitiveTest, I/V Sweep
TestParameter, Context.MainFrame, B1500A
TestParameter, Channel.UnitType, SMU, SMU, SMU
TestParameter, Channel.Unit, SMU2:HR, SMU3:MP, SMU4:MP
TestParameter, Channel.IName, ID, IG, IS
TestParameter, Channel.VName, VD, VG, VS
TestParameter, Channel.Mode, V, V, COMMON
TestParameter, Channel.Func, CONST, VAR1, CONST
TestParameter, Channel.Index, 
TestParameter, Channel.Time, 
TestParameter, Measurement.Port.Unit, SMU2:HR, SMU3:MP, SMU4:MP
TestParameter, Measurement.Port.SeriesResistor, NONE, NONE, NONE
TestParameter, Measurement.Port.Filter, ON, ON, ON
TestParameter, Measurement.Port.OutputVoltageComparison, 0, 0, 0
TestParameter, Measurement.Primary.Locus, Double
TestParameter, Measurement.Primary.Scale, LINEAR
TestParameter, Measurement.Primary.Start, -2
TestParameter, Measurement.Primary.Stop, 5
TestParameter, Measurement.Primary.Step, 0.07
TestParameter, Measurement.Primary.Compliance, 0.001
TestParameter, Measurement.Primary.PowerCompliance, 0
TestParameter, Measurement.Aborting.Condition, CONTINUE AT ANY
TestParameter, Measurement.PostOutput.Value, START
TestParameter, Measurement.PostOutput.Retention, OFF
TestParameter, Measurement.Bias.Source, 0.1, -2, 0
TestParameter, Measurement.Bias.Compliance, 0.0001, 0.001, 0.1
TestParameter, Measurement.Monitor.Unit, SMU2:HR, SMU3:MP, SMU4:MP
TestParameter, Measurement.Monitor.Adc, HR ADC, HR ADC, HR ADC
TestParameter, Measurement.Monitor.Measurement, Compliance Side, Compliance Side, Compliance Side
TestParameter, Measurement.Monitor.RangingMode, LIMITED, LIMITED, LIMITED
TestParameter, Measurement.Monitor.RangeBoundary, 100pA, 1nA, 1nA
TestParameter, Measurement.Monitor.RangeRating, BY FULL RANGE, BY FULL RANGE, BY FULL RANGE
TestParameter, Measurement.Monitor.RangeRatingCoeff, 50, 50, 50
TestParameter, Measurement.Timing.Hold, 0.5
TestParameter, Measurement.Timing.Delay, 0.05
TestParameter, Measurement.Adc.HighSpeed.Mode, AUTO
TestParameter, Measurement.Adc.HighSpeed.Coeff, 1
TestParameter, Measurement.Adc.HighResolution.AutoZero, OFF
TestParameter, Measurement.Adc.HighResolution.Mode, AUTO
TestParameter, Measurement.Adc.HighResolution.Coeff, 6
TestParameter, Measurement.WaitTime.Source.Coeff, 1
TestParameter, Measurement.WaitTime.Source.Offset, 0
TestParameter, Measurement.WaitTime.Monitor.Coeff, 1
TestParameter, Measurement.WaitTime.Monitor.Offset, 0
TestParameter, Function.Analysis.Name, dIddVg, absIg, absId
TestParameter, Function.Analysis.Unit, S, A, A
TestParameter, Function.Analysis.Definition, delta(ID)/delta(VG), abs(IG), abs(ID)
TestParameter, Output.Graph.Enabled, true
TestParameter, Output.Graph.AutoScaling, false
TestParameter, Output.Graph.XAxis.Data, VG
TestParameter, Output.Graph.XAxis.Scale, Linear
TestParameter, Output.Graph.XAxis.Left, -2
TestParameter, Output.Graph.XAxis.Right, 6
TestParameter, Output.Graph.XAxis.RunTimeAutoScale, true
TestParameter, Output.Graph.YAxis.Data, absId, absIg, dIddVg, IS
TestParameter, Output.Graph.YAxis.Scale, Log, Log, Linear, Linear
TestParameter, Output.Graph.YAxis.Bottom, 0, 0, 0, -0.1
TestParameter, Output.Graph.YAxis.Top, 1, 1, 1, 0.1
TestParameter, Output.Graph.YAxis.Group, , , , 
TestParameter, Output.Graph.YAxis.RunTimeAutoScale, true, true, true, false
TestParameter, Output.List.Data, VG, IG, ID, IS, VD, dIddVg, absIg, absId
TestParameter, AutoAnalysis.Interpolation, false
TestParameter, AutoAnalysis.Line1.Enabled, false
TestParameter, AutoAnalysis.Line1.Type, 1
TestParameter, AutoAnalysis.Line1.Fix, True
TestParameter, AutoAnalysis.Line1.YAxis, 0
TestParameter, AutoAnalysis.Line1.Point1.Type, 0
TestParameter, AutoAnalysis.Line1.Point1.XY.X, 
TestParameter, AutoAnalysis.Line1.Point1.XY.Y, 
TestParameter, AutoAnalysis.Line1.Point1.Data.Var, 
TestParameter, AutoAnalysis.Line1.Point1.Data.Condition, 
TestParameter, AutoAnalysis.Line1.Point1.Data.Start, false
TestParameter, AutoAnalysis.Line1.Point1.Data.StartVar, 
TestParameter, AutoAnalysis.Line1.Point1.Data.StartCondition, 
TestParameter, AutoAnalysis.Line1.Point2.Type, 0
TestParameter, AutoAnalysis.Line1.Point2.XY.X, 
TestParameter, AutoAnalysis.Line1.Point2.XY.Y, 
TestParameter, AutoAnalysis.Line1.Point2.Data.Var, 
TestParameter, AutoAnalysis.Line1.Point2.Data.Condition, 
TestParameter, AutoAnalysis.Line1.Point2.Data.Start, false
TestParameter, AutoAnalysis.Line1.Point2.Data.StartVar, 
TestParameter, AutoAnalysis.Line1.Point2.Data.StartCondition, 
TestParameter, AutoAnalysis.Line1.GradientExpr, 0
TestParameter, AutoAnalysis.Line2.Enabled, false
TestParameter, AutoAnalysis.Line2.Type, 1
TestParameter, AutoAnalysis.Line2.Fix, True
TestParameter, AutoAnalysis.Line2.YAxis, 0
TestParameter, AutoAnalysis.Line2.Point1.Type, 0
TestParameter, AutoAnalysis.Line2.Point1.XY.X, 
TestParameter, AutoAnalysis.Line2.Point1.XY.Y, 
TestParameter, AutoAnalysis.Line2.Point1.Data.Var, 
TestParameter, AutoAnalysis.Line2.Point1.Data.Condition, 
TestParameter, AutoAnalysis.Line2.Point1.Data.Start, false
TestParameter, AutoAnalysis.Line2.Point1.Data.StartVar, 
TestParameter, AutoAnalysis.Line2.Point1.Data.StartCondition, 
TestParameter, AutoAnalysis.Line2.Point2.Type, 0
TestParameter, AutoAnalysis.Line2.Point2.XY.X, 
TestParameter, AutoAnalysis.Line2.Point2.XY.Y, 
TestParameter, AutoAnalysis.Line2.Point2.Data.Var, 
TestParameter, AutoAnalysis.Line2.Point2.Data.Condition, 
TestParameter, AutoAnalysis.Line2.Point2.Data.Start, false
TestParameter, AutoAnalysis.Line2.Point2.Data.StartVar, 
TestParameter, AutoAnalysis.Line2.Point2.Data.StartCondition, 
TestParameter, AutoAnalysis.Line2.GradientExpr, 0
TestParameter, AutoAnalysis.Marker.Enabled, false
TestParameter, AutoAnalysis.Marker.Data.Var, 
TestParameter, AutoAnalysis.Marker.Data.Condition, 
TestParameter, AutoAnalysis.Marker.Data.Start, false
TestParameter, AutoAnalysis.Marker.Data.StartVar, 
TestParameter, AutoAnalysis.Marker.Data.StartCondition, 
MetaData, TestRecord.EntryPoint, true
MetaData, TestRecord.RecordTime, 07/03/2019 12:04:59
MetaData, TestRecord.TestTarget, 6-48
MetaData, TestRecord.IterationIndex, 1
MetaData, TestRecord.Preservation, true
MetaData, TestRecord.Flag, 
MetaData, TestRecord.Remarks, good new setup
MetaData, TestRecord.LinkKey, 4c29b9eb-8277-4ca7-a77c-beac5a630a7d
Dimension1, 202, 202, 202, 202, 202, 202, 202, 202
Dimension2, 1, 1, 1, 1, 1, 1, 1, 1
DataName, VG, VD, ID, IG, IS, dIddVg, absIg, absId
DataValue, -2, 0.1, 5.3728E-12, 4.33E-11, 1.5470000000000003E-11, 1.3127142857142846E-10, 4.33E-11, 5.3728E-12
DataValue, -1.93, 0.1, 1.45618E-11, -1.631E-11, -3.613E-11, 6.2571428571428439E-13, 1.631E-11, 1.45618E-11
DataValue, -1.86, 0.1, 5.4604E-12, 1.0420000000000001E-11, 2.79E-12, -1.4122857142857165E-11, 1.0420000000000001E-11, 5.4604E-12
DataValue, -1.79, 0.1, 1.25846E-11, -6.7070000000000007E-11, -2.1000000000000001E-13, -3.4611428571428537E-11, 6.7070000000000007E-11, 1.25846E-11
DataValue, -1.72, 0.1, 6.148E-13, -7.44E-12, 6.586E-11, -3.9370000000000028E-11, 7.44E-12, 6.148E-13
DataValue, -1.6500000000000001, 0.1, 7.0727999999999995E-12, -1.544E-11, 3.91E-12, -9.098571428571436E-12, 1.544E-11, 7.0727999999999995E-12
DataValue, -1.58, 0.1, -6.59E-13, 4.7510000000000006E-11, 3.15E-12, 1.7471428571428561E-11, 4.7510000000000006E-11, 6.59E-13
DataValue, -1.51, 0.1, 9.5188E-12, -7.64E-12, -7.6860000000000007E-11, 2.3105714285714264E-11, 7.64E-12, 9.5188E-12
DataValue, -1.44, 0.1, 2.5758E-12, -3.97E-12, -5.3000000000000006E-13, -2.0214285714285732E-11, 3.97E-12, 2.5758E-12
DataValue, -1.37, 0.1, 6.6887999999999995E-12, -4.8970000000000006E-11, 1.6300000000000001E-12, 3.7282857142857175E-11, 4.8970000000000006E-11, 6.6887999999999995E-12
DataValue, -1.3, 0.1, 7.7954E-12, -2.0310000000000002E-11, -6.848E-11, -4.577428571428567E-11, 2.0310000000000002E-11, 7.7954E-12
DataValue, -1.23, 0.1, 2.804E-13, -1E-13, 2.3800000000000004E-12, -1.4244285714285706E-11, 1E-13, 2.804E-13
DataValue, -1.16, 0.1, 5.8012E-12, -5.3400000000000004E-11, -6.6E-13, -4.140285714285717E-11, 5.3400000000000004E-11, 5.8012E-12
DataValue, -1.09, 0.1, -5.5159999999999995E-12, 1.6100000000000002E-12, 7.783E-11, -3.6448571428571448E-11, 1.6100000000000002E-12, 5.5159999999999995E-12
DataValue, -1.02, 0.1, 6.984E-13, -6.7000000000000007E-13, 6.9000000000000009E-13, 7.0999999999999992E-12, 6.7000000000000007E-13, 6.984E-13
DataValue, -0.95000000000000007, 0.1, -4.5219999999999995E-12, 4.7620000000000006E-11, -1.6700000000000002E-12, -4.988571428571428E-11, 4.7620000000000006E-11, 4.5219999999999995E-12
DataValue, -0.88, 0.1, -6.2856E-12, 1.4450000000000001E-11, 7.0730000000000011E-11, 3.4098571428571426E-11, 1.4450000000000001E-11, 6.2856E-12
DataValue, -0.81, 0.1, 2.518E-13, -7E-14, -4.74E-12, 7.1161428571428555E-11, 7E-14, 2.518E-13
DataValue, -0.74, 0.1, 3.677E-12, -4.0620000000000004E-11, 1.7000000000000002E-12, 3.7471428571428566E-11, 4.0620000000000004E-11, 3.677E-12
DataValue, -0.67, 0.1, 5.4978E-12, -2.6670000000000003E-11, -5.5780000000000007E-11, -4.3722857142857142E-11, 2.6670000000000003E-11, 5.4978E-12
DataValue, -0.6, 0.1, -2.4442E-12, 2.8800000000000002E-12, 3.07E-12, -1.063E-11, 2.8800000000000002E-12, 2.4442E-12
DataValue, -0.53, 0.1, 4.0096E-12, -4.8060000000000006E-11, 1.4300000000000002E-12, 5.6468571428571441E-11, 4.8060000000000006E-11, 4.0096E-12
DataValue, -0.46, 0.1, 5.4614E-12, -1.0920000000000001E-11, -7.016E-11, -3.892571428571428E-11, 1.0920000000000001E-11, 5.4614E-12
DataValue, -0.39, 0.1, -1.44E-12, 2.69E-12, -2E-13, -7.44742857142857E-11, 2.69E-12, 1.44E-12
DataValue, -0.32, 0.1, -4.965E-12, 3.903E-11, -1.79E-12, -3.8641428571428567E-11, 3.903E-11, 4.965E-12
DataValue, -0.25, 0.1, -6.8498E-12, 3.215E-11, 5.4900000000000006E-11, 4.3934285714285712E-11, 3.215E-11, 6.8498E-12
DataValue, -0.18, 0.1, 1.1858E-12, 6.7000000000000007E-13, -4.12E-12, 2.5914285714285713E-11, 6.7000000000000007E-13, 1.1858E-12
DataValue, -0.11, 0.1, -3.2218E-12, 5.0130000000000006E-11, -3.5400000000000003E-12, 6.9237142857142868E-11, 5.0130000000000006E-11, 3.2218E-12
DataValue, -0.04, 0.1, 1.0879E-11, 1.432E-11, 4.8300000000000004E-11, 9.0701285714285713E-10, 1.432E-11, 1.0879E-11
DataValue, 0.03, 0.1, 1.2376000000000002E-10, 2.2040000000000002E-11, -1.0225000000000001E-10, 3.0981499999999997E-09, 2.2040000000000002E-11, 1.2376000000000002E-10
DataValue, 0.1, 0.1, 4.4462E-10, -4.265E-11, -4.7028000000000006E-10, 7.4702857142857137E-09, 4.265E-11, 4.4462E-10
DataValue, 0.17, 0.1, 1.1696E-09, 1.03E-12, -1.0318E-09, 1.2891285714285716E-08, 1.03E-12, 1.1696E-09
DataValue, 0.24, 0.1, 2.2494E-09, 2.753E-11, -2.2011E-09, 1.6106428571428573E-08, 2.753E-11, 2.2494E-09
DataValue, 0.31, 0.1, 3.4245E-09, -4.5290000000000006E-11, -3.3871E-09, 1.670785714285714E-08, 4.5290000000000006E-11, 3.4245E-09
DataValue, 0.38, 0.1, 4.5885E-09, 4.99E-12, -4.4857E-09, 1.8785E-08, 4.99E-12, 4.5885E-09
DataValue, 0.45, 0.1, 6.0544E-09, 6.8000000000000009E-12, -5.9343E-09, 2.1899285714285713E-08, 6.8000000000000009E-12, 6.0544E-09
DataValue, 0.52, 0.1, 7.6544E-09, -5.4310000000000004E-11, -7.2412E-09, 2.0821428571428572E-08, 5.4310000000000004E-11, 7.6544E-09
DataValue, 0.59, 0.1, 8.9694E-09, -3.052E-11, -8.7125E-09, 2.6699999999999988E-08, 3.052E-11, 8.9694E-09
DataValue, 0.66, 0.1, 1.1392399999999999E-08, -4.4380000000000006E-11, -1.1199799999999999E-08, 4.1528571428571427E-08, 4.4380000000000006E-11, 1.1392399999999999E-08
DataValue, 0.73, 0.1, 1.47834E-08, -3.496E-11, -1.4616999999999998E-08, 5.4864285714285695E-08, 3.496E-11, 1.47834E-08
DataValue, 0.8, 0.1, 1.9073399999999997E-08, 2.1000000000000003E-12, -1.8797199999999997E-08, 6.8449999999999968E-08, 2.1000000000000003E-12, 1.9073399999999997E-08
DataValue, 0.87, 0.1, 2.4366399999999996E-08, 5.48E-12, -2.40332E-08, 8.5838571428571445E-08, 5.48E-12, 2.4366399999999996E-08
DataValue, 0.94000000000000006, 0.1, 3.10908E-08, -5.474E-11, -3.0772E-08, 1.0828857142857142E-07, 5.474E-11, 3.10908E-08
DataValue, 1.01, 0.1, 3.9526799999999996E-08, 2.3350000000000002E-11, -3.9156799999999994E-08, 1.3727285714285711E-07, 2.3350000000000002E-11, 3.9526799999999996E-08
DataValue, 1.08, 0.1, 5.0309E-08, 5.5100000000000006E-12, -4.9778399999999993E-08, 1.7334857142857123E-07, 5.5100000000000006E-12, 5.0309E-08
DataValue, 1.1500000000000001, 0.1, 6.3795599999999989E-08, -2.5600000000000004E-12, -6.32512E-08, 2.1531571428571442E-07, 2.5600000000000004E-12, 6.3795599999999989E-08
DataValue, 1.22, 0.1, 8.04532E-08, 5.904000000000001E-11, -7.9808E-08, 2.6874571428571457E-07, 5.904000000000001E-11, 8.04532E-08
DataValue, 1.29, 0.1, 1.0142E-07, -3.3190000000000004E-11, -1.01E-07, 3.3404857142857115E-07, 3.3190000000000004E-11, 1.0142E-07
DataValue, 1.36, 0.1, 1.2722E-07, -4.78E-12, -1.2676E-07, 4.0085714285714304E-07, 4.78E-12, 1.2722E-07
DataValue, 1.43, 0.1, 1.5754E-07, 5.485E-11, -1.5283999999999998E-07, 4.5457142857142893E-07, 5.485E-11, 1.5754E-07
DataValue, 1.5, 0.1, 1.9086E-07, 1.7500000000000002E-12, -1.9046E-07, 5.42428571428571E-07, 1.7500000000000002E-12, 1.9086E-07
DataValue, 1.57, 0.1, 2.3348E-07, -4.716E-11, -2.3274E-07, 6.51571428571428E-07, 4.716E-11, 2.3348E-07
DataValue, 1.6400000000000001, 0.1, 2.8208E-07, 1.9E-12, -2.816E-07, 7.39571428571429E-07, 1.9E-12, 2.8208E-07
DataValue, 1.71, 0.1, 3.3702E-07, 4.735E-11, -3.3166E-07, 8.0671428571428635E-07, 4.735E-11, 3.3702E-07
DataValue, 1.78, 0.1, 3.9502E-07, 2.14E-12, -3.9494E-07, 8.981428571428564E-07, 2.14E-12, 3.9502E-07
DataValue, 1.85, 0.1, 4.6276E-07, -5.3250000000000004E-11, -4.617E-07, 1.0088571428571437E-06, 5.3250000000000004E-11, 4.6276E-07
DataValue, 1.92, 0.1, 5.3626E-07, 4.68E-12, -5.358E-07, 1.0861428571428576E-06, 4.68E-12, 5.3626E-07
DataValue, 1.99, 0.1, 6.1481999999999994E-07, 3.7390000000000006E-11, -6.1008E-07, 1.1418571428571419E-06, 3.7390000000000006E-11, 6.1481999999999994E-07
DataValue, 2.06, 0.1, 6.9612E-07, 2.52E-12, -6.9556E-07, 1.2264285714285729E-06, 2.52E-12, 6.9612E-07
DataValue, 2.13, 0.1, 7.8652E-07, -5.2930000000000005E-11, -7.8636E-07, 1.3211428571428558E-06, 5.2930000000000005E-11, 7.8652E-07
DataValue, 2.2, 0.1, 8.8108E-07, 5.74E-12, -8.8076E-07, 1.3867142857142839E-06, 5.74E-12, 8.8108E-07
DataValue, 2.27, 0.1, 9.8066E-07, 2.469E-11, -9.7761999999999988E-07, 1.4432857142857168E-06, 2.469E-11, 9.8066E-07
DataValue, 2.34, 0.1, 1.0831399999999999E-06, 2.5800000000000003E-12, -1.083E-06, 1.501E-06, 2.5800000000000003E-12, 1.0831399999999999E-06
DataValue, 2.41, 0.1, 1.1908E-06, 5.69E-12, -1.1897E-06, 1.5732857142857143E-06, 5.69E-12, 1.1908E-06
DataValue, 2.48, 0.1, 1.3034E-06, 3.28E-12, -1.3033E-06, 1.6292857142857128E-06, 3.28E-12, 1.3034E-06
DataValue, 2.5500000000000003, 0.1, 1.4189E-06, -4.49E-11, -1.4194000000000001E-06, 1.6771428571428561E-06, 4.49E-11, 1.4189E-06
DataValue, 2.62, 0.1, 1.5382000000000002E-06, 7.0400000000000007E-12, -1.5386000000000002E-06, 1.7271428571428624E-06, 7.0400000000000007E-12, 1.5382000000000002E-06
DataValue, 2.69, 0.1, 1.6607000000000003E-06, 5.47E-11, -1.6614E-06, 1.7607142857142849E-06, 5.47E-11, 1.6607000000000003E-06
DataValue, 2.7600000000000002, 0.1, 1.7847000000000003E-06, 3.43E-12, -1.7848000000000003E-06, 1.7849999999999994E-06, 3.43E-12, 1.7847000000000003E-06
DataValue, 2.83, 0.1, 1.9106000000000004E-06, -4.2950000000000004E-11, -1.9111000000000002E-06, 1.8135714285714328E-06, 4.2950000000000004E-11, 1.9106000000000004E-06
DataValue, 2.9, 0.1, 2.0386000000000003E-06, 6.062E-11, -2.0393E-06, 1.8378571428571387E-06, 6.062E-11, 2.0386000000000003E-06
DataValue, 2.97, 0.1, 2.1679E-06, 3.85E-12, -2.1682000000000003E-06, 1.8492857142857109E-06, 3.85E-12, 2.1679E-06
DataValue, 3.04, 0.1, 2.2975E-06, -4.945E-11, -2.2985E-06, 1.8600000000000049E-06, 4.945E-11, 2.2975E-06
DataValue, 3.11, 0.1, 2.4283E-06, 7.84E-12, -2.4290000000000004E-06, 1.8757142857142859E-06, 7.84E-12, 2.4283E-06
DataValue, 3.18, 0.1, 2.5601000000000003E-06, 6.162E-11, -2.56E-06, 1.8771428571428573E-06, 6.162E-11, 2.5601000000000003E-06
DataValue, 3.25, 0.1, 2.6911000000000004E-06, 3.9400000000000006E-12, -2.6915000000000004E-06, 1.8785714285714258E-06, 3.9400000000000006E-12, 2.6911000000000004E-06
DataValue, 3.3200000000000003, 0.1, 2.8231E-06, -4.832E-11, -2.8235E-06, 1.8835714285714277E-06, 4.832E-11, 2.8231E-06
DataValue, 3.39, 0.1, 2.9548000000000005E-06, 7.93E-12, -2.9548000000000005E-06, 1.8828571428571495E-06, 7.93E-12, 2.9548000000000005E-06
DataValue, 3.46, 0.1, 3.0867000000000004E-06, 6.0450000000000008E-11, -3.0869000000000005E-06, 1.8799999999999975E-06, 6.0450000000000008E-11, 3.0867000000000004E-06
DataValue, 3.5300000000000002, 0.1, 3.2180000000000004E-06, 4.46E-12, -3.2183E-06, 1.8799999999999975E-06, 4.46E-12, 3.2180000000000004E-06
DataValue, 3.6, 0.1, 3.3499000000000003E-06, -4.759E-11, -3.3501000000000003E-06, 1.8828571428571465E-06, 4.759E-11, 3.3499000000000003E-06
DataValue, 3.67, 0.1, 3.4816000000000003E-06, 9.07E-12, -3.4818000000000003E-06, 1.8785714285714258E-06, 9.07E-12, 3.4816000000000003E-06
DataValue, 3.74, 0.1, 3.6129E-06, 5.986E-11, -3.6132000000000004E-06, 1.8771428571428573E-06, 5.986E-11, 3.6129E-06
DataValue, 3.81, 0.1, 3.7444000000000005E-06, 5.4200000000000007E-12, -3.7444000000000005E-06, 1.8692857142857183E-06, 5.4200000000000007E-12, 3.7444000000000005E-06
DataValue, 3.88, 0.1, 3.8746E-06, -4.509E-11, -3.8752000000000006E-06, 1.8664285714285693E-06, 4.509E-11, 3.8746E-06
DataValue, 3.95, 0.1, 4.0057000000000005E-06, 8.16E-12, -4.0058000000000007E-06, 1.8699999999999967E-06, 8.16E-12, 4.0057000000000005E-06
DataValue, 4.0200000000000005, 0.1, 4.1364000000000007E-06, 6.041E-11, -4.1363000000000005E-06, 1.8585714285714302E-06, 6.041E-11, 4.1364000000000007E-06
DataValue, 4.09, 0.1, 4.2659E-06, 5.28E-12, -4.266E-06, 1.8492857142857138E-06, 5.28E-12, 4.2659E-06
DataValue, 4.16, 0.1, 4.3953E-06, -4.4950000000000004E-11, -4.3955000000000005E-06, 1.8507142857142827E-06, 4.4950000000000004E-11, 4.3953E-06
DataValue, 4.23, 0.1, 4.5250000000000007E-06, 6.428000000000001E-11, -4.5251E-06, 1.8414285714285778E-06, 6.428000000000001E-11, 4.5250000000000007E-06
DataValue, 4.3, 0.1, 4.6531E-06, 5.49E-12, -4.6526E-06, 1.8264285714285752E-06, 5.49E-12, 4.6531E-06
DataValue, 4.37, 0.1, 4.7807000000000007E-06, -5.0710000000000005E-11, -4.7814000000000005E-06, 1.832857142857137E-06, 5.0710000000000005E-11, 4.7807000000000007E-06
DataValue, 4.44, 0.1, 4.9097000000000006E-06, 9.75E-12, -4.9091E-06, 1.8264285714285752E-06, 9.75E-12, 4.9097000000000006E-06
DataValue, 4.51, 0.1, 5.0364000000000006E-06, 5.2000000000000005E-12, -5.0348000000000005E-06, 1.799285714285719E-06, 5.2000000000000005E-12, 5.0364000000000006E-06
DataValue, 4.58, 0.1, 5.1616000000000007E-06, -4.2300000000000005E-11, -5.1621000000000009E-06, 1.7992857142857075E-06, 4.2300000000000005E-11, 5.1616000000000007E-06
DataValue, 4.65, 0.1, 5.2883000000000007E-06, 9.54E-12, -5.2887000000000007E-06, 1.8085714285714294E-06, 9.54E-12, 5.2883000000000007E-06
DataValue, 4.72, 0.1, 5.4148E-06, 8.070000000000001E-12, -5.4124000000000009E-06, 1.7857142857142908E-06, 8.070000000000001E-12, 5.4148E-06
DataValue, 4.79, 0.1, 5.5383000000000008E-06, -2.2080000000000003E-11, -5.5381E-06, 1.773571428571426E-06, 2.2080000000000003E-11, 5.5383000000000008E-06
DataValue, 4.86, 0.1, 5.6631000000000009E-06, 6.9900000000000007E-12, -5.6629000000000004E-06, 1.7792857142857175E-06, 6.9900000000000007E-12, 5.6631000000000009E-06
DataValue, 4.93, 0.1, 5.7874000000000007E-06, 1.5870000000000002E-11, -5.7850000000000005E-06, 1.7492857142857182E-06, 1.5870000000000002E-11, 5.7874000000000007E-06
DataValue, 5, 0.1, 5.9080000000000009E-06, 3.9000000000000005E-13, -5.9075000000000006E-06, 1.6742857142857003E-06, 3.9000000000000005E-13, 5.9080000000000009E-06
DataValue, 5, 0.1, 5.9046E-06, 4.78E-12, -5.9045000000000008E-06, 1.9499999999999966E-06, 4.78E-12, 5.9046E-06
DataValue, 4.93, 0.1, 5.7715000000000006E-06, -1.392E-11, -5.7709000000000009E-06, 1.9071428571428566E-06, 1.392E-11, 5.7715000000000006E-06
