
SetupTitle, output RollOut
PrimitiveTest, I/V Sweep
TestParameter, Context.MainFrame, B1500A
TestParameter, Channel.UnitType, SMU, SMU, SMU
TestParameter, Channel.Unit, SMU2:HR, SMU3:MP, SMU4:MP
TestParameter, Channel.IName, ID, IG, IS
TestParameter, Channel.VName, VD, VG, VS
TestParameter, Channel.Mode, V, V, COMMON
TestParameter, Channel.Func, VAR1, VAR2, CONST
TestParameter, Channel.Index, 
TestParameter, Channel.Time, 
TestParameter, Measurement.Port.Unit, SMU2:HR, SMU3:MP, SMU4:MP
TestParameter, Measurement.Port.SeriesResistor, NONE, NONE, NONE
TestParameter, Measurement.Port.Filter, ON, ON, ON
TestParameter, Measurement.Port.OutputVoltageComparison, 0, 0, 0
TestParameter, Measurement.Primary.Locus, Single
TestParameter, Measurement.Primary.Scale, LINEAR
TestParameter, Measurement.Primary.Start, 0
TestParameter, Measurement.Primary.Stop, 5
TestParameter, Measurement.Primary.Step, 0.1
TestParameter, Measurement.Primary.Compliance, 0.01
TestParameter, Measurement.Primary.PowerCompliance, 0
TestParameter, Measurement.Aborting.Condition, CONTINUE AT ANY
TestParameter, Measurement.PostOutput.Value, START
TestParameter, Measurement.PostOutput.Retention, OFF
TestParameter, Measurement.Secondary.Start, 0
TestParameter, Measurement.Secondary.Count, 7
TestParameter, Measurement.Secondary.Step, 0.5
TestParameter, Measurement.Secondary.Compliance, 1E-06
TestParameter, Measurement.Secondary.PowerCompliance, 0
TestParameter, Measurement.Bias.Source, 0, 0, 0
TestParameter, Measurement.Bias.Compliance, 0.01, 1E-06, 0.1
TestParameter, Measurement.Monitor.Unit, SMU2:HR, SMU3:MP, SMU4:MP
TestParameter, Measurement.Monitor.Adc, HR ADC, HR ADC, HR ADC
TestParameter, Measurement.Monitor.Measurement, Compliance Side, Compliance Side, Compliance Side
TestParameter, Measurement.Monitor.RangingMode, LIMITED, LIMITED, LIMITED
TestParameter, Measurement.Monitor.RangeBoundary, 100pA, 1nA, 1nA
TestParameter, Measurement.Monitor.RangeRating, BY FULL RANGE, BY FULL RANGE, BY FULL RANGE
TestParameter, Measurement.Monitor.RangeRatingCoeff, 50, 50, 50
TestParameter, Measurement.Timing.Hold, 0.5
TestParameter, Measurement.Timing.Delay, 0.05
TestParameter, Measurement.Adc.HighSpeed.Mode, AUTO
TestParameter, Measurement.Adc.HighSpeed.Coeff, 1
TestParameter, Measurement.Adc.HighResolution.AutoZero, OFF
TestParameter, Measurement.Adc.HighResolution.Mode, AUTO
TestParameter, Measurement.Adc.HighResolution.Coeff, 6
TestParameter, Measurement.WaitTime.Source.Coeff, 1
TestParameter, Measurement.WaitTime.Source.Offset, 0
TestParameter, Measurement.WaitTime.Monitor.Coeff, 1
TestParameter, Measurement.WaitTime.Monitor.Offset, 0
TestParameter, Function.Analysis.Name, absIg, absId
TestParameter, Function.Analysis.Unit, A, A
TestParameter, Function.Analysis.Definition, abs(IG), abs(ID)
TestParameter, Output.Graph.Enabled, true
TestParameter, Output.Graph.AutoScaling, false
TestParameter, Output.Graph.XAxis.Data, VD
TestParameter, Output.Graph.XAxis.Scale, Linear
TestParameter, Output.Graph.XAxis.Left, 0
TestParameter, Output.Graph.XAxis.Right, 8
TestParameter, Output.Graph.XAxis.RunTimeAutoScale, true
TestParameter, Output.Graph.YAxis.Data, absId, absIg, IS
TestParameter, Output.Graph.YAxis.Scale, Linear, Log, Linear
TestParameter, Output.Graph.YAxis.Bottom, 0, 0, -0.1
TestParameter, Output.Graph.YAxis.Top, 1, 1, 0.1
TestParameter, Output.Graph.YAxis.Group, , , 
TestParameter, Output.Graph.YAxis.RunTimeAutoScale, true, true, true
TestParameter, Output.List.Data, VG, IG, ID, IS, IS, VD, absIg, absId
TestParameter, AutoAnalysis.Interpolation, false
TestParameter, AutoAnalysis.Line1.Enabled, false
TestParameter, AutoAnalysis.Line1.Type, 1
TestParameter, AutoAnalysis.Line1.Fix, True
TestParameter, AutoAnalysis.Line1.YAxis, 0
TestParameter, AutoAnalysis.Line1.Point1.Type, 0
TestParameter, AutoAnalysis.Line1.Point1.XY.X, 
TestParameter, AutoAnalysis.Line1.Point1.XY.Y, 
TestParameter, AutoAnalysis.Line1.Point1.Data.Var, 
TestParameter, AutoAnalysis.Line1.Point1.Data.Condition, 
TestParameter, AutoAnalysis.Line1.Point1.Data.Start, false
TestParameter, AutoAnalysis.Line1.Point1.Data.StartVar, 
TestParameter, AutoAnalysis.Line1.Point1.Data.StartCondition, 
TestParameter, AutoAnalysis.Line1.Point2.Type, 0
TestParameter, AutoAnalysis.Line1.Point2.XY.X, 
TestParameter, AutoAnalysis.Line1.Point2.XY.Y, 
TestParameter, AutoAnalysis.Line1.Point2.Data.Var, 
TestParameter, AutoAnalysis.Line1.Point2.Data.Condition, 
TestParameter, AutoAnalysis.Line1.Point2.Data.Start, false
TestParameter, AutoAnalysis.Line1.Point2.Data.StartVar, 
TestParameter, AutoAnalysis.Line1.Point2.Data.StartCondition, 
TestParameter, AutoAnalysis.Line1.GradientExpr, 0
TestParameter, AutoAnalysis.Line2.Enabled, false
TestParameter, AutoAnalysis.Line2.Type, 1
TestParameter, AutoAnalysis.Line2.Fix, True
TestParameter, AutoAnalysis.Line2.YAxis, 0
TestParameter, AutoAnalysis.Line2.Point1.Type, 0
TestParameter, AutoAnalysis.Line2.Point1.XY.X, 
TestParameter, AutoAnalysis.Line2.Point1.XY.Y, 
TestParameter, AutoAnalysis.Line2.Point1.Data.Var, 
TestParameter, AutoAnalysis.Line2.Point1.Data.Condition, 
TestParameter, AutoAnalysis.Line2.Point1.Data.Start, false
TestParameter, AutoAnalysis.Line2.Point1.Data.StartVar, 
TestParameter, AutoAnalysis.Line2.Point1.Data.StartCondition, 
TestParameter, AutoAnalysis.Line2.Point2.Type, 0
TestParameter, AutoAnalysis.Line2.Point2.XY.X, 
TestParameter, AutoAnalysis.Line2.Point2.XY.Y, 
TestParameter, AutoAnalysis.Line2.Point2.Data.Var, 
TestParameter, AutoAnalysis.Line2.Point2.Data.Condition, 
TestParameter, AutoAnalysis.Line2.Point2.Data.Start, false
TestParameter, AutoAnalysis.Line2.Point2.Data.StartVar, 
TestParameter, AutoAnalysis.Line2.Point2.Data.StartCondition, 
TestParameter, AutoAnalysis.Line2.GradientExpr, 0
TestParameter, AutoAnalysis.Marker.Enabled, false
TestParameter, AutoAnalysis.Marker.Data.Var, 
TestParameter, AutoAnalysis.Marker.Data.Condition, 
TestParameter, AutoAnalysis.Marker.Data.Start, false
TestParameter, AutoAnalysis.Marker.Data.StartVar, 
TestParameter, AutoAnalysis.Marker.Data.StartCondition, 
MetaData, TestRecord.EntryPoint, true
MetaData, TestRecord.RecordTime, 07/03/2019 12:23:53
MetaData, TestRecord.TestTarget, 6-15
MetaData, TestRecord.IterationIndex, 1
MetaData, TestRecord.Preservation, true
MetaData, TestRecord.Flag, 
MetaData, TestRecord.Remarks, good
MetaData, TestRecord.LinkKey, fcb94ad1-e97c-4e4e-9062-aac397eb57c0
Dimension1, 51, 51, 51, 51, 51, 51, 51
Dimension2, 7, 7, 7, 7, 7, 7, 7
DataName, VD, VG, ID, IG, IS, absIg, absId
DataValue, 0, 0, 2.0833999999999998E-12, 1.8820000000000003E-11, 8.325000000000001E-11, 1.8820000000000003E-11, 2.0833999999999998E-12
DataValue, 0.1, 0, 5.0302E-11, -6.7000000000000007E-13, -5.0640000000000006E-11, 6.7000000000000007E-13, 5.0302E-11
DataValue, 0.2, 0, 6.58186E-11, 1.621E-11, -6.7260000000000009E-11, 1.621E-11, 6.58186E-11
DataValue, 0.3, 0, 7.33966E-11, 5.1150000000000006E-11, -7.489E-11, 5.1150000000000006E-11, 7.33966E-11
DataValue, 0.4, 0, 8.9546E-11, -5.637E-11, -9.552000000000001E-11, 5.637E-11, 8.9546E-11
DataValue, 0.5, 0, 9.53552E-11, -3.1990000000000004E-11, -1.5471E-10, 3.1990000000000004E-11, 9.53552E-11
DataValue, 0.6, 0, 8.76244E-11, 1.93E-12, -2.642E-11, 1.93E-12, 8.76244E-11
DataValue, 0.70000000000000007, 0, 9.57384E-11, 1.09E-12, -9.7370000000000009E-11, 1.09E-12, 9.57384E-11
DataValue, 0.8, 0, 7.984E-11, -2.6070000000000003E-11, -1.0153000000000001E-10, 2.6070000000000003E-11, 7.984E-11
DataValue, 0.9, 0, 1.3726E-10, 1.8200000000000003E-12, -1.0004000000000001E-10, 1.8200000000000003E-12, 1.3726E-10
DataValue, 1, 0, 1.0283000000000001E-10, -5.6360000000000006E-11, -1.1537000000000001E-10, 5.6360000000000006E-11, 1.0283000000000001E-10
DataValue, 1.1, 0, 1.2671000000000002E-10, 1.726E-11, -1.0128000000000001E-10, 1.726E-11, 1.2671000000000002E-10
DataValue, 1.2, 0, 1.0866E-10, -5.0700000000000003E-11, -1.4358E-10, 5.0700000000000003E-11, 1.0866E-10
DataValue, 1.3, 0, 1.0466E-10, 5.3450000000000007E-11, -9.421E-11, 5.3450000000000007E-11, 1.0466E-10
DataValue, 1.4000000000000001, 0, 1.2501000000000002E-10, -4E-12, -1.9338E-10, 4E-12, 1.2501000000000002E-10
DataValue, 1.5, 0, 1.0712000000000001E-10, 5.233E-11, -7.745E-11, 5.233E-11, 1.0712000000000001E-10
DataValue, 1.6, 0, 1.3697000000000002E-10, -2.79E-12, -1.8530000000000002E-10, 2.79E-12, 1.3697000000000002E-10
DataValue, 1.7, 0, 1.1068000000000001E-10, 5.5110000000000004E-11, -9.716E-11, 5.5110000000000004E-11, 1.1068000000000001E-10
DataValue, 1.8, 0, 1.3241E-10, -3.0100000000000003E-12, -1.9831E-10, 3.0100000000000003E-12, 1.3241E-10
DataValue, 1.9000000000000001, 0, 1.1117E-10, 4.9980000000000005E-11, -7.861E-11, 4.9980000000000005E-11, 1.1117E-10
DataValue, 2, 0, 1.4497000000000002E-10, -2.26E-12, -1.8715000000000002E-10, 2.26E-12, 1.4497000000000002E-10
DataValue, 2.1, 0, 8.224E-11, -6.2300000000000007E-12, -1.1643E-10, 6.2300000000000007E-12, 8.224E-11
DataValue, 2.2, 0, 1.1668E-10, 5.605E-11, -9.87E-11, 5.605E-11, 1.1668E-10
DataValue, 2.3000000000000003, 0, 1.4131E-10, -3.7400000000000006E-12, -2.0218000000000002E-10, 3.7400000000000006E-12, 1.4131E-10
DataValue, 2.4, 0, 1.1537000000000001E-10, 4.2220000000000004E-11, -7.586000000000001E-11, 4.2220000000000004E-11, 1.1537000000000001E-10
DataValue, 2.5, 0, 1.5194000000000002E-10, -3.6800000000000005E-12, -1.8107E-10, 3.6800000000000005E-12, 1.5194000000000002E-10
DataValue, 2.6, 0, 9.341E-11, -1.2770000000000002E-11, -1.2209000000000002E-10, 1.2770000000000002E-11, 9.341E-11
DataValue, 2.7, 0, 1.2211E-10, 5.3290000000000004E-11, -9.6840000000000011E-11, 5.3290000000000004E-11, 1.2211E-10
DataValue, 2.8000000000000003, 0, 1.5166000000000002E-10, -3.1900000000000003E-12, -2.0545000000000003E-10, 3.1900000000000003E-12, 1.5166000000000002E-10
DataValue, 2.9, 0, 9.068E-11, -4.82E-12, -1.2682E-10, 4.82E-12, 9.068E-11
DataValue, 3, 0, 1.2773E-10, 5.2560000000000004E-11, -1.1330000000000001E-10, 5.2560000000000004E-11, 1.2773E-10
DataValue, 3.1, 0, 1.4921000000000002E-10, -5.13E-12, -2.1392000000000002E-10, 5.13E-12, 1.4921000000000002E-10
DataValue, 3.2, 0, 9.0140000000000011E-11, -2.5600000000000004E-12, -1.3045E-10, 2.5600000000000004E-12, 9.0140000000000011E-11
DataValue, 3.3000000000000003, 0, 1.3327000000000002E-10, 5.0010000000000004E-11, -1.2306E-10, 5.0010000000000004E-11, 1.3327000000000002E-10
DataValue, 3.4, 0, 1.4985E-10, -7.65E-12, -2.1413000000000001E-10, 7.65E-12, 1.4985E-10
DataValue, 3.5, 0, 9.371E-11, -4.0900000000000005E-12, -1.3027E-10, 4.0900000000000005E-12, 9.371E-11
DataValue, 3.6, 0, 1.4482000000000002E-10, 4.0910000000000004E-11, -1.3044000000000002E-10, 4.0910000000000004E-11, 1.4482000000000002E-10
DataValue, 3.7, 0, 1.5212000000000001E-10, -2.056E-11, -2.1558000000000002E-10, 2.056E-11, 1.5212000000000001E-10
DataValue, 3.8000000000000003, 0, 1.0024000000000001E-10, -5.4600000000000006E-12, -1.1539000000000002E-10, 5.4600000000000006E-12, 1.0024000000000001E-10
DataValue, 3.9, 0, 1.5809000000000002E-10, 2.7740000000000003E-11, -1.3577000000000001E-10, 2.7740000000000003E-11, 1.5809000000000002E-10
DataValue, 4, 0, 1.5427E-10, -3.874E-11, -2.0264E-10, 3.874E-11, 1.5427E-10
DataValue, 4.1, 0, 1.105E-10, -5.1700000000000008E-12, -1.0097000000000001E-10, 5.1700000000000008E-12, 1.105E-10
DataValue, 4.2, 0, 1.6932000000000002E-10, 1.657E-11, -1.3933E-10, 1.657E-11, 1.6932000000000002E-10
DataValue, 4.3, 0, 1.5446E-10, -5.1870000000000004E-11, -1.8954000000000003E-10, 5.1870000000000004E-11, 1.5446E-10
DataValue, 4.4, 0, 1.1632E-10, -4.3400000000000005E-12, -8.6690000000000013E-11, 4.3400000000000005E-12, 1.1632E-10
DataValue, 4.5, 0, 1.7839000000000002E-10, 7.41E-12, -1.4022E-10, 7.41E-12, 1.7839000000000002E-10
DataValue, 4.6000000000000005, 0, 1.5589000000000002E-10, -5.989E-11, -1.76E-10, 5.989E-11, 1.5589000000000002E-10
DataValue, 4.7, 0, 1.2740000000000002E-10, -4.5400000000000004E-12, -7.276E-11, 4.5400000000000004E-12, 1.2740000000000002E-10
DataValue, 4.8, 0, 1.9089000000000003E-10, -3.7900000000000006E-12, -1.4683E-10, 3.7900000000000006E-12, 1.9089000000000003E-10
DataValue, 4.9, 0, 1.5910000000000002E-10, -6.363E-11, -1.662E-10, 6.363E-11, 1.5910000000000002E-10
DataValue, 5, 0, 1.3748E-10, -7.3E-12, -6.575E-11, 7.3E-12, 1.3748E-10
DataValue, 0, 0.5, -1.41822E-11, 6.0000000000000007E-13, -1.029E-11, 6.0000000000000007E-13, 1.41822E-11
DataValue, 0.1, 0.5, 4.2023E-09, -3.0000000000000005E-14, -3.9682E-09, 3.0000000000000005E-14, 4.2023E-09
DataValue, 0.2, 0.5, 4.5149E-09, 3.2700000000000004E-12, -4.4362E-09, 3.2700000000000004E-12, 4.5149E-09
DataValue, 0.3, 0.5, 4.3841E-09, -5.503E-11, -4.3983E-09, 5.503E-11, 4.3841E-09
DataValue, 0.4, 0.5, 4.254E-09, 1.6300000000000001E-12, -4.1776E-09, 1.6300000000000001E-12, 4.254E-09
DataValue, 0.5, 0.5, 4.2089E-09, 4.2900000000000005E-12, -4.1615E-09, 4.2900000000000005E-12, 4.2089E-09
DataValue, 0.6, 0.5, 4.0739E-09, -5.5770000000000005E-11, -4.0806E-09, 5.5770000000000005E-11, 4.0739E-09
DataValue, 0.70000000000000007, 0.5, 3.9536E-09, 1.91E-12, -3.8924E-09, 1.91E-12, 3.9536E-09
DataValue, 0.8, 0.5, 3.9251E-09, 6.8800000000000006E-12, -3.885E-09, 6.8800000000000006E-12, 3.9251E-09
DataValue, 0.9, 0.5, 3.824E-09, -5.5180000000000004E-11, -3.8473E-09, 5.5180000000000004E-11, 3.824E-09
DataValue, 1, 0.5, 3.7257E-09, 1.9E-12, -3.6639E-09, 1.9E-12, 3.7257E-09
DataValue, 1.1, 0.5, 3.7061E-09, 8.04E-12, -3.6668E-09, 8.04E-12, 3.7061E-09
DataValue, 1.2, 0.5, 3.6307E-09, -5.2030000000000007E-11, -3.6507E-09, 5.2030000000000007E-11, 3.6307E-09
DataValue, 1.3, 0.5, 3.5563E-09, 1.31E-12, -3.5098E-09, 1.31E-12, 3.5563E-09
DataValue, 1.4000000000000001, 0.5, 3.5678E-09, 9.07E-12, -3.546E-09, 9.07E-12, 3.5678E-09
DataValue, 1.5, 0.5, 3.4975E-09, -5.1250000000000004E-11, -3.507E-09, 5.1250000000000004E-11, 3.4975E-09
DataValue, 1.6, 0.5, 3.414E-09, 1.12E-12, -3.3525E-09, 1.12E-12, 3.414E-09
DataValue, 1.7, 0.5, 3.4293E-09, 1.0800000000000001E-11, -3.3956E-09, 1.0800000000000001E-11, 3.4293E-09
DataValue, 1.8, 0.5, 3.3603E-09, -5.634E-11, -3.3762E-09, 5.634E-11, 3.3603E-09
DataValue, 1.9000000000000001, 0.5, 3.3101E-09, 1.22E-12, -3.2493E-09, 1.22E-12, 3.3101E-09
DataValue, 2, 0.5, 3.3423E-09, 2.37E-12, -3.3033E-09, 2.37E-12, 3.3423E-09
DataValue, 2.1, 0.5, 3.2838E-09, -5.6910000000000007E-11, -3.2939E-09, 5.6910000000000007E-11, 3.2838E-09
DataValue, 2.2, 0.5, 3.2303E-09, 4.1E-13, -3.1752E-09, 4.1E-13, 3.2303E-09
DataValue, 2.3000000000000003, 0.5, 3.255E-09, 3.85E-12, -3.2013E-09, 3.85E-12, 3.255E-09
DataValue, 2.4, 0.5, 3.2032E-09, -5.7600000000000007E-11, -3.1888E-09, 5.7600000000000007E-11, 3.2032E-09
DataValue, 2.5, 0.5, 3.1412E-09, 4.7E-13, -3.08E-09, 4.7E-13, 3.1412E-09
DataValue, 2.6, 0.5, 3.1812E-09, 2.9300000000000002E-12, -3.1498E-09, 2.9300000000000002E-12, 3.1812E-09
DataValue, 2.7, 0.5, 3.132E-09, -5.7930000000000007E-11, -3.1267E-09, 5.7930000000000007E-11, 3.132E-09
DataValue, 2.8000000000000003, 0.5, 3.0783E-09, -4.0000000000000006E-14, -3.013E-09, 4.0000000000000006E-14, 3.0783E-09
DataValue, 2.9, 0.5, 3.1054E-09, 1.36E-12, -3.082E-09, 1.36E-12, 3.1054E-09
DataValue, 3, 0.5, 3.0579E-09, -5.839E-11, -3.0667999999999998E-09, 5.839E-11, 3.0579E-09
DataValue, 3.1, 0.5, 3.0074E-09, -2.2000000000000002E-13, -2.9553E-09, 2.2000000000000002E-13, 3.0074E-09
DataValue, 3.2, 0.5, 3.0559E-09, 2.47E-12, -3.0065E-09, 2.47E-12, 3.0559E-09
DataValue, 3.3000000000000003, 0.5, 3.0123E-09, -5.7890000000000006E-11, -3.0202E-09, 5.7890000000000006E-11, 3.0123E-09
DataValue, 3.4, 0.5, 2.9537E-09, -1.4E-12, -2.9031E-09, 1.4E-12, 2.9537E-09
DataValue, 3.5, 0.5, 3.0097E-09, 5.0000000000000005E-12, -2.9704E-09, 5.0000000000000005E-12, 3.0097E-09
DataValue, 3.6, 0.5, 2.9513E-09, -5.736E-11, -2.9631E-09, 5.736E-11, 2.9513E-09
DataValue, 3.7, 0.5, 2.9254E-09, -2.44E-12, -2.8569E-09, 2.44E-12, 2.9254E-09
DataValue, 3.8000000000000003, 0.5, 2.968E-09, 3.28E-12, -2.9229E-09, 3.28E-12, 2.968E-09
DataValue, 3.9, 0.5, 2.9249E-09, -5.839E-11, -2.9336E-09, 5.839E-11, 2.9249E-09
DataValue, 4, 0.5, 2.8776E-09, -4.26E-12, -2.8237E-09, 4.26E-12, 2.8776E-09
DataValue, 4.1, 0.5, 2.9281E-09, 4.84E-12, -2.8916E-09, 4.84E-12, 2.9281E-09
DataValue, 4.2, 0.5, 2.8846E-09, -5.8100000000000005E-11, -2.8953E-09, 5.8100000000000005E-11, 2.8846E-09
DataValue, 4.3, 0.5, 2.8408E-09, -4.17E-12, -2.7884E-09, 4.17E-12, 2.8408E-09
DataValue, 4.4, 0.5, 2.8971E-09, 6.4800000000000007E-12, -2.8575E-09, 6.4800000000000007E-12, 2.8971E-09
DataValue, 4.5, 0.5, 2.8498E-09, -5.7780000000000006E-11, -2.8609E-09, 5.7780000000000006E-11, 2.8498E-09
DataValue, 4.6000000000000005, 0.5, 2.8127E-09, -4.12E-12, -2.7581E-09, 4.12E-12, 2.8127E-09
DataValue, 4.7, 0.5, 2.8579E-09, 4.11E-12, -2.8238E-09, 4.11E-12, 2.8579E-09
DataValue, 4.8, 0.5, 2.8259E-09, -5.835000000000001E-11, -2.8239E-09, 5.835000000000001E-11, 2.8259E-09
DataValue, 4.9, 0.5, 2.7808E-09, -4.4000000000000006E-12, -2.722E-09, 4.4000000000000006E-12, 2.7808E-09
DataValue, 5, 0.5, 2.8267E-09, 5.65E-12, -2.7859E-09, 5.65E-12, 2.8267E-09
DataValue, 0, 1, -2.2730000000000002E-11, 6.0000000000000007E-13, -8.63E-12, 6.0000000000000007E-13, 2.2730000000000002E-11
DataValue, 0.1, 1, 2.7722599999999998E-08, 2.54E-11, -2.6054399999999998E-08, 2.54E-11, 2.7722599999999998E-08
DataValue, 0.2, 1, 3.0202599999999994E-08, 5.677E-11, -3.00054E-08, 5.677E-11, 3.0202599999999994E-08
DataValue, 0.3, 1, 3.0234799999999995E-08, -5.2470000000000007E-11, -3.01022E-08, 5.2470000000000007E-11, 3.0234799999999995E-08
DataValue, 0.4, 1, 2.9643799999999996E-08, 5.1920000000000007E-11, -2.9562199999999998E-08, 5.1920000000000007E-11, 2.9643799999999996E-08
DataValue, 0.5, 1, 2.8980799999999996E-08, -4.1530000000000004E-11, -2.89584E-08, 4.1530000000000004E-11, 2.8980799999999996E-08
DataValue, 0.6, 1, 2.8487599999999998E-08, 2.9590000000000005E-11, -2.8427799999999997E-08, 2.9590000000000005E-11, 2.8487599999999998E-08
DataValue, 0.70000000000000007, 1, 2.7936199999999997E-08, -1.6940000000000002E-11, -2.7857799999999996E-08, 1.6940000000000002E-11, 2.7936199999999997E-08
DataValue, 0.8, 1, 2.7411799999999997E-08, 8.41E-12, -2.7463399999999998E-08, 8.41E-12, 2.7411799999999997E-08
DataValue, 0.9, 1, 2.6986399999999996E-08, -2.24E-12, -2.6931999999999996E-08, 2.24E-12, 2.6986399999999996E-08
DataValue, 1, 1, 2.66712E-08, -1.1500000000000002E-12, -2.6591199999999997E-08, 1.1500000000000002E-12, 2.66712E-08
DataValue, 1.1, 1, 2.6136799999999997E-08, 1.6E-12, -2.6113199999999998E-08, 1.6E-12, 2.6136799999999997E-08
DataValue, 1.2, 1, 2.5918399999999996E-08, -1.79E-12, -2.5911799999999996E-08, 1.79E-12, 2.5918399999999996E-08
DataValue, 1.3, 1, 2.5483199999999998E-08, 5.4E-13, -2.5445599999999997E-08, 5.4E-13, 2.5483199999999998E-08
DataValue, 1.4000000000000001, 1, 2.53358E-08, -1.2000000000000001E-12, -2.53806E-08, 1.2000000000000001E-12, 2.53358E-08
DataValue, 1.5, 1, 2.502E-08, 9.1000000000000016E-13, -2.4962399999999997E-08, 9.1000000000000016E-13, 2.502E-08
DataValue, 1.6, 1, 2.4781599999999998E-08, -2.8E-12, -2.48012E-08, 2.8E-12, 2.4781599999999998E-08
DataValue, 1.7, 1, 2.4509799999999998E-08, 2.6600000000000004E-12, -2.4463E-08, 2.6600000000000004E-12, 2.4509799999999998E-08
DataValue, 1.8, 1, 2.4307799999999997E-08, -2.8600000000000003E-12, -2.4319799999999998E-08, 2.8600000000000003E-12, 2.4307799999999997E-08
DataValue, 1.9000000000000001, 1, 2.4111799999999997E-08, 5.8300000000000008E-12, -2.4153799999999998E-08, 5.8300000000000008E-12, 2.4111799999999997E-08
DataValue, 2, 1, 2.38814E-08, -2.271E-11, -2.3941399999999998E-08, 2.271E-11, 2.38814E-08
DataValue, 2.1, 1, 2.3775799999999996E-08, 3.226E-11, -2.37138E-08, 3.226E-11, 2.3775799999999996E-08
DataValue, 2.2, 1, 2.3478799999999997E-08, -4.628E-11, -2.3458199999999998E-08, 4.628E-11, 2.3478799999999997E-08
DataValue, 2.3000000000000003, 1, 2.3379599999999996E-08, 5.346E-11, -2.3344599999999996E-08, 5.346E-11, 2.3379599999999996E-08
DataValue, 2.4, 1, 2.3247999999999997E-08, -5.703E-11, -2.32192E-08, 5.703E-11, 2.3247999999999997E-08
