
SetupTitle, TFT stab RollOut
PrimitiveTest, I/V Sweep
TestParameter, Context.MainFrame, B1500A
TestParameter, Channel.UnitType, SMU, SMU, SMU
TestParameter, Channel.Unit, SMU2:HR, SMU3:MP, SMU4:MP
TestParameter, Channel.IName, ID, IG, IS
TestParameter, Channel.VName, VD, VG, VS
TestParameter, Channel.Mode, V, V, COMMON
TestParameter, Channel.Func, CONST, VAR1, CONST
TestParameter, Channel.Index, 
TestParameter, Channel.Time, 
TestParameter, Measurement.Port.Unit, SMU2:HR, SMU3:MP, SMU4:MP
TestParameter, Measurement.Port.SeriesResistor, NONE, NONE, NONE
TestParameter, Measurement.Port.Filter, ON, ON, ON
TestParameter, Measurement.Port.OutputVoltageComparison, 0, 0, 0
TestParameter, Measurement.Primary.Locus, Single
TestParameter, Measurement.Primary.Scale, LINEAR
TestParameter, Measurement.Primary.Start, -2
TestParameter, Measurement.Primary.Stop, 3
TestParameter, Measurement.Primary.Step, 0.05
TestParameter, Measurement.Primary.Compliance, 0.001
TestParameter, Measurement.Primary.PowerCompliance, 0
TestParameter, Measurement.Aborting.Condition, CONTINUE AT ANY
TestParameter, Measurement.PostOutput.Value, START
TestParameter, Measurement.PostOutput.Retention, OFF
TestParameter, Measurement.Bias.Source, 3, -2, 0
TestParameter, Measurement.Bias.Compliance, 0.0001, 0.001, 0.1
TestParameter, Measurement.Monitor.Unit, SMU2:HR, SMU3:MP, SMU4:MP
TestParameter, Measurement.Monitor.Adc, HR ADC, HR ADC, HR ADC
TestParameter, Measurement.Monitor.Measurement, Compliance Side, Compliance Side, Compliance Side
TestParameter, Measurement.Monitor.RangingMode, LIMITED, LIMITED, LIMITED
TestParameter, Measurement.Monitor.RangeBoundary, 100pA, 1nA, 1nA
TestParameter, Measurement.Monitor.RangeRating, BY FULL RANGE, BY FULL RANGE, BY FULL RANGE
TestParameter, Measurement.Monitor.RangeRatingCoeff, 50, 50, 50
TestParameter, Measurement.Timing.Hold, 0.5
TestParameter, Measurement.Timing.Delay, 0.05
TestParameter, Measurement.Adc.HighSpeed.Mode, AUTO
TestParameter, Measurement.Adc.HighSpeed.Coeff, 1
TestParameter, Measurement.Adc.HighResolution.AutoZero, OFF
TestParameter, Measurement.Adc.HighResolution.Mode, AUTO
TestParameter, Measurement.Adc.HighResolution.Coeff, 6
TestParameter, Measurement.WaitTime.Source.Coeff, 1
TestParameter, Measurement.WaitTime.Source.Offset, 0
TestParameter, Measurement.WaitTime.Monitor.Coeff, 1
TestParameter, Measurement.WaitTime.Monitor.Offset, 0
TestParameter, Function.Analysis.Name, dIddVg, absIg, absId
TestParameter, Function.Analysis.Unit, S, A, A
TestParameter, Function.Analysis.Definition, (delta(sqrt(ID))/delta(VG))^2, abs(IG), abs(ID)
TestParameter, Output.Graph.Enabled, true
TestParameter, Output.Graph.AutoScaling, false
TestParameter, Output.Graph.XAxis.Data, VG
TestParameter, Output.Graph.XAxis.Scale, Linear
TestParameter, Output.Graph.XAxis.Left, -2
TestParameter, Output.Graph.XAxis.Right, 6
TestParameter, Output.Graph.XAxis.RunTimeAutoScale, true
TestParameter, Output.Graph.YAxis.Data, ID, absIg
TestParameter, Output.Graph.YAxis.Scale, Log, Log
TestParameter, Output.Graph.YAxis.Bottom, 0.001, 0
TestParameter, Output.Graph.YAxis.Top, 0.01, 1
TestParameter, Output.Graph.YAxis.Group, , 
TestParameter, Output.Graph.YAxis.RunTimeAutoScale, true, true
TestParameter, Output.List.Data, VG, IG, ID, IS, VD, dIddVg, absIg, absId
TestParameter, AutoAnalysis.Interpolation, false
TestParameter, AutoAnalysis.Line1.Enabled, false
TestParameter, AutoAnalysis.Line1.Type, 1
TestParameter, AutoAnalysis.Line1.Fix, True
TestParameter, AutoAnalysis.Line1.YAxis, 0
TestParameter, AutoAnalysis.Line1.Point1.Type, 0
TestParameter, AutoAnalysis.Line1.Point1.XY.X, 
TestParameter, AutoAnalysis.Line1.Point1.XY.Y, 
TestParameter, AutoAnalysis.Line1.Point1.Data.Var, 
TestParameter, AutoAnalysis.Line1.Point1.Data.Condition, 
TestParameter, AutoAnalysis.Line1.Point1.Data.Start, false
TestParameter, AutoAnalysis.Line1.Point1.Data.StartVar, 
TestParameter, AutoAnalysis.Line1.Point1.Data.StartCondition, 
TestParameter, AutoAnalysis.Line1.Point2.Type, 0
TestParameter, AutoAnalysis.Line1.Point2.XY.X, 
TestParameter, AutoAnalysis.Line1.Point2.XY.Y, 
TestParameter, AutoAnalysis.Line1.Point2.Data.Var, 
TestParameter, AutoAnalysis.Line1.Point2.Data.Condition, 
TestParameter, AutoAnalysis.Line1.Point2.Data.Start, false
TestParameter, AutoAnalysis.Line1.Point2.Data.StartVar, 
TestParameter, AutoAnalysis.Line1.Point2.Data.StartCondition, 
TestParameter, AutoAnalysis.Line1.GradientExpr, 0
TestParameter, AutoAnalysis.Line2.Enabled, false
TestParameter, AutoAnalysis.Line2.Type, 1
TestParameter, AutoAnalysis.Line2.Fix, True
TestParameter, AutoAnalysis.Line2.YAxis, 0
TestParameter, AutoAnalysis.Line2.Point1.Type, 0
TestParameter, AutoAnalysis.Line2.Point1.XY.X, 
TestParameter, AutoAnalysis.Line2.Point1.XY.Y, 
TestParameter, AutoAnalysis.Line2.Point1.Data.Var, 
TestParameter, AutoAnalysis.Line2.Point1.Data.Condition, 
TestParameter, AutoAnalysis.Line2.Point1.Data.Start, false
TestParameter, AutoAnalysis.Line2.Point1.Data.StartVar, 
TestParameter, AutoAnalysis.Line2.Point1.Data.StartCondition, 
TestParameter, AutoAnalysis.Line2.Point2.Type, 0
TestParameter, AutoAnalysis.Line2.Point2.XY.X, 
TestParameter, AutoAnalysis.Line2.Point2.XY.Y, 
TestParameter, AutoAnalysis.Line2.Point2.Data.Var, 
TestParameter, AutoAnalysis.Line2.Point2.Data.Condition, 
TestParameter, AutoAnalysis.Line2.Point2.Data.Start, false
TestParameter, AutoAnalysis.Line2.Point2.Data.StartVar, 
TestParameter, AutoAnalysis.Line2.Point2.Data.StartCondition, 
TestParameter, AutoAnalysis.Line2.GradientExpr, 0
TestParameter, AutoAnalysis.Marker.Enabled, false
TestParameter, AutoAnalysis.Marker.Data.Var, 
TestParameter, AutoAnalysis.Marker.Data.Condition, 
TestParameter, AutoAnalysis.Marker.Data.Start, false
TestParameter, AutoAnalysis.Marker.Data.StartVar, 
TestParameter, AutoAnalysis.Marker.Data.StartCondition, 
MetaData, TestRecord.EntryPoint, true
MetaData, TestRecord.RecordTime, 07/03/2019 11:24:03
MetaData, TestRecord.TestTarget, 6-43
MetaData, TestRecord.IterationIndex, 5
MetaData, TestRecord.Preservation, true
MetaData, TestRecord.Flag, 
MetaData, TestRecord.Remarks, good
MetaData, TestRecord.LinkKey, b62774b5-1e20-40f0-ab48-a89064cde0e4
Dimension1, 101, 101, 101, 101, 101, 101, 101, 101
Dimension2, 1, 1, 1, 1, 1, 1, 1, 1
DataName, VG, VD, ID, IG, IS, dIddVg, absIg, absId
DataValue, -2, 3, 4.5447E-11, -6.019E-11, 1.0320000000000001E-11, 3.8161889842400487E-10, 6.019E-11, 4.5447E-11
DataValue, -1.95, 3, 3.32316E-11, -4.6670000000000005E-11, 8.2060000000000012E-11, 5.3591624765509522E-11, 4.6670000000000005E-11, 3.32316E-11
DataValue, -1.9000000000000001, 3, 3.61126E-11, -4.7880000000000007E-11, 1.1740000000000001E-11, 4.2702722894782568E-12, 4.7880000000000007E-11, 3.61126E-11
DataValue, -1.85, 3, 3.08918E-11, -4.6500000000000006E-12, 8.13E-12, 7.54529822715834E-11, 4.6500000000000006E-12, 3.08918E-11
DataValue, -1.8, 3, 2.64272E-11, -1.795E-11, 6.229E-11, 4.21381522930094E-12, 1.795E-11, 2.64272E-11
DataValue, -1.75, 3, 3.32158E-11, -4.156E-11, 3.81E-12, 3.38543398715602E-12, 4.156E-11, 3.32158E-11
DataValue, -1.7, 3, 2.83528E-11, 6.5300000000000007E-12, 4.4400000000000005E-12, 7.8252808077863073E-11, 6.5300000000000007E-12, 2.83528E-11
DataValue, -1.6500000000000001, 3, 2.38018E-11, -2.2410000000000003E-11, 6.189E-11, 1.3044931697080395E-11, 2.2410000000000003E-11, 2.38018E-11
DataValue, -1.6, 3, 3.23296E-11, -3.496E-11, 7.5E-13, 5.3209136649367763E-11, 3.496E-11, 3.23296E-11
DataValue, -1.55, 3, 3.14514E-11, -6.297E-11, 4.37E-12, 1.1527075211134927E-12, 6.297E-11, 3.14514E-11
DataValue, -1.5, 3, 3.11202E-11, -6.017000000000001E-11, -4.0470000000000003E-11, 7.2751876419402211E-11, 6.017000000000001E-11, 3.11202E-11
DataValue, -1.45, 3, 2.2612E-11, -2.4650000000000003E-11, 1.249E-11, 4.3550624936889848E-12, 2.4650000000000003E-11, 2.2612E-11
DataValue, -1.4000000000000001, 3, 2.8835399999999998E-11, -6.631E-11, 2.8E-12, 4.704521674865646E-11, 6.631E-11, 2.8835399999999998E-11
DataValue, -1.35, 3, 2.96056E-11, -4.81E-11, -5.1650000000000004E-11, 1.0637474627930634E-10, 4.81E-11, 2.96056E-11
DataValue, -1.3, 3, 1.88224E-11, -1.9910000000000002E-11, 6.5900000000000008E-12, 6.8447165064212055E-12, 1.9910000000000002E-11, 1.88224E-11
DataValue, -1.25, 3, 2.6827E-11, -6.672E-11, 1.2500000000000001E-12, 6.3596273439548933E-11, 6.672E-11, 2.6827E-11
DataValue, -1.2, 3, 2.6378E-11, -3.602E-11, -6.0340000000000008E-11, 6.6423894108030836E-11, 3.602E-11, 2.6378E-11
DataValue, -1.1500000000000001, 3, 1.90486E-11, -1.7670000000000002E-11, 1E-12, 1.9408537697601775E-10, 1.7670000000000002E-11, 1.90486E-11
DataValue, -1.1, 3, 1.40086E-11, 1.499E-11, -5.1E-13, 6.306711589379108E-11, 1.499E-11, 1.40086E-11
DataValue, -1.05, 3, 1.27472E-11, 1.2680000000000002E-11, 4.425E-11, 6.0575030733602833E-11, 1.2680000000000002E-11, 1.27472E-11
DataValue, -1, 3, 2.04404E-11, -1.726E-11, -6.4900000000000008E-12, 1.2723123754708142E-11, 1.726E-11, 2.04404E-11
DataValue, -0.95000000000000007, 3, 1.03274E-11, 2.7300000000000002E-11, -5.4E-13, 2.4536555579422626E-10, 2.7300000000000002E-11, 1.03274E-11
DataValue, -0.9, 3, 8.7302E-12, 4.8100000000000007E-12, 6.192E-11, 4.2792901149351773E-11, 4.8100000000000007E-12, 8.7302E-12
DataValue, -0.85, 3, 1.49598E-11, -1.3740000000000001E-11, -5.2600000000000006E-12, 1.0890565317863966E-12, 1.3740000000000001E-11, 1.49598E-11
DataValue, -0.8, 3, 8.1244E-12, 3.5120000000000004E-11, -4.17E-12, 2.1993037145555757E-10, 3.5120000000000004E-11, 8.1244E-12
DataValue, -0.75, 3, 5.6872E-12, -4.8100000000000007E-12, 6.403000000000001E-11, 6.4273445324694672E-11, 4.8100000000000007E-12, 5.6872E-12
DataValue, -0.70000000000000007, 3, 1.33374E-11, -1.0920000000000001E-11, -2.0500000000000004E-12, 2.6137661406401355E-10, 1.0920000000000001E-11, 1.33374E-11
DataValue, -0.65, 3, 1.6012E-11, -4.8090000000000005E-11, 1.8100000000000002E-12, 1.8348510393446871E-11, 4.8090000000000005E-11, 1.6012E-11
DataValue, -0.6, 3, 1.66496E-11, -3.58E-11, -4.997E-11, 1.2340860256812693E-10, 3.58E-11, 1.66496E-11
DataValue, -0.55, 3, 8.3556E-12, -7.4700000000000011E-12, 3.2100000000000003E-12, 8.8323342864764131E-12, 7.4700000000000011E-12, 8.3556E-12
DataValue, -0.5, 3, 1.43126E-11, -5.08E-11, -1.73E-12, 2.6411674082619355E-10, 5.08E-11, 1.43126E-11
DataValue, -0.45, 3, 2.03922E-11, -2.562E-11, -6.5770000000000009E-11, 1.5061900230024314E-10, 2.562E-11, 2.03922E-11
DataValue, -0.4, 3, 2.51048E-11, -8.0800000000000011E-12, -1.068E-11, 1.5693694103752567E-09, 8.0800000000000011E-12, 2.51048E-11
DataValue, -0.35000000000000003, 3, 7.18646E-11, -5.5010000000000006E-11, -5.8550000000000007E-11, 7.7925147198819245E-09, 5.5010000000000006E-11, 7.18646E-11
DataValue, -0.3, 3, 1.9149E-10, 3.503E-11, -1.8232000000000002E-10, 1.7551644295289317E-08, 3.503E-11, 1.9149E-10
DataValue, -0.25, 3, 4.72E-10, -1.6470000000000002E-11, -5.1634E-10, 2.1526779124307949E-08, 1.6470000000000002E-11, 4.72E-10
DataValue, -0.2, 3, 8.1282000000000009E-10, -1.252E-11, -7.5297E-10, 1.6368640248846339E-08, 1.252E-11, 8.1282000000000009E-10
DataValue, -0.15, 3, 1.1916E-09, 1.47E-11, -1.2051E-09, 1.5667083922899614E-08, 1.47E-11, 1.1916E-09
DataValue, -0.1, 3, 1.6832E-09, -1.73E-12, -1.6289E-09, 1.547535351879979E-08, 1.73E-12, 1.6832E-09
DataValue, -0.05, 3, 2.2052E-09, 5.1500000000000005E-12, -2.1462E-09, 1.0380373120287484E-08, 5.1500000000000005E-12, 2.2052E-09
DataValue, 0, 3, 2.623E-09, -5.4600000000000004E-11, -2.582E-09, 7.7498686321099613E-09, 5.4600000000000004E-11, 2.623E-09
DataValue, 0.05, 3, 3.1095E-09, -1.31E-12, -3.0276999999999998E-09, 9.6126981963107872E-09, 1.31E-12, 3.1095E-09
DataValue, 0.1, 3, 3.7234E-09, -2.19E-12, -3.642E-09, 1.0291331629416917E-08, 2.19E-12, 3.7234E-09
DataValue, 0.15, 3, 4.3438E-09, -4.9510000000000005E-11, -4.2933E-09, 1.0842675052282679E-08, 4.9510000000000005E-11, 4.3438E-09
DataValue, 0.2, 3, 5.1026E-09, 5.0000000000000005E-12, -4.9819E-09, 1.3560723299612232E-08, 5.0000000000000005E-12, 5.1026E-09
DataValue, 0.25, 3, 6.0144E-09, -2.9400000000000004E-12, -5.9437E-09, 1.5487318935495861E-08, 2.9400000000000004E-12, 6.0144E-09
DataValue, 0.3, 3, 7.0354E-09, -3.642E-11, -6.7559E-09, 1.699966298016297E-08, 3.642E-11, 7.0354E-09
DataValue, 0.35000000000000003, 3, 8.2067E-09, -4.4620000000000003E-11, -7.8437E-09, 1.3569038028607159E-08, 4.4620000000000003E-11, 8.2067E-09
DataValue, 0.4, 3, 9.1252E-09, -5.2670000000000004E-11, -8.909E-09, 6.4442655595215337E-09, 5.2670000000000004E-11, 9.1252E-09
DataValue, 0.45, 3, 9.7256E-09, 1.5400000000000001E-12, -9.5496E-09, 7.84980065788161E-09, 1.5400000000000001E-12, 9.7256E-09
DataValue, 0.5, 3, 1.0896399999999999E-08, -3.409E-11, -1.0821599999999999E-08, 4.258400937360763E-08, 3.409E-11, 1.0896399999999999E-08
DataValue, 0.55, 3, 1.4221599999999998E-08, -4.7E-13, -1.4077999999999999E-08, 7.5844685724910633E-08, 4.7E-13, 1.4221599999999998E-08
DataValue, 0.6, 3, 1.7404399999999997E-08, 1.1100000000000001E-12, -1.72196E-08, 7.01935392526568E-08, 1.1100000000000001E-12, 1.7404399999999997E-08
DataValue, 0.65, 3, 2.12426E-08, -3.889E-11, -2.1074599999999997E-08, 8.13739822035711E-08, 3.889E-11, 2.12426E-08
DataValue, 0.70000000000000007, 3, 2.57448E-08, 3.4390000000000004E-11, -2.5489599999999997E-08, 8.94765066041141E-08, 3.4390000000000004E-11, 2.57448E-08
DataValue, 0.75, 3, 3.08568E-08, 7.6000000000000009E-13, -3.0597999999999994E-08, 1.0599547425622105E-07, 7.6000000000000009E-13, 3.08568E-08
DataValue, 0.8, 3, 3.72524E-08, -2.69E-12, -3.6765399999999994E-08, 1.250115432393463E-07, 2.69E-12, 3.72524E-08
DataValue, 0.85, 3, 4.4528599999999993E-08, 5.1660000000000006E-11, -4.4142799999999996E-08, 1.4398457849822127E-07, 5.1660000000000006E-11, 4.4528599999999993E-08
DataValue, 0.9, 3, 5.3339799999999996E-08, -8.66E-12, -5.2778999999999992E-08, 1.7768488271212708E-07, 8.66E-12, 5.3339799999999996E-08
DataValue, 0.95000000000000007, 3, 6.4095399999999988E-08, -1.2400000000000002E-12, -6.3314399999999989E-08, 2.0541348913768308E-07, 1.2400000000000002E-12, 6.4095399999999988E-08
DataValue, 1, 3, 7.63288E-08, 1.881E-11, -7.57994E-08, 2.2472423102152172E-07, 1.881E-11, 7.63288E-08
DataValue, 1.05, 3, 9.03458E-08, 2.931E-11, -8.95834E-08, 2.6244157913939126E-07, 2.931E-11, 9.03458E-08
DataValue, 1.1, 3, 1.0726E-07, 3.25E-12, -1.0382E-07, 3.100546646427254E-07, 3.25E-12, 1.0726E-07
DataValue, 1.1500000000000001, 3, 1.2692E-07, 3.8870000000000004E-11, -1.2657999999999999E-07, 4.0021753491407822E-07, 3.8870000000000004E-11, 1.2692E-07
DataValue, 1.2, 3, 1.5269999999999998E-07, -2.1000000000000001E-13, -1.5234E-07, 4.9863388351210581E-07, 2.1000000000000001E-13, 1.5269999999999998E-07
DataValue, 1.25, 3, 1.8222E-07, -5.1030000000000004E-11, -1.8154E-07, 5.4903799787294277E-07, 5.1030000000000004E-11, 1.8222E-07
DataValue, 1.3, 3, 2.1609999999999998E-07, 8.8000000000000009E-13, -2.1478E-07, 6.0691628967406074E-07, 8.8000000000000009E-13, 2.1609999999999998E-07
DataValue, 1.35, 3, 2.548E-07, 1.106E-11, -2.5455999999999997E-07, 6.8562060709315737E-07, 1.106E-11, 2.548E-07
DataValue, 1.4000000000000001, 3, 2.9993999999999997E-07, 2.7360000000000003E-11, -2.99E-07, 8.0909394421167127E-07, 2.7360000000000003E-11, 2.9993999999999997E-07
DataValue, 1.45, 3, 3.537E-07, 2.5E-13, -3.5286E-07, 9.1284483999315237E-07, 2.5E-13, 3.537E-07
DataValue, 1.5, 3, 4.1372E-07, -4.9210000000000004E-11, -4.1224E-07, 9.9015559014851549E-07, 4.9210000000000004E-11, 4.1372E-07
DataValue, 1.55, 3, 4.8196E-07, 2.9E-12, -4.8164E-07, 1.1230812694242634E-06, 2.9E-12, 4.8196E-07
DataValue, 1.6, 3, 5.6128E-07, 2.143E-11, -5.5794E-07, 1.2670371046561662E-06, 2.143E-11, 5.6128E-07
DataValue, 1.6500000000000001, 3, 6.5092E-07, 2.1390000000000003E-11, -6.4894E-07, 1.3559785357447016E-06, 2.1390000000000003E-11, 6.5092E-07
DataValue, 1.7, 3, 7.4932E-07, -1.27E-12, -7.4782E-07, 1.5266737068979954E-06, 1.27E-12, 7.4932E-07
DataValue, 1.75, 3, 8.6556E-07, -4.712E-11, -8.6102E-07, 1.6226401319517674E-06, 4.712E-11, 8.6556E-07
DataValue, 1.8, 3, 9.8608E-07, -4.3170000000000004E-11, -9.8528E-07, 1.6358028034098981E-06, 4.3170000000000004E-11, 9.8608E-07
DataValue, 1.85, 3, 1.1199E-06, 3.4400000000000003E-12, -1.1014000000000002E-06, 1.9338275083611755E-06, 3.4400000000000003E-12, 1.1199E-06
DataValue, 1.9000000000000001, 3, 1.2816000000000002E-06, -2.06E-12, -1.2778E-06, 2.3721334565274774E-06, 2.06E-12, 1.2816000000000002E-06
DataValue, 1.95, 3, 1.4696E-06, -1.14E-11, -1.4673000000000001E-06, 2.6101809491852925E-06, 1.14E-11, 1.4696E-06
DataValue, 2, 3, 1.6735000000000002E-06, 4.3900000000000005E-12, -1.6736000000000002E-06, 2.8572200772289897E-06, 4.3900000000000005E-12, 1.6735000000000002E-06
DataValue, 2.05, 3, 1.908E-06, 1.6800000000000003E-11, -1.9050000000000002E-06, 3.174217460329527E-06, 1.6800000000000003E-11, 1.908E-06
DataValue, 2.1, 3, 2.1662E-06, -1.5200000000000002E-12, -2.1601000000000003E-06, 3.4389659925018678E-06, 1.5200000000000002E-12, 2.1662E-06
DataValue, 2.15, 3, 2.4547000000000004E-06, -1.219E-11, -2.4503E-06, 3.7893178950394104E-06, 1.219E-11, 2.4547000000000004E-06
DataValue, 2.2, 3, 2.7771000000000005E-06, 5.07E-12, -2.7719E-06, 4.1656414055013916E-06, 5.07E-12, 2.7771000000000005E-06
DataValue, 2.25, 3, 3.1359000000000003E-06, 1.2930000000000001E-11, -3.1325000000000005E-06, 4.6030434891158651E-06, 1.2930000000000001E-11, 3.1359000000000003E-06
DataValue, 2.3000000000000003, 3, 3.5382000000000003E-06, -3.8900000000000006E-12, -3.5324000000000003E-06, 5.0185480963794423E-06, 3.8900000000000006E-12, 3.5382000000000003E-06
DataValue, 2.35, 3, 3.9795000000000006E-06, -6.7200000000000004E-12, -3.9733000000000006E-06, 5.5213908860953187E-06, 6.7200000000000004E-12, 3.9795000000000006E-06
DataValue, 2.4, 3, 4.4774000000000005E-06, 1.0440000000000002E-11, -4.4665E-06, 6.0879714672914758E-06, 1.0440000000000002E-11, 4.4774000000000005E-06
DataValue, 2.45, 3, 5.0248000000000006E-06, 8.96E-12, -5.0179000000000007E-06, 6.594439541362664E-06, 8.96E-12, 5.0248000000000006E-06
DataValue, 2.5, 3, 5.6301000000000005E-06, -9.9200000000000014E-12, -5.6176E-06, 7.0778204214220152E-06, 9.9200000000000014E-12, 5.6301000000000005E-06
DataValue, 2.5500000000000003, 3, 6.2883000000000004E-06, -9.5E-13, -6.2788000000000008E-06, 7.65356241209041E-06, 9.5E-13, 6.2883000000000004E-06
DataValue, 2.6, 3, 7.0195E-06, 1.888E-11, -7.006E-06, 8.3258529194144466E-06, 1.888E-11, 7.0195E-06
DataValue, 2.65, 3, 7.8187E-06, 4.8500000000000005E-12, -7.8026E-06, 8.7557634501240745E-06, 4.8500000000000005E-12, 7.8187E-06
DataValue, 2.7, 3, 8.675E-06, -1.5270000000000003E-11, -8.6543000000000011E-06, 9.3073861408689772E-06, 1.5270000000000003E-11, 8.675E-06
DataValue, 2.75, 3, 9.6179000000000015E-06, 9.1000000000000016E-13, -9.599900000000001E-06, 9.73216620665645E-06, 9.1000000000000016E-13, 9.6179000000000015E-06
DataValue, 2.8000000000000003, 3, 1.0610000000000002E-05, 2.5460000000000002E-11, -1.05916E-05, 9.1712807498366417E-06, 2.5460000000000002E-11, 1.0610000000000002E-05
DataValue, 2.85, 3, 1.1588E-05, 6.8300000000000006E-12, -1.1412E-05, 9.354127628871844E-06, 6.8300000000000006E-12, 1.1588E-05
DataValue, 2.9, 3, 1.2696E-05, 2.629E-11, -1.268E-05, 1.1070820889788222E-05, 2.629E-11, 1.2696E-05
DataValue, 2.95, 3, 1.3964E-05, 1.59E-12, -1.3948000000000001E-05, 1.1782764619774788E-05, 1.59E-12, 1.3964E-05
DataValue, 3, 3, 1.526E-05, -4.8820000000000006E-11, -1.5232000000000001E-05, 1.1500428579999482E-05, 4.8820000000000006E-11, 1.526E-05
SetupTitle, TFT stab RollOut
PrimitiveTest, I/V Sweep
TestParameter, Context.MainFrame, B1500A
TestParameter, Channel.UnitType, SMU, SMU, SMU
TestParameter, Channel.Unit, SMU2:HR, SMU3:MP, SMU4:MP
TestParameter, Channel.IName, ID, IG, IS
TestParameter, Channel.VName, VD, VG, VS
TestParameter, Channel.Mode, V, V, COMMON
TestParameter, Channel.Func, CONST, VAR1, CONST
TestParameter, Channel.Index, 
TestParameter, Channel.Time, 
TestParameter, Measurement.Port.Unit, SMU2:HR, SMU3:MP, SMU4:MP
TestParameter, Measurement.Port.SeriesResistor, NONE, NONE, NONE
