
SetupTitle, TFT stab RollOut
PrimitiveTest, I/V Sweep
TestParameter, Context.MainFrame, B1500A
TestParameter, Channel.UnitType, SMU, SMU, SMU
TestParameter, Channel.Unit, SMU2:HR, SMU3:MP, SMU4:MP
TestParameter, Channel.IName, ID, IG, IS
TestParameter, Channel.VName, VD, VG, VS
TestParameter, Channel.Mode, V, V, COMMON
TestParameter, Channel.Func, CONST, VAR1, CONST
TestParameter, Channel.Index, 
TestParameter, Channel.Time, 
TestParameter, Measurement.Port.Unit, SMU2:HR, SMU3:MP, SMU4:MP
TestParameter, Measurement.Port.SeriesResistor, NONE, NONE, NONE
TestParameter, Measurement.Port.Filter, ON, ON, ON
TestParameter, Measurement.Port.OutputVoltageComparison, 0, 0, 0
TestParameter, Measurement.Primary.Locus, Single
TestParameter, Measurement.Primary.Scale, LINEAR
TestParameter, Measurement.Primary.Start, -2
TestParameter, Measurement.Primary.Stop, 5
TestParameter, Measurement.Primary.Step, 0.07
TestParameter, Measurement.Primary.Compliance, 0.001
TestParameter, Measurement.Primary.PowerCompliance, 0
TestParameter, Measurement.Aborting.Condition, CONTINUE AT ANY
TestParameter, Measurement.PostOutput.Value, START
TestParameter, Measurement.PostOutput.Retention, OFF
TestParameter, Measurement.Bias.Source, 3, -2, 0
TestParameter, Measurement.Bias.Compliance, 0.0001, 0.001, 0.1
TestParameter, Measurement.Monitor.Unit, SMU2:HR, SMU3:MP, SMU4:MP
TestParameter, Measurement.Monitor.Adc, HR ADC, HR ADC, HR ADC
TestParameter, Measurement.Monitor.Measurement, Compliance Side, Compliance Side, Compliance Side
TestParameter, Measurement.Monitor.RangingMode, LIMITED, LIMITED, LIMITED
TestParameter, Measurement.Monitor.RangeBoundary, 100pA, 1nA, 1nA
TestParameter, Measurement.Monitor.RangeRating, BY FULL RANGE, BY FULL RANGE, BY FULL RANGE
TestParameter, Measurement.Monitor.RangeRatingCoeff, 50, 50, 50
TestParameter, Measurement.Timing.Hold, 0.5
TestParameter, Measurement.Timing.Delay, 0.05
TestParameter, Measurement.Adc.HighSpeed.Mode, AUTO
TestParameter, Measurement.Adc.HighSpeed.Coeff, 1
TestParameter, Measurement.Adc.HighResolution.AutoZero, OFF
TestParameter, Measurement.Adc.HighResolution.Mode, AUTO
TestParameter, Measurement.Adc.HighResolution.Coeff, 6
TestParameter, Measurement.WaitTime.Source.Coeff, 1
TestParameter, Measurement.WaitTime.Source.Offset, 0
TestParameter, Measurement.WaitTime.Monitor.Coeff, 1
TestParameter, Measurement.WaitTime.Monitor.Offset, 0
TestParameter, Function.Analysis.Name, dIddVg, absIg, absId
TestParameter, Function.Analysis.Unit, S, A, A
TestParameter, Function.Analysis.Definition, (delta(sqrt(ID))/delta(VG))^2, abs(IG), abs(ID)
TestParameter, Output.Graph.Enabled, true
TestParameter, Output.Graph.AutoScaling, false
TestParameter, Output.Graph.XAxis.Data, VG
TestParameter, Output.Graph.XAxis.Scale, Linear
TestParameter, Output.Graph.XAxis.Left, -2
TestParameter, Output.Graph.XAxis.Right, 6
TestParameter, Output.Graph.XAxis.RunTimeAutoScale, true
TestParameter, Output.Graph.YAxis.Data, ID, absIg
TestParameter, Output.Graph.YAxis.Scale, Log, Log
TestParameter, Output.Graph.YAxis.Bottom, 0.001, 0
TestParameter, Output.Graph.YAxis.Top, 0.01, 1
TestParameter, Output.Graph.YAxis.Group, , 
TestParameter, Output.Graph.YAxis.RunTimeAutoScale, true, true
TestParameter, Output.List.Data, VG, IG, ID, IS, VD, dIddVg, absIg, absId
TestParameter, AutoAnalysis.Interpolation, false
TestParameter, AutoAnalysis.Line1.Enabled, false
TestParameter, AutoAnalysis.Line1.Type, 1
TestParameter, AutoAnalysis.Line1.Fix, True
TestParameter, AutoAnalysis.Line1.YAxis, 0
TestParameter, AutoAnalysis.Line1.Point1.Type, 0
TestParameter, AutoAnalysis.Line1.Point1.XY.X, 
TestParameter, AutoAnalysis.Line1.Point1.XY.Y, 
TestParameter, AutoAnalysis.Line1.Point1.Data.Var, 
TestParameter, AutoAnalysis.Line1.Point1.Data.Condition, 
TestParameter, AutoAnalysis.Line1.Point1.Data.Start, false
TestParameter, AutoAnalysis.Line1.Point1.Data.StartVar, 
TestParameter, AutoAnalysis.Line1.Point1.Data.StartCondition, 
TestParameter, AutoAnalysis.Line1.Point2.Type, 0
TestParameter, AutoAnalysis.Line1.Point2.XY.X, 
TestParameter, AutoAnalysis.Line1.Point2.XY.Y, 
TestParameter, AutoAnalysis.Line1.Point2.Data.Var, 
TestParameter, AutoAnalysis.Line1.Point2.Data.Condition, 
TestParameter, AutoAnalysis.Line1.Point2.Data.Start, false
TestParameter, AutoAnalysis.Line1.Point2.Data.StartVar, 
TestParameter, AutoAnalysis.Line1.Point2.Data.StartCondition, 
TestParameter, AutoAnalysis.Line1.GradientExpr, 0
TestParameter, AutoAnalysis.Line2.Enabled, false
TestParameter, AutoAnalysis.Line2.Type, 1
TestParameter, AutoAnalysis.Line2.Fix, True
TestParameter, AutoAnalysis.Line2.YAxis, 0
TestParameter, AutoAnalysis.Line2.Point1.Type, 0
TestParameter, AutoAnalysis.Line2.Point1.XY.X, 
TestParameter, AutoAnalysis.Line2.Point1.XY.Y, 
TestParameter, AutoAnalysis.Line2.Point1.Data.Var, 
TestParameter, AutoAnalysis.Line2.Point1.Data.Condition, 
TestParameter, AutoAnalysis.Line2.Point1.Data.Start, false
TestParameter, AutoAnalysis.Line2.Point1.Data.StartVar, 
TestParameter, AutoAnalysis.Line2.Point1.Data.StartCondition, 
TestParameter, AutoAnalysis.Line2.Point2.Type, 0
TestParameter, AutoAnalysis.Line2.Point2.XY.X, 
TestParameter, AutoAnalysis.Line2.Point2.XY.Y, 
TestParameter, AutoAnalysis.Line2.Point2.Data.Var, 
TestParameter, AutoAnalysis.Line2.Point2.Data.Condition, 
TestParameter, AutoAnalysis.Line2.Point2.Data.Start, false
TestParameter, AutoAnalysis.Line2.Point2.Data.StartVar, 
TestParameter, AutoAnalysis.Line2.Point2.Data.StartCondition, 
TestParameter, AutoAnalysis.Line2.GradientExpr, 0
TestParameter, AutoAnalysis.Marker.Enabled, false
TestParameter, AutoAnalysis.Marker.Data.Var, 
TestParameter, AutoAnalysis.Marker.Data.Condition, 
TestParameter, AutoAnalysis.Marker.Data.Start, false
TestParameter, AutoAnalysis.Marker.Data.StartVar, 
TestParameter, AutoAnalysis.Marker.Data.StartCondition, 
MetaData, TestRecord.EntryPoint, true
MetaData, TestRecord.RecordTime, 07/03/2019 12:23:07
MetaData, TestRecord.TestTarget, 6-15
MetaData, TestRecord.IterationIndex, 3
MetaData, TestRecord.Preservation, true
MetaData, TestRecord.Flag, 
MetaData, TestRecord.Remarks, good
MetaData, TestRecord.LinkKey, ae7e15ec-df80-4bd1-bd09-bdc02242a822
Dimension1, 101, 101, 101, 101, 101, 101, 101, 101
Dimension2, 1, 1, 1, 1, 1, 1, 1, 1
DataName, VG, VD, ID, IG, IS, dIddVg, absIg, absId
DataValue, -2, 3, 1.41558E-11, -1.906E-11, -1.6600000000000002E-12, 5.0887251821162143E-15, 1.906E-11, 1.41558E-11
DataValue, -1.93, 3, 1.41934E-11, -2.1460000000000003E-11, -7.8870000000000008E-11, 6.7594394301306379E-11, 2.1460000000000003E-11, 1.41934E-11
DataValue, -1.86, 3, 6.8194E-12, -7.16E-12, -9.0000000000000008E-14, 3.6103578960725666E-12, 7.16E-12, 6.8194E-12
DataValue, -1.79, 3, 1.2259799999999999E-11, -5.934E-11, -4.82E-12, 2.8671347526642516E-10, 5.934E-11, 1.2259799999999999E-11
DataValue, -1.72, 3, 5.7999999999999993E-14, -4.4500000000000006E-12, 8.381E-11, 4.8878278893451387E-11, 4.4500000000000006E-12, 5.7999999999999993E-14
DataValue, -1.6500000000000001, 3, 6.3636E-12, -6.9400000000000007E-12, -5.7E-13, 2.9800304277926564E-11, 6.9400000000000007E-12, 6.3636E-12
DataValue, -1.58, 3, 1.0102E-12, 3.9820000000000004E-11, 2.1000000000000001E-13, 1.378726478942511E-10, 3.9820000000000004E-11, 1.0102E-12
DataValue, -1.51, 3, -7.722E-13, 1.784E-11, 7.2610000000000008E-11, 1.3174508394382347E-10, 1.784E-11, 7.722E-13
DataValue, -1.44, 3, 6.8226E-12, -6.6300000000000006E-12, -1.37E-12, 3.690257365177051E-11, 6.6300000000000006E-12, 6.8226E-12
DataValue, -1.37, 3, 8E-16, 4.6300000000000004E-11, 6.8400000000000007E-12, 8.1253958015276773E-11, 4.6300000000000004E-11, 8E-16
DataValue, -1.3, 3, -1.8226E-12, 3.13E-12, 8.401E-11, 2.1012248404526757E-10, 3.13E-12, 1.8226E-12
DataValue, -1.23, 3, 4.234E-12, -4.43E-12, -3.3400000000000003E-12, 1.2423669208338317E-10, 4.43E-12, 4.234E-12
DataValue, -1.16, 3, 8.471E-12, -4.5070000000000006E-11, -3.87E-12, 6.3432967932390175E-11, 4.5070000000000006E-11, 8.471E-12
DataValue, -1.09, 3, 1.0066E-11, -3.158E-11, -6.99E-11, 1.2272516800560348E-10, 3.158E-11, 1.0066E-11
DataValue, -1.02, 3, 1.8484E-12, -1.91E-12, 1.4800000000000002E-12, 4.5619591888880475E-12, 1.91E-12, 1.8484E-12
DataValue, -0.95000000000000007, 3, 8.258E-12, -5.1250000000000004E-11, -4.16E-12, 1.551552669592071E-10, 5.1250000000000004E-11, 8.258E-12
DataValue, -0.88, 3, 9.6312E-12, -1.6360000000000002E-11, -7.7730000000000012E-11, 1.030554748618314E-10, 1.6360000000000002E-11, 9.6312E-12
DataValue, -0.81, 3, 2.1096E-12, -2.0500000000000004E-12, 4.1E-13, 2.550661958654018E-12, 2.0500000000000004E-12, 2.1096E-12
DataValue, -0.74, 3, 8.2934E-12, -5.503E-11, -8.01E-12, 6.3772057755982673E-12, 5.503E-11, 8.2934E-12
DataValue, -0.67, 3, -3.2615999999999998E-12, -4.9E-13, 8.2830000000000013E-11, 6.3140670358054693E-11, 4.9E-13, 3.2615999999999998E-12
DataValue, -0.6, 3, 3.1235999999999997E-12, -1.96E-12, 8.9E-13, 2.6078202321141665E-11, 1.96E-12, 3.1235999999999997E-12
DataValue, -0.53, 3, -1.1904E-12, 4.0290000000000004E-11, 2.7100000000000004E-12, 5.1492185167190943E-11, 4.0290000000000004E-11, 1.1904E-12
DataValue, -0.46, 3, -5.818E-13, 1.754E-11, 7.216E-11, 3.8758478315297351E-10, 1.754E-11, 5.818E-13
DataValue, -0.39, 3, 1.48014E-11, -2.72E-12, -1.626E-11, 1.1048653528338154E-09, 2.72E-12, 1.48014E-11
DataValue, -0.32, 3, 2.93362E-11, 4.7730000000000006E-11, -2.715E-11, 1.4972418937817058E-09, 4.7730000000000006E-11, 2.93362E-11
DataValue, -0.25, 3, 8.583E-11, -3.7800000000000005E-12, -1.6185000000000002E-10, 2.1930342983190366E-09, 3.7800000000000005E-12, 8.583E-11
DataValue, -0.18, 3, 1.4334000000000002E-10, 6.0000000000000007E-13, -7.033E-11, 4.5178883726473493E-09, 6.0000000000000007E-13, 1.4334000000000002E-10
DataValue, -0.11, 3, 3.4874000000000003E-10, -1.6700000000000002E-12, -3.0026E-10, 7.820579246698039E-09, 1.6700000000000002E-12, 3.4874000000000003E-10
DataValue, -0.04, 3, 5.9308000000000009E-10, -5.3010000000000006E-11, -4.7531000000000009E-10, 8.6375480270693143E-09, 5.3010000000000006E-11, 5.9308000000000009E-10
DataValue, 0.03, 3, 1.004E-09, 8.4000000000000006E-13, -1.0452E-09, 1.4652907426321578E-08, 8.4000000000000006E-13, 1.004E-09
DataValue, 0.1, 3, 1.7057E-09, 4.7E-13, -1.7245E-09, 1.7543975801487731E-08, 4.7E-13, 1.7057E-09
DataValue, 0.17, 3, 2.523E-09, 4.9770000000000006E-11, -2.4761E-09, 1.3328554937226825E-08, 4.9770000000000006E-11, 2.523E-09
DataValue, 0.24, 3, 3.302E-09, -1.2760000000000001E-11, -3.3006E-09, 1.0409962091872396E-08, 1.2760000000000001E-11, 3.302E-09
DataValue, 0.31, 3, 4.162E-09, 1.1500000000000002E-12, -4.1004E-09, 1.2324881582706088E-08, 1.1500000000000002E-12, 4.162E-09
DataValue, 0.38, 3, 5.3298E-09, 3.193E-11, -4.9698E-09, 1.3636674292413616E-08, 3.193E-11, 5.3298E-09
DataValue, 0.45, 3, 6.5387E-09, 5.004E-11, -6.1985E-09, 1.5614724029479161E-08, 5.004E-11, 6.5387E-09
DataValue, 0.52, 3, 8.1902E-09, 2.7600000000000004E-12, -7.8727E-09, 8.7406773642320089E-09, 2.7600000000000004E-12, 8.1902E-09
DataValue, 0.59, 3, 8.8268E-09, -2.62E-12, -8.3254E-09, 6.5137552700144739E-09, 2.62E-12, 8.8268E-09
DataValue, 0.66, 3, 1.0362999999999998E-08, -3.714E-11, -1.00688E-08, 3.79536044664471E-08, 3.714E-11, 1.0362999999999998E-08
DataValue, 0.73, 3, 1.4695599999999998E-08, -3.1600000000000003E-12, -1.4579199999999999E-08, 7.7855042068545491E-08, 3.1600000000000003E-12, 1.4695599999999998E-08
DataValue, 0.8, 3, 1.9842199999999998E-08, 4.7400000000000006E-11, -1.9501999999999998E-08, 8.2743916850852989E-08, 4.7400000000000006E-11, 1.9842199999999998E-08
DataValue, 0.87, 3, 2.6081199999999998E-08, -2.953E-11, -2.5745799999999997E-08, 1.0073203804664663E-07, 2.953E-11, 2.6081199999999998E-08
DataValue, 0.94000000000000006, 3, 3.4334599999999994E-08, -1.41E-12, -3.4007999999999996E-08, 1.2822867241946692E-07, 1.41E-12, 3.4334599999999994E-08
DataValue, 1.01, 3, 4.4786999999999996E-08, 2.67E-12, -4.4022199999999993E-08, 1.594704637796781E-07, 2.67E-12, 4.4786999999999996E-08
DataValue, 1.08, 3, 5.8178999999999994E-08, -5.579E-11, -5.7408399999999995E-08, 1.9268865988087281E-07, 5.579E-11, 5.8178999999999994E-08
DataValue, 1.1500000000000001, 3, 7.4574999999999991E-08, -5.379E-11, -7.30424E-08, 2.1688608631605139E-07, 5.379E-11, 7.4574999999999991E-08
DataValue, 1.22, 3, 9.3882599999999986E-08, 3.147E-11, -8.8839399999999988E-08, 2.6424361925852651E-07, 3.147E-11, 9.3882599999999986E-08
DataValue, 1.29, 3, 1.1906E-07, 5.3770000000000005E-11, -1.148E-07, 3.7824345736332263E-07, 5.3770000000000005E-11, 1.1906E-07
DataValue, 1.36, 3, 1.5406E-07, -4.4000000000000004E-13, -1.5254E-07, 5.3321239816640821E-07, 4.4000000000000004E-13, 1.5406E-07
DataValue, 1.43, 3, 2.0006E-07, -4.021E-11, -1.988E-07, 6.7126732010545282E-07, 4.021E-11, 2.0006E-07
DataValue, 1.5, 3, 2.5726E-07, -4.23E-12, -2.55E-07, 7.78500866189518E-07, 4.23E-12, 2.5726E-07
DataValue, 1.57, 3, 3.2582E-07, 3.8900000000000006E-12, -3.246E-07, 9.05826983014604E-07, 3.8900000000000006E-12, 3.2582E-07
DataValue, 1.6400000000000001, 3, 4.1018E-07, 4.854E-11, -4.0834E-07, 1.0696169959584191E-06, 4.854E-11, 4.1018E-07
DataValue, 1.71, 3, 5.1208E-07, -3.0000000000000005E-14, -5.1023999999999994E-07, 1.2865503397703306E-06, 3.0000000000000005E-14, 5.1208E-07
DataValue, 1.78, 3, 6.388E-07, -5.2500000000000006E-11, -6.342E-07, 1.4868195134310596E-06, 5.2500000000000006E-11, 6.388E-07
DataValue, 1.85, 3, 7.8554E-07, 1.5700000000000002E-12, -7.8176E-07, 1.4669372584529195E-06, 1.5700000000000002E-12, 7.8554E-07
DataValue, 1.92, 3, 9.386E-07, -1.007E-11, -9.0774E-07, 1.4877810291183014E-06, 1.007E-11, 9.386E-07
DataValue, 1.99, 3, 1.1174E-06, -5.43E-11, -1.0876000000000002E-06, 2.0310003414191297E-06, 5.43E-11, 1.1174E-06
DataValue, 2.06, 3, 1.365E-06, 4.4490000000000006E-11, -1.3615000000000002E-06, 2.8125134559812317E-06, 4.4490000000000006E-11, 1.365E-06
DataValue, 2.13, 3, 1.6689000000000002E-06, -8.5000000000000011E-13, -1.6635000000000003E-06, 3.2260412072889062E-06, 8.5000000000000011E-13, 1.6689000000000002E-06
DataValue, 2.2, 3, 2.0158000000000002E-06, -4.1140000000000006E-11, -2.0097E-06, 3.5464213360084368E-06, 4.1140000000000006E-11, 2.0158000000000002E-06
DataValue, 2.27, 3, 2.4196E-06, 3.3400000000000003E-12, -2.4098E-06, 3.9398326563491527E-06, 3.3400000000000003E-12, 2.4196E-06
DataValue, 2.34, 3, 2.8821000000000003E-06, 4.3390000000000005E-11, -2.8760000000000005E-06, 4.4427049311821553E-06, 4.3390000000000005E-11, 2.8821000000000003E-06
DataValue, 2.41, 3, 3.4247000000000004E-06, -9.4E-13, -3.4139000000000005E-06, 4.9784724217132734E-06, 9.4E-13, 3.4247000000000004E-06
DataValue, 2.48, 3, 4.0403E-06, -3.914E-11, -4.0319E-06, 5.50532066723284E-06, 3.914E-11, 4.0403E-06
DataValue, 2.5500000000000003, 3, 4.7484E-06, 2.8600000000000003E-12, -4.7336000000000007E-06, 6.1111781832156362E-06, 2.8600000000000003E-12, 4.7484E-06
DataValue, 2.62, 3, 5.5514000000000008E-06, 4.1600000000000004E-11, -5.5362000000000005E-06, 6.6612282952876063E-06, 4.1600000000000004E-11, 5.5514000000000008E-06
DataValue, 2.69, 3, 6.4537000000000006E-06, -8.6000000000000007E-13, -6.4348000000000006E-06, 7.255285606247804E-06, 8.6000000000000007E-13, 6.4537000000000006E-06
DataValue, 2.7600000000000002, 3, 7.4706000000000009E-06, -3.675E-11, -7.4501000000000009E-06, 7.8649244815214988E-06, 3.675E-11, 7.4706000000000009E-06
DataValue, 2.83, 3, 8.6027000000000015E-06, 5.339E-11, -8.429E-06, 7.6292777334683867E-06, 5.339E-11, 8.6027000000000015E-06
DataValue, 2.9, 3, 9.734E-06, 4.21E-12, -9.5589000000000009E-06, 7.2030983281007389E-06, 4.21E-12, 9.734E-06
DataValue, 2.97, 3, 1.0948000000000001E-05, -2.3460000000000002E-11, -1.0716E-05, 8.4321966175012532E-06, 2.3460000000000002E-11, 1.0948000000000001E-05
DataValue, 3.04, 3, 1.2436000000000001E-05, 5.3580000000000004E-11, -1.2204E-05, 9.6670249898297457E-06, 5.3580000000000004E-11, 1.2436000000000001E-05
DataValue, 3.11, 3, 1.4018E-05, -4.428E-11, -1.3748000000000001E-05, 9.6249156420517729E-06, 4.428E-11, 1.4018E-05
DataValue, 3.18, 3, 1.5688E-05, 3.2200000000000004E-12, -1.5386E-05, 9.6513687189539165E-06, 3.2200000000000004E-12, 1.5688E-05
DataValue, 3.25, 3, 1.7464E-05, -1.6000000000000003E-13, -1.7126000000000002E-05, 9.8107721757674132E-06, 1.6000000000000003E-13, 1.7464E-05
DataValue, 3.3200000000000003, 3, 1.9354E-05, 2.13E-12, -1.9E-05, 9.93051442615354E-06, 2.13E-12, 1.9354E-05
DataValue, 3.39, 3, 2.1346000000000002E-05, 2.9990000000000004E-11, -2.0974E-05, 1.0003161533553364E-05, 2.9990000000000004E-11, 2.1346000000000002E-05
DataValue, 3.46, 3, 2.3446000000000002E-05, -5.5050000000000006E-11, -2.3046E-05, 9.9693460675919777E-06, 5.5050000000000006E-11, 2.3446000000000002E-05
DataValue, 3.5300000000000002, 3, 2.5626E-05, 2.513E-11, -2.5208E-05, 9.8662738572431944E-06, 2.513E-11, 2.5626E-05
DataValue, 3.6, 3, 2.7898E-05, -6.400000000000001E-13, -2.7466E-05, 9.8598209929301014E-06, 6.400000000000001E-13, 2.7898E-05
DataValue, 3.67, 3, 3.027E-05, 2.5800000000000003E-12, -2.9838E-05, 9.8241303371502161E-06, 2.5800000000000003E-12, 3.027E-05
DataValue, 3.74, 3, 3.2726E-05, 4.74E-12, -3.2292E-05, 9.7900794395784025E-06, 4.74E-12, 3.2726E-05
DataValue, 3.81, 3, 3.5282E-05, -4.1280000000000005E-11, -3.4828E-05, 9.65360506513052E-06, 4.1280000000000005E-11, 3.5282E-05
DataValue, 3.88, 3, 3.7892E-05, 5.8330000000000007E-11, -3.745E-05, 9.4640592823899367E-06, 5.8330000000000007E-11, 3.7892E-05
DataValue, 3.95, 3, 4.0584E-05, -1.0950000000000002E-11, -4.0144E-05, 9.4444793718809538E-06, 1.0950000000000002E-11, 4.0584E-05
DataValue, 4.0200000000000005, 3, 4.3374E-05, 3.85E-12, -4.2924000000000004E-05, 9.24877837965856E-06, 3.85E-12, 4.3374E-05
DataValue, 4.09, 3, 4.619E-05, 9.0000000000000008E-14, -4.5766E-05, 9.0473114456441038E-06, 9.0000000000000008E-14, 4.619E-05
DataValue, 4.16, 3, 4.9098E-05, -1.0440000000000002E-11, -4.8664E-05, 8.9309045383203585E-06, 1.0440000000000002E-11, 4.9098E-05
DataValue, 4.23, 3, 5.2052E-05, 5.3300000000000006E-11, -5.1624E-05, 8.667466990190714E-06, 5.3300000000000006E-11, 5.2052E-05
DataValue, 4.3, 3, 5.5044000000000004E-05, -4.64E-11, -5.4646000000000005E-05, 8.5486783666304827E-06, 4.64E-11, 5.5044000000000004E-05
DataValue, 4.37, 3, 5.8126E-05, 4.3900000000000005E-12, -5.7744E-05, 8.4545343537080379E-06, 4.3900000000000005E-12, 5.8126E-05
DataValue, 4.44, 3, 6.125E-05, 3.6000000000000003E-13, -6.0876000000000005E-05, 8.2519190327098646E-06, 3.6000000000000003E-13, 6.125E-05
DataValue, 4.51, 3, 6.442E-05, 3.07E-12, -6.405E-05, 8.0668083421915044E-06, 3.07E-12, 6.442E-05
DataValue, 4.58, 3, 6.7632E-05, 2.442E-11, -6.7288E-05, 7.9061552375631049E-06, 2.442E-11, 6.7632E-05
DataValue, 4.65, 3, 7.0894E-05, 2.01E-12, -7.0864E-05, 8.374950683209845E-06, 2.01E-12, 7.0894E-05
DataValue, 4.72, 3, 7.446E-05, 3.8E-12, -7.4138E-05, 8.1126985753327576E-06, 3.8E-12, 7.446E-05
DataValue, 4.79, 3, 7.7768E-05, 1.2670000000000002E-11, -7.7434E-05, 7.2207331296886221E-06, 1.2670000000000002E-11, 7.7768E-05
DataValue, 4.86, 3, 8.1094E-05, 1.2000000000000002E-13, -8.1062E-05, 7.5826605640214222E-06, 1.2000000000000002E-13, 8.1094E-05
DataValue, 4.93, 3, 8.4716000000000007E-05, 3.6800000000000005E-12, -8.4404E-05, 7.3500708032177631E-06, 3.6800000000000005E-12, 8.4716000000000007E-05
DataValue, 5, 3, 8.8074E-05, 8.2900000000000012E-12, -8.7784E-05, 6.6597467593479347E-06, 8.2900000000000012E-12, 8.8074E-05
SetupTitle, TFT stab RollOut
PrimitiveTest, I/V Sweep
TestParameter, Context.MainFrame, B1500A
TestParameter, Channel.UnitType, SMU, SMU, SMU
TestParameter, Channel.Unit, SMU2:HR, SMU3:MP, SMU4:MP
TestParameter, Channel.IName, ID, IG, IS
TestParameter, Channel.VName, VD, VG, VS
TestParameter, Channel.Mode, V, V, COMMON
TestParameter, Channel.Func, CONST, VAR1, CONST
TestParameter, Channel.Index, 
TestParameter, Channel.Time, 
TestParameter, Measurement.Port.Unit, SMU2:HR, SMU3:MP, SMU4:MP
TestParameter, Measurement.Port.SeriesResistor, NONE, NONE, NONE
TestParameter, Measurement.Port.Filter, ON, ON, ON
TestParameter, Measurement.Port.OutputVoltageComparison, 0, 0, 0
