
SetupTitle, TFT stab RollOut
PrimitiveTest, I/V Sweep
TestParameter, Context.MainFrame, B1500A
TestParameter, Channel.UnitType, SMU, SMU, SMU
TestParameter, Channel.Unit, SMU2:HR, SMU3:MP, SMU4:MP
TestParameter, Channel.IName, ID, IG, IS
TestParameter, Channel.VName, VD, VG, VS
TestParameter, Channel.Mode, V, V, COMMON
TestParameter, Channel.Func, CONST, VAR1, CONST
TestParameter, Channel.Index, 
TestParameter, Channel.Time, 
TestParameter, Measurement.Port.Unit, SMU2:HR, SMU3:MP, SMU4:MP
TestParameter, Measurement.Port.SeriesResistor, NONE, NONE, NONE
TestParameter, Measurement.Port.Filter, ON, ON, ON
TestParameter, Measurement.Port.OutputVoltageComparison, 0, 0, 0
TestParameter, Measurement.Primary.Locus, Single
TestParameter, Measurement.Primary.Scale, LINEAR
TestParameter, Measurement.Primary.Start, -2
TestParameter, Measurement.Primary.Stop, 5
TestParameter, Measurement.Primary.Step, 0.07
TestParameter, Measurement.Primary.Compliance, 0.001
TestParameter, Measurement.Primary.PowerCompliance, 0
TestParameter, Measurement.Aborting.Condition, CONTINUE AT ANY
TestParameter, Measurement.PostOutput.Value, START
TestParameter, Measurement.PostOutput.Retention, OFF
TestParameter, Measurement.Bias.Source, 3, -2, 0
TestParameter, Measurement.Bias.Compliance, 0.0001, 0.001, 0.1
TestParameter, Measurement.Monitor.Unit, SMU2:HR, SMU3:MP, SMU4:MP
TestParameter, Measurement.Monitor.Adc, HR ADC, HR ADC, HR ADC
TestParameter, Measurement.Monitor.Measurement, Compliance Side, Compliance Side, Compliance Side
TestParameter, Measurement.Monitor.RangingMode, LIMITED, LIMITED, LIMITED
TestParameter, Measurement.Monitor.RangeBoundary, 100pA, 1nA, 1nA
TestParameter, Measurement.Monitor.RangeRating, BY FULL RANGE, BY FULL RANGE, BY FULL RANGE
TestParameter, Measurement.Monitor.RangeRatingCoeff, 50, 50, 50
TestParameter, Measurement.Timing.Hold, 0.5
TestParameter, Measurement.Timing.Delay, 0.05
TestParameter, Measurement.Adc.HighSpeed.Mode, AUTO
TestParameter, Measurement.Adc.HighSpeed.Coeff, 1
TestParameter, Measurement.Adc.HighResolution.AutoZero, OFF
TestParameter, Measurement.Adc.HighResolution.Mode, AUTO
TestParameter, Measurement.Adc.HighResolution.Coeff, 6
TestParameter, Measurement.WaitTime.Source.Coeff, 1
TestParameter, Measurement.WaitTime.Source.Offset, 0
TestParameter, Measurement.WaitTime.Monitor.Coeff, 1
TestParameter, Measurement.WaitTime.Monitor.Offset, 0
TestParameter, Function.Analysis.Name, dIddVg, absIg, absId
TestParameter, Function.Analysis.Unit, S, A, A
TestParameter, Function.Analysis.Definition, (delta(sqrt(ID))/delta(VG))^2, abs(IG), abs(ID)
TestParameter, Output.Graph.Enabled, true
TestParameter, Output.Graph.AutoScaling, false
TestParameter, Output.Graph.XAxis.Data, VG
TestParameter, Output.Graph.XAxis.Scale, Linear
TestParameter, Output.Graph.XAxis.Left, -2
TestParameter, Output.Graph.XAxis.Right, 6
TestParameter, Output.Graph.XAxis.RunTimeAutoScale, true
TestParameter, Output.Graph.YAxis.Data, ID, absIg
TestParameter, Output.Graph.YAxis.Scale, Log, Log
TestParameter, Output.Graph.YAxis.Bottom, 0.001, 0
TestParameter, Output.Graph.YAxis.Top, 0.01, 1
TestParameter, Output.Graph.YAxis.Group, , 
TestParameter, Output.Graph.YAxis.RunTimeAutoScale, true, true
TestParameter, Output.List.Data, VG, IG, ID, IS, VD, dIddVg, absIg, absId
TestParameter, AutoAnalysis.Interpolation, false
TestParameter, AutoAnalysis.Line1.Enabled, false
TestParameter, AutoAnalysis.Line1.Type, 1
TestParameter, AutoAnalysis.Line1.Fix, True
TestParameter, AutoAnalysis.Line1.YAxis, 0
TestParameter, AutoAnalysis.Line1.Point1.Type, 0
TestParameter, AutoAnalysis.Line1.Point1.XY.X, 
TestParameter, AutoAnalysis.Line1.Point1.XY.Y, 
TestParameter, AutoAnalysis.Line1.Point1.Data.Var, 
TestParameter, AutoAnalysis.Line1.Point1.Data.Condition, 
TestParameter, AutoAnalysis.Line1.Point1.Data.Start, false
TestParameter, AutoAnalysis.Line1.Point1.Data.StartVar, 
TestParameter, AutoAnalysis.Line1.Point1.Data.StartCondition, 
TestParameter, AutoAnalysis.Line1.Point2.Type, 0
TestParameter, AutoAnalysis.Line1.Point2.XY.X, 
TestParameter, AutoAnalysis.Line1.Point2.XY.Y, 
TestParameter, AutoAnalysis.Line1.Point2.Data.Var, 
TestParameter, AutoAnalysis.Line1.Point2.Data.Condition, 
TestParameter, AutoAnalysis.Line1.Point2.Data.Start, false
TestParameter, AutoAnalysis.Line1.Point2.Data.StartVar, 
TestParameter, AutoAnalysis.Line1.Point2.Data.StartCondition, 
TestParameter, AutoAnalysis.Line1.GradientExpr, 0
TestParameter, AutoAnalysis.Line2.Enabled, false
TestParameter, AutoAnalysis.Line2.Type, 1
TestParameter, AutoAnalysis.Line2.Fix, True
TestParameter, AutoAnalysis.Line2.YAxis, 0
TestParameter, AutoAnalysis.Line2.Point1.Type, 0
TestParameter, AutoAnalysis.Line2.Point1.XY.X, 
TestParameter, AutoAnalysis.Line2.Point1.XY.Y, 
TestParameter, AutoAnalysis.Line2.Point1.Data.Var, 
TestParameter, AutoAnalysis.Line2.Point1.Data.Condition, 
TestParameter, AutoAnalysis.Line2.Point1.Data.Start, false
TestParameter, AutoAnalysis.Line2.Point1.Data.StartVar, 
TestParameter, AutoAnalysis.Line2.Point1.Data.StartCondition, 
TestParameter, AutoAnalysis.Line2.Point2.Type, 0
TestParameter, AutoAnalysis.Line2.Point2.XY.X, 
TestParameter, AutoAnalysis.Line2.Point2.XY.Y, 
TestParameter, AutoAnalysis.Line2.Point2.Data.Var, 
TestParameter, AutoAnalysis.Line2.Point2.Data.Condition, 
TestParameter, AutoAnalysis.Line2.Point2.Data.Start, false
TestParameter, AutoAnalysis.Line2.Point2.Data.StartVar, 
TestParameter, AutoAnalysis.Line2.Point2.Data.StartCondition, 
TestParameter, AutoAnalysis.Line2.GradientExpr, 0
TestParameter, AutoAnalysis.Marker.Enabled, false
TestParameter, AutoAnalysis.Marker.Data.Var, 
TestParameter, AutoAnalysis.Marker.Data.Condition, 
TestParameter, AutoAnalysis.Marker.Data.Start, false
TestParameter, AutoAnalysis.Marker.Data.StartVar, 
TestParameter, AutoAnalysis.Marker.Data.StartCondition, 
MetaData, TestRecord.EntryPoint, true
MetaData, TestRecord.RecordTime, 07/03/2019 12:12:50
MetaData, TestRecord.TestTarget, 6-47
MetaData, TestRecord.IterationIndex, 6
MetaData, TestRecord.Preservation, true
MetaData, TestRecord.Flag, 
MetaData, TestRecord.Remarks, good
MetaData, TestRecord.LinkKey, 20486a27-2392-45d8-92fd-9e16a8556af4
Dimension1, 101, 101, 101, 101, 101, 101, 101, 101
Dimension2, 1, 1, 1, 1, 1, 1, 1, 1
DataName, VG, VD, ID, IG, IS, dIddVg, absIg, absId
DataValue, -2, 3, 2.32804E-11, 2.5560000000000003E-11, 1.2880000000000002E-11, 3.9506704831863076E-10, 2.5560000000000003E-11, 2.32804E-11
DataValue, -1.93, 3, 3.86426E-11, -3.652E-11, -4.158E-11, 7.8355723552788216E-11, 3.652E-11, 3.86426E-11
DataValue, -1.86, 3, 3.6775E-11, -1.905E-11, -3.2700000000000004E-12, 1.0316669404656092E-10, 1.905E-11, 3.6775E-11
DataValue, -1.79, 3, 5.83438E-11, -1.1248000000000001E-10, -3.6000000000000004E-12, 1.4941779153768026E-10, 1.1248000000000001E-10, 5.83438E-11
DataValue, -1.72, 3, 6.04592E-11, -6.518E-11, 5.6900000000000005E-11, 3.4277288525913079E-11, 6.518E-11, 6.04592E-11
DataValue, -1.6500000000000001, 3, 7.1537199999999992E-11, -7.449E-11, -2.5500000000000002E-12, 7.4641187723707624E-12, 7.449E-11, 7.1537199999999992E-11
DataValue, -1.58, 3, 6.65536E-11, -1.6910000000000003E-11, -2E-13, 5.1280589608286312E-12, 1.6910000000000003E-11, 6.65536E-11
DataValue, -1.51, 3, 6.62748E-11, -6.148E-11, -7.0710000000000007E-11, 1.0986985610173918E-10, 6.148E-11, 6.62748E-11
DataValue, -1.44, 3, 4.47638E-11, -4.235E-11, 2.3200000000000002E-12, 3.3991965700125892E-10, 4.235E-11, 4.47638E-11
DataValue, -1.37, 3, 3.0911E-11, -7.8430000000000007E-11, 1.3500000000000001E-12, 4.142701672706033E-10, 7.8430000000000007E-11, 3.0911E-11
DataValue, -1.3, 3, 1.47538E-11, -1.7930000000000003E-11, 7.461E-11, 6.4212893440669563E-11, 1.7930000000000003E-11, 1.47538E-11
DataValue, -1.23, 3, 1.9695E-11, -1.8870000000000002E-11, 1.4700000000000002E-12, 3.4173669769441663E-12, 1.8870000000000002E-11, 1.9695E-11
DataValue, -1.16, 3, 1.28326E-11, 3.2470000000000005E-11, 3.0000000000000003E-13, 7.6402285282057173E-11, 3.2470000000000005E-11, 1.28326E-11
DataValue, -1.09, 3, 1.0331E-11, -8.5000000000000013E-12, 7.0680000000000008E-11, 9.3919114163740928E-12, 8.5000000000000013E-12, 1.0331E-11
DataValue, -1.02, 3, 1.60906E-11, -1.713E-11, -1.9400000000000002E-12, 6.8486517270367188E-11, 1.713E-11, 1.60906E-11
DataValue, -0.95000000000000007, 3, 1.91212E-11, -5.7130000000000007E-11, 3.2100000000000003E-12, 1.1479258067403943E-11, 5.7130000000000007E-11, 1.91212E-11
DataValue, -0.88, 3, 2.0121E-11, -3.674E-11, -5.995000000000001E-11, 4.4242454818173406E-11, 3.674E-11, 2.0121E-11
DataValue, -0.81, 3, 1.18444E-11, -1.0420000000000001E-11, 1.4E-13, 4.0410072208800731E-12, 1.0420000000000001E-11, 1.18444E-11
DataValue, -0.74, 3, 1.76754E-11, -6.4590000000000006E-11, 2.3000000000000003E-13, 3.5540375070510508E-11, 6.4590000000000006E-11, 1.76754E-11
DataValue, -0.67, 3, 1.82858E-11, -1.783E-11, -7.3680000000000011E-11, 3.1489410864761691E-11, 1.783E-11, 1.82858E-11
DataValue, -0.6, 3, 1.16868E-11, -1.0120000000000001E-11, 3.05E-12, 1.5037344296324772E-10, 1.0120000000000001E-11, 1.16868E-11
DataValue, -0.53, 3, 6.5506E-12, 3.6250000000000004E-11, -2.41E-12, 9.0759113717860581E-11, 3.6250000000000004E-11, 6.5506E-12
DataValue, -0.46, 3, 4.3466E-12, 8.0800000000000011E-12, 6.5050000000000011E-11, 3.1321519703264142E-11, 8.0800000000000011E-12, 4.3466E-12
DataValue, -0.39, 3, 1.11752E-11, -1.157E-11, -2.6000000000000002E-12, 1.6365676278564674E-14, 1.157E-11, 1.11752E-11
DataValue, -0.32, 3, 4.4216E-12, 4.446E-11, -1.69E-12, 1.2681293011820345E-11, 4.446E-11, 4.4216E-12
DataValue, -0.25, 3, 1.4757E-11, -1.0530000000000001E-11, -7.613E-11, 2.1209174334571576E-11, 1.0530000000000001E-11, 1.4757E-11
DataValue, -0.18, 3, 7.5488E-12, -5.7300000000000008E-12, -3.1100000000000003E-12, 3.1678013350321774E-13, 5.7300000000000008E-12, 7.5488E-12
DataValue, -0.11, 3, 1.53686E-11, -5.986E-11, 1.8000000000000002E-13, 2.0447223888136123E-10, 5.986E-11, 1.53686E-11
DataValue, -0.04, 3, 2.2557E-11, -5.04E-12, 5.1880000000000006E-11, 2.909723616275428E-09, 5.04E-12, 2.2557E-11
DataValue, 0.03, 3, 1.3161E-10, 4.6490000000000006E-11, -1.2536000000000002E-10, 1.6899760263633839E-08, 4.6490000000000006E-11, 1.3161E-10
DataValue, 0.1, 3, 5.2667E-10, -8.580000000000001E-12, -5.7708E-10, 2.6635190332961284E-08, 8.580000000000001E-12, 5.2667E-10
DataValue, 0.17, 3, 1.1779E-09, -8.01E-12, -9.999E-10, 2.1722468211620463E-08, 8.01E-12, 1.1779E-09
DataValue, 0.24, 3, 1.8995E-09, -6.36E-12, -1.8511E-09, 1.2861280049841938E-08, 6.36E-12, 1.8995E-09
DataValue, 0.31, 3, 2.5198E-09, -4.323E-11, -2.4887E-09, 9.05717651363504E-09, 4.323E-11, 2.5198E-09
DataValue, 0.38, 3, 3.2384E-09, 2.8180000000000003E-11, -3.1621E-09, 1.0145799954091891E-08, 2.8180000000000003E-11, 3.2384E-09
DataValue, 0.45, 3, 4.1344E-09, -5.1000000000000005E-12, -4.0783E-09, 1.1053775216412809E-08, 5.1000000000000005E-12, 4.1344E-09
DataValue, 0.52, 3, 5.1303E-09, -2.314E-11, -5.0615E-09, 1.3436676133239503E-08, 2.314E-11, 5.1303E-09
DataValue, 0.59, 3, 6.4847E-09, 4.6560000000000005E-11, -6.1442E-09, 1.6256507325645363E-08, 4.6560000000000005E-11, 6.4847E-09
DataValue, 0.66, 3, 8.006E-09, 0, -7.715E-09, 8.6869552217080012E-09, 0, 8.006E-09
DataValue, 0.73, 3, 8.7565E-09, -6.093E-11, -8.268E-09, 7.0383534990152457E-09, 6.093E-11, 8.7565E-09
DataValue, 0.8, 3, 1.0245799999999999E-08, 2.0000000000000003E-14, -9.9877999999999989E-09, 3.3911943773709134E-08, 2.0000000000000003E-14, 1.0245799999999999E-08
DataValue, 0.87, 3, 1.4246199999999998E-08, -4.723E-11, -1.4107999999999998E-08, 6.863267532140578E-08, 4.723E-11, 1.4246199999999998E-08
DataValue, 0.94000000000000006, 3, 1.9016E-08, 3.568E-11, -1.8721999999999997E-08, 7.3713320012803541E-08, 3.568E-11, 1.9016E-08
DataValue, 1.01, 3, 2.47646E-08, 9.000000000000001E-13, -2.4510199999999997E-08, 8.8860766666051152E-08, 9.000000000000001E-13, 2.47646E-08
DataValue, 1.08, 3, 3.22676E-08, -3.8900000000000006E-12, -3.1968399999999994E-08, 1.1216523563490356E-07, 3.8900000000000006E-12, 3.22676E-08
DataValue, 1.1500000000000001, 3, 4.1720199999999997E-08, 5.63E-11, -4.1152199999999994E-08, 1.4152622801630102E-07, 5.63E-11, 4.1720199999999997E-08
DataValue, 1.22, 3, 5.3963199999999996E-08, -1.4260000000000001E-11, -5.3374799999999996E-08, 1.7256558466931311E-07, 1.4260000000000001E-11, 5.3963199999999996E-08
DataValue, 1.29, 3, 6.8860399999999991E-08, -9.43E-12, -6.77336E-08, 2.1210106231037213E-07, 9.43E-12, 6.8860399999999991E-08
DataValue, 1.36, 3, 8.8075999999999987E-08, 5.4680000000000005E-11, -8.6610399999999988E-08, 2.6479939880474004E-07, 5.4680000000000005E-11, 8.8075999999999987E-08
DataValue, 1.43, 3, 1.1186E-07, 5.258E-11, -1.0811999999999999E-07, 3.3831076561770681E-07, 5.258E-11, 1.1186E-07
DataValue, 1.5, 3, 1.4304E-07, -2.0000000000000003E-14, -1.4184E-07, 4.5088910151952713E-07, 2.0000000000000003E-14, 1.4304E-07
DataValue, 1.57, 3, 1.8358E-07, -2.92E-12, -1.8266E-07, 5.5731726688041769E-07, 2.92E-12, 1.8358E-07
DataValue, 1.6400000000000001, 3, 2.3302E-07, -3.879E-11, -2.3212E-07, 6.6987901909128162E-07, 3.879E-11, 2.3302E-07
DataValue, 1.71, 3, 2.949E-07, 2.5300000000000003E-12, -2.938E-07, 8.0913624941149729E-07, 2.5300000000000003E-12, 2.949E-07
DataValue, 1.78, 3, 3.7046E-07, 5.7750000000000007E-11, -3.6851999999999997E-07, 9.4628292311055955E-07, 5.7750000000000007E-11, 3.7046E-07
DataValue, 1.85, 3, 4.6136E-07, 4.1E-13, -4.5976E-07, 1.1109160316657394E-06, 4.1E-13, 4.6136E-07
DataValue, 1.92, 3, 5.7186E-07, -5.75E-12, -5.7014E-07, 1.2991735995571694E-06, 5.75E-12, 5.7186E-07
DataValue, 1.99, 3, 7.036E-07, -3.324E-11, -7.012E-07, 1.4961595027608408E-06, 3.324E-11, 7.036E-07
DataValue, 2.06, 3, 8.6018E-07, 4.2900000000000005E-12, -8.5935999999999993E-07, 1.5545114195236384E-06, 4.2900000000000005E-12, 8.6018E-07
DataValue, 2.13, 3, 1.0269E-06, 1.2400000000000002E-12, -1.0028000000000002E-06, 1.82180510531342E-06, 1.2400000000000002E-12, 1.0269E-06
DataValue, 2.2, 3, 1.2464E-06, 3.8E-12, -1.2404000000000002E-06, 2.3801585839855846E-06, 3.8E-12, 1.2464E-06
DataValue, 2.27, 3, 1.5113000000000003E-06, 5.9650000000000009E-11, -1.5064E-06, 2.7888843730949194E-06, 5.9650000000000009E-11, 1.5113000000000003E-06
DataValue, 2.34, 3, 1.8231000000000002E-06, -4.5000000000000005E-13, -1.8185000000000003E-06, 3.1709079999127147E-06, 4.5000000000000005E-13, 1.8231000000000002E-06
DataValue, 2.41, 3, 2.1864000000000004E-06, -5.481E-11, -2.1810000000000004E-06, 3.6211398149120382E-06, 5.481E-11, 2.1864000000000004E-06
DataValue, 2.48, 3, 2.6135000000000005E-06, 3.71E-12, -2.6052E-06, 4.1239176699394206E-06, 3.71E-12, 2.6135000000000005E-06
DataValue, 2.5500000000000003, 3, 3.108E-06, 5.9130000000000007E-11, -3.1009000000000002E-06, 4.6641129338042436E-06, 5.9130000000000007E-11, 3.108E-06
DataValue, 2.62, 3, 3.6825000000000003E-06, 4.3000000000000004E-13, -3.6727000000000004E-06, 5.3371680249827737E-06, 4.3000000000000004E-13, 3.6825000000000003E-06
DataValue, 2.69, 3, 4.3530000000000005E-06, -5.6420000000000004E-11, -4.3387000000000005E-06, 5.9278691720232561E-06, 5.6420000000000004E-11, 4.3530000000000005E-06
DataValue, 2.7600000000000002, 3, 5.1069E-06, 4.51E-12, -5.098E-06, 6.5313951353660526E-06, 4.51E-12, 5.1069E-06
DataValue, 2.83, 3, 5.9740000000000007E-06, -8.0000000000000013E-14, -5.8777000000000005E-06, 6.9905423307272577E-06, 8.0000000000000013E-14, 5.9740000000000007E-06
DataValue, 2.9, 3, 6.9169000000000006E-06, -4.4340000000000005E-11, -6.9018000000000006E-06, 7.7408522866507871E-06, 4.4340000000000005E-11, 6.9169000000000006E-06
DataValue, 2.97, 3, 8.0298E-06, 5.977E-11, -7.8964000000000012E-06, 8.371175739462235E-06, 5.977E-11, 8.0298E-06
DataValue, 3.04, 3, 9.2116000000000017E-06, -3.861E-11, -9.0603E-06, 8.1081115376999518E-06, 3.861E-11, 9.2116000000000017E-06
DataValue, 3.11, 3, 1.0448E-05, 3.4910000000000005E-11, -1.0266E-05, 8.9414624787315988E-06, 3.4910000000000005E-11, 1.0448E-05
DataValue, 3.18, 3, 1.1928E-05, -2.3120000000000003E-11, -1.1726000000000001E-05, 1.0086007163418872E-05, 2.3120000000000003E-11, 1.1928E-05
DataValue, 3.25, 3, 1.3520000000000001E-05, 4.0900000000000005E-12, -1.3302E-05, 1.0421057429892065E-05, 4.0900000000000005E-12, 1.3520000000000001E-05
DataValue, 3.3200000000000003, 3, 1.5254E-05, -6.6E-13, -1.4974000000000001E-05, 1.0624075178532232E-05, 6.6E-13, 1.5254E-05
DataValue, 3.39, 3, 1.7084E-05, -3.402E-11, -1.705E-05, 1.1357151481554641E-05, 3.402E-11, 1.7084E-05
DataValue, 3.46, 3, 1.9162E-05, 2.2510000000000002E-11, -1.8792000000000002E-05, 1.1134386423408831E-05, 2.2510000000000002E-11, 1.9162E-05
DataValue, 3.5300000000000002, 3, 2.1164E-05, -2.8E-13, -2.0782000000000002E-05, 1.0416455907662386E-05, 2.8E-13, 2.1164E-05
DataValue, 3.6, 3, 2.3322E-05, 3.75E-12, -2.2922000000000002E-05, 1.084234193204878E-05, 3.75E-12, 2.3322E-05
DataValue, 3.67, 3, 2.5618E-05, 1.0850000000000002E-11, -2.5204E-05, 1.0926985551969877E-05, 1.0850000000000002E-11, 2.5618E-05
DataValue, 3.74, 3, 2.8006000000000003E-05, -5.0560000000000004E-11, -2.7570000000000002E-05, 1.0991790394828497E-05, 5.0560000000000004E-11, 2.8006000000000003E-05
DataValue, 3.81, 3, 3.0532E-05, 4.2910000000000004E-11, -3.008E-05, 1.1057246221325749E-05, 4.2910000000000004E-11, 3.0532E-05
DataValue, 3.88, 3, 3.315E-05, -2.5790000000000002E-11, -3.2684E-05, 1.0964611942400814E-05, 2.5790000000000002E-11, 3.315E-05
DataValue, 3.95, 3, 3.587E-05, -1.333E-11, -3.5816000000000004E-05, 1.2056429464717311E-05, 1.333E-11, 3.587E-05
DataValue, 4.0200000000000005, 3, 3.8984E-05, 5.659E-11, -3.8466E-05, 1.1469061094598351E-05, 5.659E-11, 3.8984E-05
DataValue, 4.09, 3, 4.1774000000000004E-05, -3.681E-11, -4.127E-05, 1.0032378341485738E-05, 3.681E-11, 4.1774000000000004E-05
DataValue, 4.16, 3, 4.4718E-05, 2.3530000000000002E-11, -4.4206E-05, 1.0181198418437552E-05, 2.3530000000000002E-11, 4.4718E-05
DataValue, 4.23, 3, 4.7748000000000004E-05, -2.9000000000000003E-13, -4.7268E-05, 1.0053744675003002E-05, 2.9000000000000003E-13, 4.7748000000000004E-05
DataValue, 4.3, 3, 5.0852E-05, 4.26E-12, -5.04E-05, 1.0054233563830678E-05, 4.26E-12, 5.0852E-05
DataValue, 4.37, 3, 5.4080000000000004E-05, 1.4170000000000001E-11, -5.3636E-05, 9.9698738180812785E-06, 1.4170000000000001E-11, 5.4080000000000004E-05
DataValue, 4.44, 3, 5.7352E-05, -4.9580000000000005E-11, -5.6932E-05, 9.6910497643967669E-06, 4.9580000000000005E-11, 5.7352E-05
DataValue, 4.51, 3, 6.068E-05, 4.7680000000000004E-11, -6.0284E-05, 9.5387345353426835E-06, 4.7680000000000004E-11, 6.068E-05
DataValue, 4.58, 3, 6.4088E-05, 3.7000000000000004E-13, -6.3696000000000008E-05, 9.3748452038046789E-06, 3.7000000000000004E-13, 6.4088E-05
DataValue, 4.65, 3, 6.7542E-05, 5.2600000000000006E-12, -6.7174E-05, 9.16598824191953E-06, 5.2600000000000006E-12, 6.7542E-05
DataValue, 4.72, 3, 7.1054E-05, 1.27E-12, -7.0694E-05, 8.9954090213749526E-06, 1.27E-12, 7.1054E-05
DataValue, 4.79, 3, 7.462E-05, -3.0750000000000004E-11, -7.4296000000000008E-05, 8.8287204860348358E-06, 3.0750000000000004E-11, 7.462E-05
DataValue, 4.86, 3, 7.824E-05, 5.8880000000000008E-11, -7.7946E-05, 8.64719172797774E-06, 5.8880000000000008E-11, 7.824E-05
DataValue, 4.93, 3, 8.1902E-05, -1.181E-11, -8.1624E-05, 8.4430565329088189E-06, 1.181E-11, 8.1902E-05
DataValue, 5, 3, 8.5602E-05, 3.2900000000000003E-12, -8.5336E-05, 8.340751369740604E-06, 3.2900000000000003E-12, 8.5602E-05
SetupTitle, TFT stab RollOut
PrimitiveTest, I/V Sweep
TestParameter, Context.MainFrame, B1500A
TestParameter, Channel.UnitType, SMU, SMU, SMU
TestParameter, Channel.Unit, SMU2:HR, SMU3:MP, SMU4:MP
TestParameter, Channel.IName, ID, IG, IS
TestParameter, Channel.VName, VD, VG, VS
TestParameter, Channel.Mode, V, V, COMMON
TestParameter, Channel.Func, CONST, VAR1, CONST
TestParameter, Channel.Index, 
TestParameter, Channel.Time, 
TestParameter, Measurement.Port.Unit, SMU2:HR, SMU3:MP, SMU4:MP
TestParameter, Measurement.Port.SeriesResistor, NONE, NONE, NONE
TestParameter, Measurement.Port.Filter, ON, ON, ON
TestParameter, Measurement.Port.OutputVoltageComparison, 0, 0, 0
