
SetupTitle, TFT sat RollOut
PrimitiveTest, I/V Sweep
TestParameter, Context.MainFrame, B1500A
TestParameter, Channel.UnitType, SMU, SMU, SMU
TestParameter, Channel.Unit, SMU2:HR, SMU3:MP, SMU4:MP
TestParameter, Channel.IName, ID, IG, IS
TestParameter, Channel.VName, VD, VG, VS
TestParameter, Channel.Mode, V, V, COMMON
TestParameter, Channel.Func, CONST, VAR1, CONST
TestParameter, Channel.Index, 
TestParameter, Channel.Time, 
TestParameter, Measurement.Port.Unit, SMU2:HR, SMU3:MP, SMU4:MP
TestParameter, Measurement.Port.SeriesResistor, NONE, NONE, NONE
TestParameter, Measurement.Port.Filter, ON, ON, ON
TestParameter, Measurement.Port.OutputVoltageComparison, 0, 0, 0
TestParameter, Measurement.Primary.Locus, Double
TestParameter, Measurement.Primary.Scale, LINEAR
TestParameter, Measurement.Primary.Start, -2
TestParameter, Measurement.Primary.Stop, 5
TestParameter, Measurement.Primary.Step, 0.07
TestParameter, Measurement.Primary.Compliance, 1E-06
TestParameter, Measurement.Primary.PowerCompliance, 0
TestParameter, Measurement.Aborting.Condition, CONTINUE AT ANY
TestParameter, Measurement.PostOutput.Value, START
TestParameter, Measurement.PostOutput.Retention, OFF
TestParameter, Measurement.Bias.Source, 5, -2, 0
TestParameter, Measurement.Bias.Compliance, 0.001, 1E-06, 0.1
TestParameter, Measurement.Monitor.Unit, SMU2:HR, SMU3:MP, SMU4:MP
TestParameter, Measurement.Monitor.Adc, HR ADC, HR ADC, HR ADC
TestParameter, Measurement.Monitor.Measurement, Compliance Side, Compliance Side, Compliance Side
TestParameter, Measurement.Monitor.RangingMode, LIMITED, LIMITED, LIMITED
TestParameter, Measurement.Monitor.RangeBoundary, 100pA, 1nA, 1nA
TestParameter, Measurement.Monitor.RangeRating, BY FULL RANGE, BY FULL RANGE, BY FULL RANGE
TestParameter, Measurement.Monitor.RangeRatingCoeff, 50, 50, 50
TestParameter, Measurement.Timing.Hold, 0.5
TestParameter, Measurement.Timing.Delay, 0.05
TestParameter, Measurement.Adc.HighSpeed.Mode, AUTO
TestParameter, Measurement.Adc.HighSpeed.Coeff, 1
TestParameter, Measurement.Adc.HighResolution.AutoZero, OFF
TestParameter, Measurement.Adc.HighResolution.Mode, AUTO
TestParameter, Measurement.Adc.HighResolution.Coeff, 6
TestParameter, Measurement.WaitTime.Source.Coeff, 1
TestParameter, Measurement.WaitTime.Source.Offset, 0
TestParameter, Measurement.WaitTime.Monitor.Coeff, 1
TestParameter, Measurement.WaitTime.Monitor.Offset, 0
TestParameter, Function.Analysis.Name, dIddVg, absIg, absId
TestParameter, Function.Analysis.Unit, S, A, A
TestParameter, Function.Analysis.Definition, (delta(sqrt(ID))/delta(VG))^2, abs(IG), abs(ID)
TestParameter, Output.Graph.Enabled, true
TestParameter, Output.Graph.AutoScaling, false
TestParameter, Output.Graph.XAxis.Data, VG
TestParameter, Output.Graph.XAxis.Scale, Linear
TestParameter, Output.Graph.XAxis.Left, -2
TestParameter, Output.Graph.XAxis.Right, 6
TestParameter, Output.Graph.XAxis.RunTimeAutoScale, true
TestParameter, Output.Graph.YAxis.Data, absId, absIg, dIddVg, IS
TestParameter, Output.Graph.YAxis.Scale, Log, Log, Linear, Linear
TestParameter, Output.Graph.YAxis.Bottom, 0, 0, 0, -0.1
TestParameter, Output.Graph.YAxis.Top, 1, 1, 1, 0.1
TestParameter, Output.Graph.YAxis.Group, , , , 
TestParameter, Output.Graph.YAxis.RunTimeAutoScale, true, true, true, false
TestParameter, Output.List.Data, VG, IG, ID, IS, VD, dIddVg, absIg, absId
TestParameter, AutoAnalysis.Interpolation, false
TestParameter, AutoAnalysis.Line1.Enabled, false
TestParameter, AutoAnalysis.Line1.Type, 1
TestParameter, AutoAnalysis.Line1.Fix, True
TestParameter, AutoAnalysis.Line1.YAxis, 0
TestParameter, AutoAnalysis.Line1.Point1.Type, 0
TestParameter, AutoAnalysis.Line1.Point1.XY.X, 
TestParameter, AutoAnalysis.Line1.Point1.XY.Y, 
TestParameter, AutoAnalysis.Line1.Point1.Data.Var, 
TestParameter, AutoAnalysis.Line1.Point1.Data.Condition, 
TestParameter, AutoAnalysis.Line1.Point1.Data.Start, false
TestParameter, AutoAnalysis.Line1.Point1.Data.StartVar, 
TestParameter, AutoAnalysis.Line1.Point1.Data.StartCondition, 
TestParameter, AutoAnalysis.Line1.Point2.Type, 0
TestParameter, AutoAnalysis.Line1.Point2.XY.X, 
TestParameter, AutoAnalysis.Line1.Point2.XY.Y, 
TestParameter, AutoAnalysis.Line1.Point2.Data.Var, 
TestParameter, AutoAnalysis.Line1.Point2.Data.Condition, 
TestParameter, AutoAnalysis.Line1.Point2.Data.Start, false
TestParameter, AutoAnalysis.Line1.Point2.Data.StartVar, 
TestParameter, AutoAnalysis.Line1.Point2.Data.StartCondition, 
TestParameter, AutoAnalysis.Line1.GradientExpr, 0
TestParameter, AutoAnalysis.Line2.Enabled, false
TestParameter, AutoAnalysis.Line2.Type, 1
TestParameter, AutoAnalysis.Line2.Fix, True
TestParameter, AutoAnalysis.Line2.YAxis, 0
TestParameter, AutoAnalysis.Line2.Point1.Type, 0
TestParameter, AutoAnalysis.Line2.Point1.XY.X, 
TestParameter, AutoAnalysis.Line2.Point1.XY.Y, 
TestParameter, AutoAnalysis.Line2.Point1.Data.Var, 
TestParameter, AutoAnalysis.Line2.Point1.Data.Condition, 
TestParameter, AutoAnalysis.Line2.Point1.Data.Start, false
TestParameter, AutoAnalysis.Line2.Point1.Data.StartVar, 
TestParameter, AutoAnalysis.Line2.Point1.Data.StartCondition, 
TestParameter, AutoAnalysis.Line2.Point2.Type, 0
TestParameter, AutoAnalysis.Line2.Point2.XY.X, 
TestParameter, AutoAnalysis.Line2.Point2.XY.Y, 
TestParameter, AutoAnalysis.Line2.Point2.Data.Var, 
TestParameter, AutoAnalysis.Line2.Point2.Data.Condition, 
TestParameter, AutoAnalysis.Line2.Point2.Data.Start, false
TestParameter, AutoAnalysis.Line2.Point2.Data.StartVar, 
TestParameter, AutoAnalysis.Line2.Point2.Data.StartCondition, 
TestParameter, AutoAnalysis.Line2.GradientExpr, 0
TestParameter, AutoAnalysis.Marker.Enabled, false
TestParameter, AutoAnalysis.Marker.Data.Var, 
TestParameter, AutoAnalysis.Marker.Data.Condition, 
TestParameter, AutoAnalysis.Marker.Data.Start, false
TestParameter, AutoAnalysis.Marker.Data.StartVar, 
TestParameter, AutoAnalysis.Marker.Data.StartCondition, 
MetaData, TestRecord.EntryPoint, true
MetaData, TestRecord.RecordTime, 07/03/2019 12:06:18
MetaData, TestRecord.TestTarget, 6-48
MetaData, TestRecord.IterationIndex, 1
MetaData, TestRecord.Preservation, true
MetaData, TestRecord.Flag, 
MetaData, TestRecord.Remarks, good new setup
MetaData, TestRecord.LinkKey, 6f58462c-7487-4930-b169-eac7c4a94470
Dimension1, 202, 202, 202, 202, 202, 202, 202, 202
Dimension2, 1, 1, 1, 1, 1, 1, 1, 1
DataName, VG, VD, ID, IG, IS, dIddVg, absIg, absId
DataValue, -2, 5, 4.2898000000000005E-10, -4.1637000000000003E-10, 4.9000000000000005E-12, 1.7171825338196891E-11, 4.1637000000000003E-10, 4.2898000000000005E-10
DataValue, -1.93, 5, 4.4108000000000004E-10, -4.2934000000000004E-10, -7.533E-11, 1.3799250551039737E-10, 4.2934000000000004E-10, 4.4108000000000004E-10
DataValue, -1.86, 5, 3.6356000000000003E-10, -4.1266000000000005E-10, 6.7900000000000008E-12, 9.4277002634568671E-11, 4.1266000000000005E-10, 3.6356000000000003E-10
DataValue, -1.79, 5, 3.8583000000000005E-10, -3.3423000000000004E-10, 5.43E-12, 4.0159263470520438E-11, 3.3423000000000004E-10, 3.8583000000000005E-10
DataValue, -1.72, 5, 3.9818E-10, -3.8830000000000004E-10, -7.484000000000001E-11, 1.5686721790083036E-10, 3.8830000000000004E-10, 3.9818E-10
DataValue, -1.6500000000000001, 5, 3.2002000000000005E-10, -3.5727000000000005E-10, 4.62E-12, 1.1799906914432035E-10, 3.5727000000000005E-10, 3.2002000000000005E-10
DataValue, -1.58, 5, 3.398E-10, -2.8616E-10, 2.9400000000000004E-12, 1.8405573896928302E-11, 2.8616E-10, 3.398E-10
DataValue, -1.51, 5, 3.4187000000000003E-10, -3.2422000000000004E-10, -7.656E-11, 2.1412274282828916E-10, 3.2422000000000004E-10, 3.4187000000000003E-10
DataValue, -1.44, 5, 2.6847E-10, -3.0862E-10, 4.73E-12, 6.60817902112368E-11, 3.0862E-10, 2.6847E-10
DataValue, -1.37, 5, 3.0108E-10, -2.4788000000000003E-10, -2.6E-13, 7.3385398635893517E-11, 2.4788000000000003E-10, 3.0108E-10
DataValue, -1.3, 5, 3.0921E-10, -2.9478000000000004E-10, -7.757000000000001E-11, 1.7774656658209362E-10, 2.9478000000000004E-10, 3.0921E-10
DataValue, -1.23, 5, 2.3979E-10, -2.7707E-10, 1.36E-12, 9.90920652589074E-11, 2.7707E-10, 2.3979E-10
DataValue, -1.16, 5, 2.6214000000000004E-10, -2.0741E-10, 2.11E-12, 5.8534906186916238E-11, 2.0741E-10, 2.6214000000000004E-10
DataValue, -1.09, 5, 2.7411E-10, -2.5891000000000004E-10, -7.9230000000000007E-11, 1.0124015600149054E-10, 2.5891000000000004E-10, 2.7411E-10
DataValue, -1.02, 5, 2.1851000000000003E-10, -2.5495000000000003E-10, -1.18E-12, 4.58461108281814E-11, 2.5495000000000003E-10, 2.1851000000000003E-10
DataValue, -0.95000000000000007, 5, 2.4362000000000003E-10, -1.8525E-10, 1.5600000000000002E-12, 5.0780902942150726E-11, 1.8525E-10, 2.4362000000000003E-10
DataValue, -0.88, 5, 2.49E-10, -2.3157E-10, -7.88E-11, 2.4956997448184263E-10, 2.3157E-10, 2.49E-10
DataValue, -0.81, 5, 1.7947E-10, -2.1484E-10, 5.4200000000000007E-12, 8.0260994602262276E-11, 2.1484E-10, 1.7947E-10
DataValue, -0.74, 5, 2.1099E-10, -1.5596000000000002E-10, 2.5000000000000003E-12, 1.8547059568605372E-10, 1.5596000000000002E-10, 2.1099E-10
DataValue, -0.67, 5, 2.3419E-10, -2.1771000000000002E-10, -7.9880000000000013E-11, 1.4733618622465521E-10, 2.1771000000000002E-10, 2.3419E-10
DataValue, -0.6, 5, 1.6451E-10, -1.9960000000000001E-10, 9.3E-13, 9.5289012308884233E-11, 1.9960000000000001E-10, 1.6451E-10
DataValue, -0.53, 5, 1.9423E-10, -1.3817E-10, 2.8800000000000002E-12, 9.7835572890703584E-11, 1.3817E-10, 1.9423E-10
DataValue, -0.46, 5, 2.0195E-10, -1.8407000000000002E-10, -7.8E-11, 2.1189022022893454E-10, 1.8407000000000002E-10, 2.0195E-10
DataValue, -0.39, 5, 1.4158000000000002E-10, -1.7947E-10, 1.37E-12, 6.370336830110985E-11, 1.7947E-10, 1.4158000000000002E-10
DataValue, -0.32, 5, 1.7144E-10, -1.1409E-10, 3.2600000000000002E-12, 1.4518782853560271E-10, 1.1409E-10, 1.7144E-10
DataValue, -0.25, 5, 1.8457000000000002E-10, -1.6657000000000003E-10, -7.8200000000000012E-11, 1.9993043962843437E-10, 1.6657000000000003E-10, 1.8457000000000002E-10
DataValue, -0.18, 5, 1.2352E-10, -1.6151000000000002E-10, -5.9E-13, 3.7192954381356863E-11, 1.6151000000000002E-10, 1.2352E-10
DataValue, -0.11, 5, 1.6210000000000001E-10, -9.506E-11, -3.05E-12, 8.1927695141687886E-10, 9.506E-11, 1.6210000000000001E-10
DataValue, -0.04, 5, 2.2865E-10, -1.4969E-10, -1.3661E-10, 2.5695231655269715E-09, 1.4969E-10, 2.2865E-10
DataValue, 0.03, 5, 3.9317000000000005E-10, -1.431E-10, -2.8444E-10, 1.5473505707213845E-08, 1.431E-10, 3.9317000000000005E-10
DataValue, 0.1, 5, 1.0586E-09, -1.9449000000000002E-10, -7.8549E-10, 3.3674116184499643E-08, 1.9449000000000002E-10, 1.0586E-09
DataValue, 0.17, 5, 2.072E-09, -9.6380000000000007E-11, -1.807E-09, 2.6340002991752209E-08, 9.6380000000000007E-11, 2.072E-09
DataValue, 0.24, 5, 3.0534E-09, -8.243E-11, -2.8527E-09, 1.7232839787799312E-08, 8.243E-11, 3.0534E-09
DataValue, 0.31, 5, 4.0829E-09, -1.2852E-10, -3.9519E-09, 1.3188136881927564E-08, 1.2852E-10, 4.0829E-09
DataValue, 0.38, 5, 5.0887E-09, -1.2314E-10, -4.9434E-09, 1.3341110867513002E-08, 1.2314E-10, 5.0887E-09
DataValue, 0.45, 5, 6.4109E-09, -6.159E-11, -5.969E-09, 1.1525247621929187E-08, 6.159E-11, 6.4109E-09
DataValue, 0.52, 5, 7.4589E-09, -1.1225000000000001E-10, -7.1467E-09, 1.0030341906639821E-08, 1.1225000000000001E-10, 7.4589E-09
DataValue, 0.59, 5, 8.8528E-09, -6.5440000000000009E-11, -8.2748E-09, 6.4480224074359531E-09, 6.5440000000000009E-11, 8.8528E-09
DataValue, 0.66, 5, 9.5271E-09, -8.6620000000000007E-11, -9.4919E-09, 1.0360277281541368E-08, 8.6620000000000007E-11, 9.5271E-09
DataValue, 0.73, 5, 1.17374E-08, -1.0857E-10, -1.14774E-08, 5.2217951527599808E-08, 1.0857E-10, 1.17374E-08
DataValue, 0.8, 5, 1.67958E-08, -1.0329000000000001E-10, -1.6563799999999998E-08, 8.9551423930950385E-08, 1.0329000000000001E-10, 1.67958E-08
DataValue, 0.87, 5, 2.2570399999999998E-08, -3.73E-11, -2.22296E-08, 9.3924218119359619E-08, 3.73E-11, 2.2570399999999998E-08
DataValue, 0.94000000000000006, 5, 2.9757799999999997E-08, -9.4890000000000008E-11, -2.9320199999999998E-08, 1.1427120598817319E-07, 9.4890000000000008E-11, 2.9757799999999997E-08
DataValue, 1.01, 5, 3.903E-08, -8.871000000000001E-11, -3.83908E-08, 1.3727127646787994E-07, 8.871000000000001E-11, 3.903E-08
DataValue, 1.08, 5, 5.0344E-08, -6.3E-11, -4.9452E-08, 1.6953285394479176E-07, 6.3E-11, 5.0344E-08
DataValue, 1.1500000000000001, 5, 6.51292E-08, -1.3078E-10, -6.4198999999999991E-08, 2.0795514905245916E-07, 1.3078E-10, 6.51292E-08
DataValue, 1.22, 5, 8.30694E-08, -1.2100000000000002E-10, -8.14014E-08, 2.7032327158825026E-07, 1.2100000000000002E-10, 8.30694E-08
DataValue, 1.29, 5, 1.0758E-07, -1.1862E-10, -1.0676E-07, 3.5510843682764007E-07, 1.1862E-10, 1.0758E-07
DataValue, 1.36, 5, 1.3812E-07, -6.556E-11, -1.3752E-07, 4.3817057802611666E-07, 6.556E-11, 1.3812E-07
DataValue, 1.43, 5, 1.7696E-07, -1.049E-11, -1.7626E-07, 5.4806940472919718E-07, 1.049E-11, 1.7696E-07
DataValue, 1.5, 5, 2.259E-07, -5.9460000000000007E-11, -2.2458E-07, 6.4458488568492509E-07, 5.9460000000000007E-11, 2.259E-07
DataValue, 1.57, 5, 2.8415999999999997E-07, -5.944E-11, -2.8275999999999997E-07, 7.6863688184194926E-07, 5.944E-11, 2.8415999999999997E-07
DataValue, 1.6400000000000001, 5, 3.5764E-07, -9.3310000000000012E-11, -3.56E-07, 9.2682825759143035E-07, 9.3310000000000012E-11, 3.5764E-07
DataValue, 1.71, 5, 4.4601999999999997E-07, -4.826E-11, -4.4414E-07, 1.0871426846805406E-06, 4.826E-11, 4.4601999999999997E-07
DataValue, 1.78, 5, 5.5354E-07, 8.42E-12, -5.5156E-07, 1.3002986415267462E-06, 8.42E-12, 5.5354E-07
DataValue, 1.85, 5, 6.8474E-07, -4.592E-11, -6.8096E-07, 1.4855056803440352E-06, 4.592E-11, 6.8474E-07
DataValue, 1.92, 5, 8.3656E-07, -5.1520000000000007E-11, -8.3166E-07, 1.4214458084736649E-06, 5.1520000000000007E-11, 8.3656E-07
DataValue, 1.99, 5, 9.8884E-07, -4.6700000000000004E-11, -9.5972E-07, 1.5168335647284596E-06, 4.6700000000000004E-11, 9.8884E-07
DataValue, 2.06, 5, 1.1817E-06, -3.3490000000000005E-11, -1.1548000000000002E-06, 2.153989166857434E-06, 3.3490000000000005E-11, 1.1817E-06
DataValue, 2.13, 5, 1.4397000000000002E-06, -3.4070000000000005E-11, -1.4354E-06, 2.8700080304324952E-06, 3.4070000000000005E-11, 1.4397000000000002E-06
DataValue, 2.2, 5, 1.7536000000000002E-06, 1.5920000000000002E-11, -1.7505000000000002E-06, 3.3304783611518132E-06, 1.5920000000000002E-11, 1.7536000000000002E-06
DataValue, 2.27, 5, 2.1181E-06, -3.193E-11, -2.1109000000000004E-06, 3.6910283711832738E-06, 3.193E-11, 2.1181E-06
DataValue, 2.34, 5, 2.5383000000000003E-06, -8.2090000000000011E-11, -2.5313000000000002E-06, 4.1167199417493727E-06, 8.2090000000000011E-11, 2.5383000000000003E-06
DataValue, 2.41, 5, 3.0256000000000003E-06, -2.2550000000000002E-11, -3.0169000000000003E-06, 4.6817619622567616E-06, 2.2550000000000002E-11, 3.0256000000000003E-06
DataValue, 2.48, 5, 3.5953000000000005E-06, 3.172E-11, -3.5834000000000003E-06, 5.332518875900491E-06, 3.172E-11, 3.5953000000000005E-06
DataValue, 2.5500000000000003, 5, 4.2548E-06, -2.1480000000000003E-11, -4.2418000000000006E-06, 5.9705505463822626E-06, 2.1480000000000003E-11, 4.2548E-06
DataValue, 2.62, 5, 5.0096E-06, -7.4780000000000012E-11, -4.9957E-06, 6.6535723778640653E-06, 7.4780000000000012E-11, 5.0096E-06
DataValue, 2.69, 5, 5.8750000000000005E-06, -1.541E-11, -5.8623000000000006E-06, 7.3529701786045246E-06, 1.541E-11, 5.8750000000000005E-06
DataValue, 2.7600000000000002, 5, 6.8531000000000005E-06, 4.2000000000000004E-11, -6.8343000000000008E-06, 8.008719368659339E-06, 4.2000000000000004E-11, 6.8531000000000005E-06
DataValue, 2.83, 5, 7.9526E-06, -1.363E-11, -7.933E-06, 8.7504793499655429E-06, 1.363E-11, 7.9526E-06
DataValue, 2.9, 5, 9.1929000000000014E-06, -6.818E-11, -9.1651000000000014E-06, 9.1471460308458077E-06, 6.818E-11, 9.1929000000000014E-06
DataValue, 2.97, 5, 1.0520000000000001E-05, 4.5500000000000004E-11, -1.0488700000000002E-05, 1.009426252454033E-05, 4.5500000000000004E-11, 1.0520000000000001E-05
DataValue, 3.04, 5, 1.2088E-05, -9.5200000000000014E-12, -1.1930000000000001E-05, 1.0371390971940251E-05, 9.5200000000000014E-12, 1.2088E-05
DataValue, 3.11, 5, 1.3648E-05, -6.438E-11, -1.3616E-05, 1.0462956294665138E-05, 6.438E-11, 1.3648E-05
DataValue, 3.18, 5, 1.5442000000000002E-05, -4.16E-12, -1.5402E-05, 1.1388376757402755E-05, 4.16E-12, 1.5442000000000002E-05
DataValue, 3.25, 5, 1.7362E-05, 2.2770000000000003E-11, -1.7002E-05, 1.0791317864231758E-05, 2.2770000000000003E-11, 1.7362E-05
DataValue, 3.3200000000000003, 5, 1.9268E-05, -3.9300000000000004E-12, -1.9228E-05, 1.1344642715925999E-05, 3.9300000000000004E-12, 1.9268E-05
DataValue, 3.39, 5, 2.1514E-05, -5.808E-11, -2.147E-05, 1.2559956015936413E-05, 5.808E-11, 2.1514E-05
DataValue, 3.46, 5, 2.387E-05, 5.6060000000000005E-11, -2.341E-05, 1.1313070459317381E-05, 5.6060000000000005E-11, 2.387E-05
DataValue, 3.5300000000000002, 5, 2.6104E-05, -1.7000000000000002E-12, -2.6058E-05, 1.1834339617252431E-05, 1.7000000000000002E-12, 2.6104E-05
DataValue, 3.6, 5, 2.8808000000000003E-05, -1.4050000000000001E-11, -2.8746000000000002E-05, 1.3365529540489871E-05, 1.4050000000000001E-11, 2.8808000000000003E-05
DataValue, 3.67, 5, 3.1596E-05, -2.9410000000000005E-11, -3.1524E-05, 1.2985137553540856E-05, 2.9410000000000005E-11, 3.1596E-05
DataValue, 3.74, 5, 3.4478000000000004E-05, 5.7950000000000004E-11, -3.3916E-05, 1.1521001357394374E-05, 5.7950000000000004E-11, 3.4478000000000004E-05
DataValue, 3.81, 5, 3.7164E-05, 8.1000000000000008E-13, -3.7106E-05, 1.1811744992846181E-05, 8.1000000000000008E-13, 3.7164E-05
DataValue, 3.88, 5, 4.036E-05, -1.8200000000000002E-11, -4.0298E-05, 1.329305353512672E-05, 1.8200000000000002E-11, 4.036E-05
DataValue, 3.95, 5, 4.3648E-05, -1.6690000000000003E-11, -4.3584E-05, 1.2998308431129579E-05, 1.6690000000000003E-11, 4.3648E-05
DataValue, 4.0200000000000005, 5, 4.7028000000000004E-05, 5.5960000000000006E-11, -4.6434E-05, 1.1375125049299758E-05, 5.5960000000000006E-11, 4.7028000000000004E-05
DataValue, 4.09, 5, 5.011E-05, 4.8000000000000008E-13, -5.0046E-05, 1.15961120822283E-05, 4.8000000000000008E-13, 5.011E-05
DataValue, 4.16, 5, 5.3794E-05, -3.3120000000000004E-11, -5.3726E-05, 1.31591280043129E-05, 3.3120000000000004E-11, 5.3794E-05
DataValue, 4.23, 5, 5.7558E-05, -3.63E-12, -5.7492000000000005E-05, 1.2812342477416818E-05, 3.63E-12, 5.7558E-05
DataValue, 4.3, 5, 6.1396E-05, 5.5930000000000007E-11, -6.0824E-05, 1.1310929887939224E-05, 5.5930000000000007E-11, 6.1396E-05
DataValue, 4.37, 5, 6.4924E-05, 2.4300000000000003E-12, -6.4868E-05, 1.1379425984325565E-05, 2.4300000000000003E-12, 6.4924E-05
DataValue, 4.44, 5, 6.902E-05, -4.388E-11, -6.8972E-05, 1.2607815907441635E-05, 4.388E-11, 6.902E-05
DataValue, 4.51, 5, 7.3182E-05, 7.3E-13, -7.3124E-05, 1.2347447534983609E-05, 7.3E-13, 7.3182E-05
DataValue, 4.58, 5, 7.7436000000000009E-05, 4.8160000000000005E-11, -7.6924E-05, 1.107915633053134E-05, 4.8160000000000005E-11, 7.7436000000000009E-05
DataValue, 4.65, 5, 8.1372E-05, 2.87E-12, -8.1334E-05, 1.1031852843207202E-05, 2.87E-12, 8.1372E-05
DataValue, 4.72, 5, 8.583600000000001E-05, -5.171E-11, -8.5788E-05, 1.2044919735516802E-05, 5.171E-11, 8.583600000000001E-05
DataValue, 4.79, 5, 9.0374E-05, 5.09E-12, -9.0316000000000007E-05, 1.176872412204139E-05, 5.09E-12, 9.0374E-05
DataValue, 4.86, 5, 9.4966E-05, 3.656E-11, -9.4534E-05, 1.0679415574551627E-05, 3.656E-11, 9.4966E-05
DataValue, 4.93, 5, 9.9282E-05, 2.2200000000000002E-12, -9.9254000000000009E-05, 1.0605737564140266E-05, 2.2200000000000002E-12, 9.9282E-05
DataValue, 5, 5, 0.00010406, -5.3360000000000004E-11, -0.000104024, 9.3959489542434987E-06, 5.3360000000000004E-11, 0.00010406
DataValue, 5, 5, 0.000103604, -3.395E-11, -0.00010356, 2.1791759929705292E-05, 3.395E-11, 0.000103604
DataValue, 4.93, 5, 9.75E-05, -5.84E-12, -9.746E-05, 1.9331794146276827E-05, 5.84E-12, 9.75E-05
DataValue, 4.86, 5, 9.1452E-05, 5.07E-12, -9.1424E-05, 2.0102154813427707E-05, 5.07E-12, 9.1452E-05
DataValue, 4.79, 5, 8.5498E-05, 5.4320000000000006E-11, -8.5482E-05, 2.0653153119986244E-05, 5.4320000000000006E-11, 8.5498E-05
