
SetupTitle, TFT sat RollOut
PrimitiveTest, I/V Sweep
TestParameter, Context.MainFrame, B1500A
TestParameter, Channel.UnitType, SMU, SMU, SMU
TestParameter, Channel.Unit, SMU2:HR, SMU3:MP, SMU4:MP
TestParameter, Channel.IName, ID, IG, IS
TestParameter, Channel.VName, VD, VG, VS
TestParameter, Channel.Mode, V, V, COMMON
TestParameter, Channel.Func, CONST, VAR1, CONST
TestParameter, Channel.Index, 
TestParameter, Channel.Time, 
TestParameter, Measurement.Port.Unit, SMU2:HR, SMU3:MP, SMU4:MP
TestParameter, Measurement.Port.SeriesResistor, NONE, NONE, NONE
TestParameter, Measurement.Port.Filter, ON, ON, ON
TestParameter, Measurement.Port.OutputVoltageComparison, 0, 0, 0
TestParameter, Measurement.Primary.Locus, Double
TestParameter, Measurement.Primary.Scale, LINEAR
TestParameter, Measurement.Primary.Start, -2
TestParameter, Measurement.Primary.Stop, 5
TestParameter, Measurement.Primary.Step, 0.07
TestParameter, Measurement.Primary.Compliance, 1E-06
TestParameter, Measurement.Primary.PowerCompliance, 0
TestParameter, Measurement.Aborting.Condition, CONTINUE AT ANY
TestParameter, Measurement.PostOutput.Value, START
TestParameter, Measurement.PostOutput.Retention, OFF
TestParameter, Measurement.Bias.Source, 5, -2, 0
TestParameter, Measurement.Bias.Compliance, 0.001, 1E-06, 0.1
TestParameter, Measurement.Monitor.Unit, SMU2:HR, SMU3:MP, SMU4:MP
TestParameter, Measurement.Monitor.Adc, HR ADC, HR ADC, HR ADC
TestParameter, Measurement.Monitor.Measurement, Compliance Side, Compliance Side, Compliance Side
TestParameter, Measurement.Monitor.RangingMode, LIMITED, LIMITED, LIMITED
TestParameter, Measurement.Monitor.RangeBoundary, 100pA, 1nA, 1nA
TestParameter, Measurement.Monitor.RangeRating, BY FULL RANGE, BY FULL RANGE, BY FULL RANGE
TestParameter, Measurement.Monitor.RangeRatingCoeff, 50, 50, 50
TestParameter, Measurement.Timing.Hold, 0.5
TestParameter, Measurement.Timing.Delay, 0.05
TestParameter, Measurement.Adc.HighSpeed.Mode, AUTO
TestParameter, Measurement.Adc.HighSpeed.Coeff, 1
TestParameter, Measurement.Adc.HighResolution.AutoZero, OFF
TestParameter, Measurement.Adc.HighResolution.Mode, AUTO
TestParameter, Measurement.Adc.HighResolution.Coeff, 6
TestParameter, Measurement.WaitTime.Source.Coeff, 1
TestParameter, Measurement.WaitTime.Source.Offset, 0
TestParameter, Measurement.WaitTime.Monitor.Coeff, 1
TestParameter, Measurement.WaitTime.Monitor.Offset, 0
TestParameter, Function.Analysis.Name, dIddVg, absIg, absId
TestParameter, Function.Analysis.Unit, S, A, A
TestParameter, Function.Analysis.Definition, (delta(sqrt(ID))/delta(VG))^2, abs(IG), abs(ID)
TestParameter, Output.Graph.Enabled, true
TestParameter, Output.Graph.AutoScaling, false
TestParameter, Output.Graph.XAxis.Data, VG
TestParameter, Output.Graph.XAxis.Scale, Linear
TestParameter, Output.Graph.XAxis.Left, -2
TestParameter, Output.Graph.XAxis.Right, 6
TestParameter, Output.Graph.XAxis.RunTimeAutoScale, true
TestParameter, Output.Graph.YAxis.Data, absId, absIg, dIddVg, IS
TestParameter, Output.Graph.YAxis.Scale, Log, Log, Linear, Linear
TestParameter, Output.Graph.YAxis.Bottom, 0, 0, 0, -0.1
TestParameter, Output.Graph.YAxis.Top, 1, 1, 1, 0.1
TestParameter, Output.Graph.YAxis.Group, , , , 
TestParameter, Output.Graph.YAxis.RunTimeAutoScale, true, true, true, false
TestParameter, Output.List.Data, VG, IG, ID, IS, VD, dIddVg, absIg, absId
TestParameter, AutoAnalysis.Interpolation, false
TestParameter, AutoAnalysis.Line1.Enabled, false
TestParameter, AutoAnalysis.Line1.Type, 1
TestParameter, AutoAnalysis.Line1.Fix, True
TestParameter, AutoAnalysis.Line1.YAxis, 0
TestParameter, AutoAnalysis.Line1.Point1.Type, 0
TestParameter, AutoAnalysis.Line1.Point1.XY.X, 
TestParameter, AutoAnalysis.Line1.Point1.XY.Y, 
TestParameter, AutoAnalysis.Line1.Point1.Data.Var, 
TestParameter, AutoAnalysis.Line1.Point1.Data.Condition, 
TestParameter, AutoAnalysis.Line1.Point1.Data.Start, false
TestParameter, AutoAnalysis.Line1.Point1.Data.StartVar, 
TestParameter, AutoAnalysis.Line1.Point1.Data.StartCondition, 
TestParameter, AutoAnalysis.Line1.Point2.Type, 0
TestParameter, AutoAnalysis.Line1.Point2.XY.X, 
TestParameter, AutoAnalysis.Line1.Point2.XY.Y, 
TestParameter, AutoAnalysis.Line1.Point2.Data.Var, 
TestParameter, AutoAnalysis.Line1.Point2.Data.Condition, 
TestParameter, AutoAnalysis.Line1.Point2.Data.Start, false
TestParameter, AutoAnalysis.Line1.Point2.Data.StartVar, 
TestParameter, AutoAnalysis.Line1.Point2.Data.StartCondition, 
TestParameter, AutoAnalysis.Line1.GradientExpr, 0
TestParameter, AutoAnalysis.Line2.Enabled, false
TestParameter, AutoAnalysis.Line2.Type, 1
TestParameter, AutoAnalysis.Line2.Fix, True
TestParameter, AutoAnalysis.Line2.YAxis, 0
TestParameter, AutoAnalysis.Line2.Point1.Type, 0
TestParameter, AutoAnalysis.Line2.Point1.XY.X, 
TestParameter, AutoAnalysis.Line2.Point1.XY.Y, 
TestParameter, AutoAnalysis.Line2.Point1.Data.Var, 
TestParameter, AutoAnalysis.Line2.Point1.Data.Condition, 
TestParameter, AutoAnalysis.Line2.Point1.Data.Start, false
TestParameter, AutoAnalysis.Line2.Point1.Data.StartVar, 
TestParameter, AutoAnalysis.Line2.Point1.Data.StartCondition, 
TestParameter, AutoAnalysis.Line2.Point2.Type, 0
TestParameter, AutoAnalysis.Line2.Point2.XY.X, 
TestParameter, AutoAnalysis.Line2.Point2.XY.Y, 
TestParameter, AutoAnalysis.Line2.Point2.Data.Var, 
TestParameter, AutoAnalysis.Line2.Point2.Data.Condition, 
TestParameter, AutoAnalysis.Line2.Point2.Data.Start, false
TestParameter, AutoAnalysis.Line2.Point2.Data.StartVar, 
TestParameter, AutoAnalysis.Line2.Point2.Data.StartCondition, 
TestParameter, AutoAnalysis.Line2.GradientExpr, 0
TestParameter, AutoAnalysis.Marker.Enabled, false
TestParameter, AutoAnalysis.Marker.Data.Var, 
TestParameter, AutoAnalysis.Marker.Data.Condition, 
TestParameter, AutoAnalysis.Marker.Data.Start, false
TestParameter, AutoAnalysis.Marker.Data.StartVar, 
TestParameter, AutoAnalysis.Marker.Data.StartCondition, 
MetaData, TestRecord.EntryPoint, true
MetaData, TestRecord.RecordTime, 07/03/2019 12:18:43
MetaData, TestRecord.TestTarget, 6-46
MetaData, TestRecord.IterationIndex, 1
MetaData, TestRecord.Preservation, true
MetaData, TestRecord.Flag, 
MetaData, TestRecord.Remarks, good
MetaData, TestRecord.LinkKey, 9cf9909e-cb5a-4384-b3af-c4c1efa1d9f7
Dimension1, 202, 202, 202, 202, 202, 202, 202, 202
Dimension2, 1, 1, 1, 1, 1, 1, 1, 1
DataName, VG, VD, ID, IG, IS, dIddVg, absIg, absId
DataValue, -2, 5, 7.6220000000000009E-11, -8.79E-11, 1.4400000000000001E-12, 2.9331117222576057E-10, 8.79E-11, 7.6220000000000009E-11
DataValue, -1.93, 5, 9.859E-11, -6.604E-11, -4.5180000000000006E-11, 4.4061479939102507E-11, 6.604E-11, 9.859E-11
DataValue, -1.86, 5, 9.3310000000000012E-11, -6.49E-11, -5.372E-11, 2.1679522964877102E-11, 6.49E-11, 9.3310000000000012E-11
DataValue, -1.79, 5, 8.607E-11, -6.181E-11, -6.473E-11, 2.7151799802417314E-12, 6.181E-11, 8.607E-11
DataValue, -1.72, 5, 9.782E-11, -6.098E-11, -2.7560000000000003E-11, 9.7826095099719247E-11, 6.098E-11, 9.782E-11
DataValue, -1.6500000000000001, 5, 6.22946E-11, -9.2350000000000009E-11, -4.1780000000000003E-11, 3.6658665925482947E-10, 9.2350000000000009E-11, 6.22946E-11
DataValue, -1.58, 5, 5.19826E-11, -5.3620000000000005E-11, 1.0720000000000001E-11, 4.4736675313033142E-12, 5.3620000000000005E-11, 5.19826E-11
DataValue, -1.51, 5, 5.7707999999999996E-11, -9.187E-11, 2.19E-12, 7.67033728075797E-12, 9.187E-11, 5.7707999999999996E-11
DataValue, -1.44, 5, 5.7724E-11, -7.653E-11, -5.5080000000000005E-11, 1.915918989137501E-11, 7.653E-11, 5.7724E-11
DataValue, -1.37, 5, 4.8773199999999996E-11, -4.945E-11, 1.6300000000000001E-12, 3.688958313853496E-12, 4.945E-11, 4.8773199999999996E-11
DataValue, -1.3, 5, 5.37104E-11, -9.487E-11, 3.7000000000000004E-13, 6.5351206033779844E-12, 9.487E-11, 5.37104E-11
DataValue, -1.23, 5, 5.39002E-11, -6.226E-11, -6.6070000000000011E-11, 1.5429899445806696E-11, 6.226E-11, 5.39002E-11
DataValue, -1.16, 5, 4.59522E-11, -4.6270000000000005E-11, 2.2500000000000003E-12, 4.0211679046603507E-11, 4.6270000000000005E-11, 4.59522E-11
DataValue, -1.09, 5, 4.16528E-11, -1.2160000000000002E-11, -2.9400000000000004E-12, 1.6786445789464088E-11, 1.2160000000000002E-11, 4.16528E-11
DataValue, -1.02, 5, 3.85046E-11, -1.1970000000000002E-11, 4.7150000000000006E-11, 4.57476694015392E-12, 1.1970000000000002E-11, 3.85046E-11
DataValue, -0.95000000000000007, 5, 4.56076E-11, -4.435E-11, -7.94E-12, 2.4684974188395734E-13, 4.435E-11, 4.56076E-11
DataValue, -0.88, 5, 3.76462E-11, 4.2000000000000003E-13, -2.0000000000000003E-14, 3.86753793754643E-11, 4.2000000000000003E-13, 3.76462E-11
DataValue, -0.81, 5, 3.4606E-11, -1.9910000000000002E-11, 6.264E-11, 3.8921225407881706E-12, 1.9910000000000002E-11, 3.4606E-11
DataValue, -0.74, 5, 4.11118E-11, -3.9750000000000005E-11, -4.7000000000000006E-12, 6.6522420901405559E-13, 3.9750000000000005E-11, 4.11118E-11
DataValue, -0.67, 5, 3.32756E-11, 8.41E-12, -2.85E-12, 3.4219162738615832E-11, 8.41E-12, 3.32756E-11
DataValue, -0.6, 5, 3.12804E-11, -2.094E-11, 6.1830000000000008E-11, 5.7675046379168191E-12, 2.094E-11, 3.12804E-11
DataValue, -0.53, 5, 3.72676E-11, -3.8180000000000004E-11, -7.3E-13, 2.377516780862053E-14, 3.8180000000000004E-11, 3.72676E-11
DataValue, -0.46, 5, 3.10394E-11, 1.621E-11, -1.6E-12, 3.0961932549748836E-11, 1.621E-11, 3.10394E-11
DataValue, -0.39, 5, 2.83632E-11, -2.7050000000000003E-11, 6.905000000000001E-11, 4.2067600832318969E-12, 2.7050000000000003E-11, 2.83632E-11
DataValue, -0.32, 5, 3.43214E-11, -3.2460000000000003E-11, -2.6300000000000003E-12, 5.293368497953305E-11, 3.2460000000000003E-11, 3.43214E-11
DataValue, -0.25, 5, 4.0249999999999997E-11, -7.209E-11, -1.3800000000000002E-12, 9.1881777583850425E-11, 7.209E-11, 4.0249999999999997E-11
DataValue, -0.18, 5, 5.1846E-11, -5.623E-11, -7.154E-11, 1.8477551239804632E-10, 5.623E-11, 5.1846E-11
DataValue, -0.11, 5, 6.80186E-11, -2.848E-11, -3.792E-11, 3.6199399838409294E-10, 2.848E-11, 6.80186E-11
DataValue, -0.04, 5, 9.73E-11, -3.063E-11, -1.0137000000000001E-10, 5.0602681201406375E-09, 3.063E-11, 9.73E-11
DataValue, 0.03, 5, 3.3147000000000005E-10, 2.5760000000000003E-11, -2.9585E-10, 1.7180910730932273E-08, 2.5760000000000003E-11, 3.3147000000000005E-10
DataValue, 0.1, 5, 7.9607E-10, -2.929E-11, -6.918800000000001E-10, 1.3955146128932568E-08, 2.929E-11, 7.9607E-10
DataValue, 0.17, 5, 1.2072E-09, -7.7080000000000007E-11, -1.0945E-09, 9.508676341647803E-09, 7.7080000000000007E-11, 1.2072E-09
DataValue, 0.24, 5, 1.7528E-09, -5.12E-11, -1.7382E-09, 8.56189714902206E-09, 5.12E-11, 1.7528E-09
DataValue, 0.31, 5, 2.2752E-09, -2.4350000000000002E-11, -2.2023E-09, 8.33743756349557E-09, 2.4350000000000002E-11, 2.2752E-09
DataValue, 0.38, 5, 2.9866E-09, -5.4100000000000006E-12, -2.8796E-09, 9.4155273032384382E-09, 5.4100000000000006E-12, 2.9866E-09
DataValue, 0.45, 5, 3.7557E-09, -7.518E-11, -3.6971E-09, 1.0235256124719556E-08, 7.518E-11, 3.7557E-09
DataValue, 0.52, 5, 4.7353E-09, -1.97E-11, -4.5955E-09, 1.3906389361041352E-08, 1.97E-11, 4.7353E-09
DataValue, 0.59, 5, 6.0518E-09, -1.7960000000000002E-11, -5.6671E-09, 1.6400839842168087E-08, 1.7960000000000002E-11, 6.0518E-09
DataValue, 0.66, 5, 7.5243E-09, 3.004E-11, -7.0566E-09, 1.4565346184726665E-08, 3.004E-11, 7.5243E-09
DataValue, 0.73, 5, 8.9661E-09, 1.963E-11, -8.6183E-09, 4.2568927859369124E-09, 1.963E-11, 8.9661E-09
DataValue, 0.8, 5, 9.1924E-09, -2.0930000000000002E-11, -9.6324E-09, 1.0158226160532684E-08, 2.0930000000000002E-11, 9.1924E-09
DataValue, 0.87, 5, 1.1837399999999999E-08, -1.8220000000000003E-11, -1.1771399999999999E-08, 6.1966117596051E-08, 1.8220000000000003E-11, 1.1837399999999999E-08
DataValue, 0.94000000000000006, 5, 1.7089599999999998E-08, -5.941E-11, -1.6898999999999998E-08, 9.6225378827318915E-08, 5.941E-11, 1.7089599999999998E-08
DataValue, 1.01, 5, 2.3173399999999997E-08, -1.899E-11, -2.28528E-08, 9.8231402231267037E-08, 1.899E-11, 2.3173399999999997E-08
DataValue, 1.08, 5, 3.04872E-08, -1.5740000000000002E-11, -3.00524E-08, 1.1566713178793288E-07, 1.5740000000000002E-11, 3.04872E-08
DataValue, 1.1500000000000001, 5, 3.99368E-08, -7.063E-11, -3.9401599999999996E-08, 1.4779536166203298E-07, 7.063E-11, 3.99368E-08
DataValue, 1.22, 5, 5.21792E-08, -2.3000000000000003E-13, -5.1404999999999996E-08, 1.7931068157828723E-07, 2.3000000000000003E-13, 5.21792E-08
DataValue, 1.29, 5, 6.7145799999999987E-08, -5.5200000000000007E-12, -6.6222399999999991E-08, 2.1888263569180991E-07, 5.5200000000000007E-12, 6.7145799999999987E-08
DataValue, 1.36, 5, 8.6392799999999987E-08, -8.9900000000000011E-12, -8.4888999999999987E-08, 2.7427977982172417E-07, 8.9900000000000011E-12, 8.6392799999999987E-08
DataValue, 1.43, 5, 1.1052E-07, 2.132E-11, -1.0542E-07, 3.4194070313298E-07, 2.132E-11, 1.1052E-07
DataValue, 1.5, 5, 1.4122E-07, -1.3460000000000001E-11, -1.4074E-07, 4.6489384036603484E-07, 1.3460000000000001E-11, 1.4122E-07
DataValue, 1.57, 5, 1.831E-07, -6.645E-11, -1.8196E-07, 5.9880608455911484E-07, 6.645E-11, 1.831E-07
DataValue, 1.6400000000000001, 5, 2.3437999999999999E-07, -1.0200000000000001E-11, -2.3339999999999999E-07, 6.9843989674552425E-07, 1.0200000000000001E-11, 2.3437999999999999E-07
DataValue, 1.71, 5, 2.9692E-07, 3.5200000000000003E-12, -2.952E-07, 8.29731190379426E-07, 3.5200000000000003E-12, 2.9692E-07
DataValue, 1.78, 5, 3.7412E-07, 1.493E-11, -3.723E-07, 1.001115887867944E-06, 1.493E-11, 3.7412E-07
DataValue, 1.85, 5, 4.692E-07, -1.075E-11, -4.6542E-07, 1.1616969138608813E-06, 1.075E-11, 4.692E-07
DataValue, 1.92, 5, 5.8147999999999994E-07, -6.3040000000000009E-11, -5.7826E-07, 1.3315900319512816E-06, 6.3040000000000009E-11, 5.8147999999999994E-07
DataValue, 1.99, 5, 7.1662E-07, -6.9900000000000007E-12, -7.125E-07, 1.5414455902376776E-06, 6.9900000000000007E-12, 7.1662E-07
DataValue, 2.06, 5, 8.7678E-07, 2.225E-11, -8.7426E-07, 1.5657183592490435E-06, 2.225E-11, 8.7678E-07
DataValue, 2.13, 5, 1.0439E-06, -7.32E-12, -1.0158E-06, 1.8203832982944278E-06, 7.32E-12, 1.0439E-06
DataValue, 2.2, 5, 1.2662E-06, -8.480000000000001E-12, -1.2623000000000002E-06, 2.4906294506169621E-06, 8.480000000000001E-12, 1.2662E-06
DataValue, 2.27, 5, 1.5442000000000002E-06, -6.157E-11, -1.5382000000000002E-06, 2.957431443749526E-06, 6.157E-11, 1.5442000000000002E-06
DataValue, 2.34, 5, 1.8660000000000002E-06, -5.3000000000000004E-12, -1.8601000000000002E-06, 3.2882868598404005E-06, 5.3000000000000004E-12, 1.8660000000000002E-06
DataValue, 2.41, 5, 2.2396E-06, 4.8080000000000004E-11, -2.2335000000000003E-06, 3.7206618420561482E-06, 4.8080000000000004E-11, 2.2396E-06
DataValue, 2.48, 5, 2.6767E-06, -5.7800000000000008E-12, -2.6678E-06, 4.1944834035078609E-06, 5.7800000000000008E-12, 2.6767E-06
DataValue, 2.5500000000000003, 5, 3.1800000000000005E-06, -5.882000000000001E-11, -3.1698E-06, 4.7612309161550394E-06, 5.882000000000001E-11, 3.1800000000000005E-06
DataValue, 2.62, 5, 3.7696000000000003E-06, -3.0800000000000002E-12, -3.7584000000000003E-06, 5.3384719665799744E-06, 3.0800000000000002E-12, 3.7696000000000003E-06
DataValue, 2.69, 5, 4.4383E-06, 5.0530000000000005E-11, -4.4246000000000008E-06, 5.9249680517625205E-06, 5.0530000000000005E-11, 4.4383E-06
DataValue, 2.7600000000000002, 5, 5.2090000000000004E-06, -4.57E-12, -5.1909000000000006E-06, 6.577706570240269E-06, 4.57E-12, 5.2090000000000004E-06
DataValue, 2.83, 5, 6.0801000000000005E-06, -5.681E-11, -6.0594000000000008E-06, 7.1418911648465255E-06, 5.681E-11, 6.0801000000000005E-06
DataValue, 2.9, 5, 7.0568000000000008E-06, -1.55E-12, -7.0328000000000007E-06, 7.7037650136943221E-06, 1.55E-12, 7.0568000000000008E-06
DataValue, 2.97, 5, 8.147400000000001E-06, 5.0320000000000007E-11, -8.1242000000000009E-06, 8.25247404012313E-06, 5.0320000000000007E-11, 8.147400000000001E-06
DataValue, 3.04, 5, 9.3553000000000017E-06, -4.3400000000000005E-12, -9.3286E-06, 8.5248256112025814E-06, 4.3400000000000005E-12, 9.3553000000000017E-06
DataValue, 3.11, 5, 1.0648E-05, 1.03E-12, -1.06179E-05, 9.3794497436781846E-06, 1.03E-12, 1.0648E-05
DataValue, 3.18, 5, 1.2162E-05, 4.6450000000000005E-11, -1.1992E-05, 9.4266084488724937E-06, 4.6450000000000005E-11, 1.2162E-05
DataValue, 3.25, 5, 1.3638E-05, -1.8700000000000003E-12, -1.3604E-05, 9.4893628460398049E-06, 1.8700000000000003E-12, 1.3638E-05
DataValue, 3.3200000000000003, 5, 1.5356E-05, -5.5110000000000004E-11, -1.5304E-05, 1.037506686430531E-05, 5.5110000000000004E-11, 1.5356E-05
DataValue, 3.39, 5, 1.7172E-05, 1.9000000000000002E-13, -1.7120000000000002E-05, 1.0514685307934688E-05, 1.9000000000000002E-13, 1.7172E-05
DataValue, 3.46, 5, 1.912E-05, 2.44E-11, -1.868E-05, 9.5652049427778166E-06, 2.44E-11, 1.912E-05
DataValue, 3.5300000000000002, 5, 2.0948E-05, -1.21E-12, -2.0892E-05, 1.006716835231155E-05, 1.21E-12, 2.0948E-05
DataValue, 3.6, 5, 2.3202000000000002E-05, -5.3230000000000006E-11, -2.3144E-05, 1.163806078077625E-05, 5.3230000000000006E-11, 2.3202000000000002E-05
DataValue, 3.67, 5, 2.5548E-05, 1.1900000000000002E-12, -2.5488E-05, 1.1504024280767294E-05, 1.1900000000000002E-12, 2.5548E-05
DataValue, 3.74, 5, 2.8002E-05, 1.0340000000000002E-11, -2.7414000000000002E-05, 1.0092863178245683E-05, 1.0340000000000002E-11, 2.8002E-05
DataValue, 3.81, 5, 3.0242E-05, -1.8900000000000002E-12, -3.017E-05, 1.0512204356140554E-05, 1.8900000000000002E-12, 3.0242E-05
DataValue, 3.88, 5, 3.3012E-05, -4.8960000000000005E-11, -3.2942000000000004E-05, 1.2260908287521648E-05, 4.8960000000000005E-11, 3.3012E-05
DataValue, 3.95, 5, 3.5874E-05, 2.2000000000000003E-12, -3.5806E-05, 1.2047131895864168E-05, 2.2000000000000003E-12, 3.5874E-05
DataValue, 4.0200000000000005, 5, 3.8832000000000004E-05, 4.43E-12, -3.8114E-05, 1.0150395743120397E-05, 4.43E-12, 3.8832000000000004E-05
DataValue, 4.09, 5, 4.1416000000000005E-05, -5.9E-13, -4.1344E-05, 1.0556530085854836E-05, 5.9E-13, 4.1416000000000005E-05
DataValue, 4.16, 5, 4.4708E-05, 3.5200000000000003E-12, -4.3996000000000004E-05, 1.0958891744803243E-05, 3.5200000000000003E-12, 4.4708E-05
DataValue, 4.23, 5, 4.7596E-05, 1.9700000000000003E-12, -4.6920000000000005E-05, 9.5784453026746142E-06, 1.9700000000000003E-12, 4.7596E-05
DataValue, 4.3, 5, 5.0690000000000004E-05, -1.2370000000000002E-11, -5.0616000000000005E-05, 1.1604791737905769E-05, 1.2370000000000002E-11, 5.0690000000000004E-05
DataValue, 4.37, 5, 5.4404E-05, 4.33E-12, -5.3696E-05, 1.1571123244852185E-05, 4.33E-12, 5.4404E-05
DataValue, 4.44, 5, 5.7698E-05, 2.4000000000000004E-13, -5.699E-05, 1.008421735554462E-05, 2.4000000000000004E-13, 5.7698E-05
DataValue, 4.51, 5, 6.116E-05, -2.947E-11, -6.1092E-05, 1.1881316598979802E-05, 2.947E-11, 6.116E-05
DataValue, 4.58, 5, 6.5262E-05, 4.2000000000000007E-12, -6.455E-05, 1.1766710212039478E-05, 4.2000000000000007E-12, 6.5262E-05
DataValue, 4.65, 5, 6.8902E-05, 4.0000000000000006E-14, -6.8232E-05, 1.028553701199441E-05, 4.0000000000000006E-14, 6.8902E-05
DataValue, 4.72, 5, 7.2718E-05, -4.581E-11, -7.2636E-05, 1.1948026065417999E-05, 4.581E-11, 7.2718E-05
DataValue, 4.79, 5, 7.7170000000000008E-05, 7.2500000000000008E-12, -7.646E-05, 1.1747529695473926E-05, 7.2500000000000008E-12, 7.7170000000000008E-05
DataValue, 4.86, 5, 8.1132000000000009E-05, 6.9000000000000009E-13, -8.0458000000000008E-05, 1.0230726728911873E-05, 6.9000000000000009E-13, 8.1132000000000009E-05
DataValue, 4.93, 5, 8.5238E-05, 4.0900000000000005E-12, -8.4582E-05, 1.0401911996519752E-05, 4.0900000000000005E-12, 8.5238E-05
DataValue, 5, 5, 8.9470000000000009E-05, 2.061E-11, -8.8824E-05, 5.0248268203305945E-06, 2.061E-11, 8.9470000000000009E-05
DataValue, 5, 5, 8.816000000000001E-05, 5.0830000000000007E-11, -8.8114E-05, 3.9528174768362507E-05, 5.0830000000000007E-11, 8.816000000000001E-05
DataValue, 4.93, 5, 8.1338E-05, -4.6240000000000007E-11, -8.0958E-05, 2.9226298224018679E-05, 4.6240000000000007E-11, 8.1338E-05
DataValue, 4.86, 5, 7.452E-05, 4.46E-12, -7.4356E-05, 2.9062868398148858E-05, 4.46E-12, 7.452E-05
