
SetupTitle, output RollOut
PrimitiveTest, I/V Sweep
TestParameter, Context.MainFrame, B1500A
TestParameter, Channel.UnitType, SMU, SMU, SMU
TestParameter, Channel.Unit, SMU2:HR, SMU3:MP, SMU4:MP
TestParameter, Channel.IName, ID, IG, IS
TestParameter, Channel.VName, VD, VG, VS
TestParameter, Channel.Mode, V, V, COMMON
TestParameter, Channel.Func, VAR1, VAR2, CONST
TestParameter, Channel.Index, 
TestParameter, Channel.Time, 
TestParameter, Measurement.Port.Unit, SMU2:HR, SMU3:MP, SMU4:MP
TestParameter, Measurement.Port.SeriesResistor, NONE, NONE, NONE
TestParameter, Measurement.Port.Filter, ON, ON, ON
TestParameter, Measurement.Port.OutputVoltageComparison, 0, 0, 0
TestParameter, Measurement.Primary.Locus, Single
TestParameter, Measurement.Primary.Scale, LINEAR
TestParameter, Measurement.Primary.Start, 0
TestParameter, Measurement.Primary.Stop, 5
TestParameter, Measurement.Primary.Step, 0.1
TestParameter, Measurement.Primary.Compliance, 0.01
TestParameter, Measurement.Primary.PowerCompliance, 0
TestParameter, Measurement.Aborting.Condition, CONTINUE AT ANY
TestParameter, Measurement.PostOutput.Value, START
TestParameter, Measurement.PostOutput.Retention, OFF
TestParameter, Measurement.Secondary.Start, 0
TestParameter, Measurement.Secondary.Count, 7
TestParameter, Measurement.Secondary.Step, 0.5
TestParameter, Measurement.Secondary.Compliance, 1E-06
TestParameter, Measurement.Secondary.PowerCompliance, 0
TestParameter, Measurement.Bias.Source, 0, 0, 0
TestParameter, Measurement.Bias.Compliance, 0.01, 1E-06, 0.1
TestParameter, Measurement.Monitor.Unit, SMU2:HR, SMU3:MP, SMU4:MP
TestParameter, Measurement.Monitor.Adc, HR ADC, HR ADC, HR ADC
TestParameter, Measurement.Monitor.Measurement, Compliance Side, Compliance Side, Compliance Side
TestParameter, Measurement.Monitor.RangingMode, LIMITED, LIMITED, LIMITED
TestParameter, Measurement.Monitor.RangeBoundary, 100pA, 1nA, 1nA
TestParameter, Measurement.Monitor.RangeRating, BY FULL RANGE, BY FULL RANGE, BY FULL RANGE
TestParameter, Measurement.Monitor.RangeRatingCoeff, 50, 50, 50
TestParameter, Measurement.Timing.Hold, 0.5
TestParameter, Measurement.Timing.Delay, 0.05
TestParameter, Measurement.Adc.HighSpeed.Mode, AUTO
TestParameter, Measurement.Adc.HighSpeed.Coeff, 1
TestParameter, Measurement.Adc.HighResolution.AutoZero, OFF
TestParameter, Measurement.Adc.HighResolution.Mode, AUTO
TestParameter, Measurement.Adc.HighResolution.Coeff, 6
TestParameter, Measurement.WaitTime.Source.Coeff, 1
TestParameter, Measurement.WaitTime.Source.Offset, 0
TestParameter, Measurement.WaitTime.Monitor.Coeff, 1
TestParameter, Measurement.WaitTime.Monitor.Offset, 0
TestParameter, Function.Analysis.Name, absIg, absId
TestParameter, Function.Analysis.Unit, A, A
TestParameter, Function.Analysis.Definition, abs(IG), abs(ID)
TestParameter, Output.Graph.Enabled, true
TestParameter, Output.Graph.AutoScaling, false
TestParameter, Output.Graph.XAxis.Data, VD
TestParameter, Output.Graph.XAxis.Scale, Linear
TestParameter, Output.Graph.XAxis.Left, 0
TestParameter, Output.Graph.XAxis.Right, 8
TestParameter, Output.Graph.XAxis.RunTimeAutoScale, true
TestParameter, Output.Graph.YAxis.Data, absId, absIg, IS
TestParameter, Output.Graph.YAxis.Scale, Linear, Log, Linear
TestParameter, Output.Graph.YAxis.Bottom, 0, 0, -0.1
TestParameter, Output.Graph.YAxis.Top, 1, 1, 0.1
TestParameter, Output.Graph.YAxis.Group, , , 
TestParameter, Output.Graph.YAxis.RunTimeAutoScale, true, true, true
TestParameter, Output.List.Data, VG, IG, ID, IS, IS, VD, absIg, absId
TestParameter, AutoAnalysis.Interpolation, false
TestParameter, AutoAnalysis.Line1.Enabled, false
TestParameter, AutoAnalysis.Line1.Type, 1
TestParameter, AutoAnalysis.Line1.Fix, True
TestParameter, AutoAnalysis.Line1.YAxis, 0
TestParameter, AutoAnalysis.Line1.Point1.Type, 0
TestParameter, AutoAnalysis.Line1.Point1.XY.X, 
TestParameter, AutoAnalysis.Line1.Point1.XY.Y, 
TestParameter, AutoAnalysis.Line1.Point1.Data.Var, 
TestParameter, AutoAnalysis.Line1.Point1.Data.Condition, 
TestParameter, AutoAnalysis.Line1.Point1.Data.Start, false
TestParameter, AutoAnalysis.Line1.Point1.Data.StartVar, 
TestParameter, AutoAnalysis.Line1.Point1.Data.StartCondition, 
TestParameter, AutoAnalysis.Line1.Point2.Type, 0
TestParameter, AutoAnalysis.Line1.Point2.XY.X, 
TestParameter, AutoAnalysis.Line1.Point2.XY.Y, 
TestParameter, AutoAnalysis.Line1.Point2.Data.Var, 
TestParameter, AutoAnalysis.Line1.Point2.Data.Condition, 
TestParameter, AutoAnalysis.Line1.Point2.Data.Start, false
TestParameter, AutoAnalysis.Line1.Point2.Data.StartVar, 
TestParameter, AutoAnalysis.Line1.Point2.Data.StartCondition, 
TestParameter, AutoAnalysis.Line1.GradientExpr, 0
TestParameter, AutoAnalysis.Line2.Enabled, false
TestParameter, AutoAnalysis.Line2.Type, 1
TestParameter, AutoAnalysis.Line2.Fix, True
TestParameter, AutoAnalysis.Line2.YAxis, 0
TestParameter, AutoAnalysis.Line2.Point1.Type, 0
TestParameter, AutoAnalysis.Line2.Point1.XY.X, 
TestParameter, AutoAnalysis.Line2.Point1.XY.Y, 
TestParameter, AutoAnalysis.Line2.Point1.Data.Var, 
TestParameter, AutoAnalysis.Line2.Point1.Data.Condition, 
TestParameter, AutoAnalysis.Line2.Point1.Data.Start, false
TestParameter, AutoAnalysis.Line2.Point1.Data.StartVar, 
TestParameter, AutoAnalysis.Line2.Point1.Data.StartCondition, 
TestParameter, AutoAnalysis.Line2.Point2.Type, 0
TestParameter, AutoAnalysis.Line2.Point2.XY.X, 
TestParameter, AutoAnalysis.Line2.Point2.XY.Y, 
TestParameter, AutoAnalysis.Line2.Point2.Data.Var, 
TestParameter, AutoAnalysis.Line2.Point2.Data.Condition, 
TestParameter, AutoAnalysis.Line2.Point2.Data.Start, false
TestParameter, AutoAnalysis.Line2.Point2.Data.StartVar, 
TestParameter, AutoAnalysis.Line2.Point2.Data.StartCondition, 
TestParameter, AutoAnalysis.Line2.GradientExpr, 0
TestParameter, AutoAnalysis.Marker.Enabled, false
TestParameter, AutoAnalysis.Marker.Data.Var, 
TestParameter, AutoAnalysis.Marker.Data.Condition, 
TestParameter, AutoAnalysis.Marker.Data.Start, false
TestParameter, AutoAnalysis.Marker.Data.StartVar, 
TestParameter, AutoAnalysis.Marker.Data.StartCondition, 
MetaData, TestRecord.EntryPoint, true
MetaData, TestRecord.RecordTime, 07/03/2019 11:14:51
MetaData, TestRecord.TestTarget, 6-42
MetaData, TestRecord.IterationIndex, 1
MetaData, TestRecord.Preservation, true
MetaData, TestRecord.Flag, 
MetaData, TestRecord.Remarks, good
MetaData, TestRecord.LinkKey, a34ff7ea-edfd-4dc8-b7c5-688569a052eb
Dimension1, 51, 51, 51, 51, 51, 51, 51
Dimension2, 7, 7, 7, 7, 7, 7, 7
DataName, VD, VG, ID, IG, IS, absIg, absId
DataValue, 0, 0, 3.7412E-12, 8.2E-13, 4.7030000000000005E-11, 8.2E-13, 3.7412E-12
DataValue, 0.1, 0, 7.1987E-10, -2.0500000000000004E-12, -7.727200000000001E-10, 2.0500000000000004E-12, 7.1987E-10
DataValue, 0.2, 0, 8.8214000000000012E-10, -1.3300000000000002E-12, -9.2331000000000009E-10, 1.3300000000000002E-12, 8.8214000000000012E-10
DataValue, 0.3, 0, 1.0241E-09, -4.9830000000000004E-11, -1.0253700000000002E-09, 4.9830000000000004E-11, 1.0241E-09
DataValue, 0.4, 0, 1.0347E-09, 5.7E-13, -9.820700000000001E-10, 5.7E-13, 1.0347E-09
DataValue, 0.5, 0, 1.1061E-09, 7.6000000000000009E-13, -1.0673E-09, 7.6000000000000009E-13, 1.1061E-09
DataValue, 0.6, 0, 1.0807E-09, -5.4210000000000006E-11, -1.0783E-09, 5.4210000000000006E-11, 1.0807E-09
DataValue, 0.70000000000000007, 0, 1.1051E-09, -3.6000000000000004E-12, -1.1511E-09, 3.6000000000000004E-12, 1.1051E-09
DataValue, 0.8, 0, 1.0433E-09, -2.8300000000000003E-12, -1.0774E-09, 2.8300000000000003E-12, 1.0433E-09
DataValue, 0.9, 0, 1.081E-09, 5.218E-11, -1.0827E-09, 5.218E-11, 1.081E-09
DataValue, 1, 0, 1.1036E-09, -4.36E-12, -1.1537E-09, 4.36E-12, 1.1036E-09
DataValue, 1.1, 0, 1.043E-09, -3.1200000000000004E-12, -1.0785E-09, 3.1200000000000004E-12, 1.043E-09
DataValue, 1.2, 0, 1.0815E-09, 4.8850000000000004E-11, -1.0785E-09, 4.8850000000000004E-11, 1.0815E-09
DataValue, 1.3, 0, 1.1028E-09, -4.63E-12, -1.1507E-09, 4.63E-12, 1.1028E-09
DataValue, 1.4000000000000001, 0, 1.0404E-09, -4.92E-12, -1.0788E-09, 4.92E-12, 1.0404E-09
DataValue, 1.5, 0, 1.0757E-09, 4.9410000000000007E-11, -1.0758E-09, 4.9410000000000007E-11, 1.0757E-09
DataValue, 1.6, 0, 1.1019E-09, -6.5200000000000005E-12, -1.1467E-09, 6.5200000000000005E-12, 1.1019E-09
DataValue, 1.7, 0, 1.0389E-09, -5.85E-12, -1.076E-09, 5.85E-12, 1.0389E-09
DataValue, 1.8, 0, 1.079E-09, 4.847E-11, -1.0685E-09, 4.847E-11, 1.079E-09
DataValue, 1.9000000000000001, 0, 1.0978E-09, -8.9800000000000009E-12, -1.1427E-09, 8.9800000000000009E-12, 1.0978E-09
DataValue, 2, 0, 1.0362E-09, -7.3800000000000013E-12, -1.0706E-09, 7.3800000000000013E-12, 1.0362E-09
DataValue, 2.1, 0, 1.0772E-09, 4.5210000000000005E-11, -1.0653E-09, 4.5210000000000005E-11, 1.0772E-09
DataValue, 2.2, 0, 1.0988E-09, -9.7900000000000009E-12, -1.1396E-09, 9.7900000000000009E-12, 1.0988E-09
DataValue, 2.3000000000000003, 0, 1.0361E-09, -8.9100000000000014E-12, -1.0645E-09, 8.9100000000000014E-12, 1.0361E-09
DataValue, 2.4, 0, 1.0762E-09, 4.432E-11, -1.0684E-09, 4.432E-11, 1.0762E-09
DataValue, 2.5, 0, 1.101E-09, -1.2250000000000001E-11, -1.1426E-09, 1.2250000000000001E-11, 1.101E-09
DataValue, 2.6, 0, 1.0344E-09, -1.1140000000000001E-11, -1.0637E-09, 1.1140000000000001E-11, 1.0344E-09
DataValue, 2.7, 0, 1.0759E-09, 4.1890000000000003E-11, -1.062E-09, 4.1890000000000003E-11, 1.0759E-09
DataValue, 2.8000000000000003, 0, 1.0917E-09, -1.363E-11, -1.1335E-09, 1.363E-11, 1.0917E-09
DataValue, 2.9, 0, 1.0306E-09, -1.353E-11, -1.0608E-09, 1.353E-11, 1.0306E-09
DataValue, 3, 0, 1.0701E-09, 3.907E-11, -1.0608E-09, 3.907E-11, 1.0701E-09
DataValue, 3.1, 0, 1.0934E-09, -1.651E-11, -1.1324E-09, 1.651E-11, 1.0934E-09
DataValue, 3.2, 0, 1.031E-09, -1.615E-11, -1.0609E-09, 1.615E-11, 1.031E-09
DataValue, 3.3000000000000003, 0, 1.0741E-09, 3.521E-11, -1.056E-09, 3.521E-11, 1.0741E-09
DataValue, 3.4, 0, 1.0967E-09, -2.0150000000000003E-11, -1.1309E-09, 2.0150000000000003E-11, 1.0967E-09
DataValue, 3.5, 0, 1.0343E-09, -2.0460000000000003E-11, -1.0534E-09, 2.0460000000000003E-11, 1.0343E-09
DataValue, 3.6, 0, 1.0736E-09, 2.9770000000000004E-11, -1.0528E-09, 2.9770000000000004E-11, 1.0736E-09
DataValue, 3.7, 0, 1.09E-09, -2.4990000000000002E-11, -1.1216E-09, 2.4990000000000002E-11, 1.09E-09
DataValue, 3.8000000000000003, 0, 1.0297E-09, -2.487E-11, -1.0426E-09, 2.487E-11, 1.0297E-09
DataValue, 3.9, 0, 1.0772E-09, 2.4970000000000002E-11, -1.0532E-09, 2.4970000000000002E-11, 1.0772E-09
DataValue, 4, 0, 1.095E-09, -3.1780000000000006E-11, -1.1182E-09, 3.1780000000000006E-11, 1.095E-09
DataValue, 4.1, 0, 1.039E-09, -3.296E-11, -1.0454E-09, 3.296E-11, 1.039E-09
DataValue, 4.2, 0, 1.082E-09, 1.693E-11, -1.0441E-09, 1.693E-11, 1.082E-09
DataValue, 4.3, 0, 1.1005E-09, -4.024E-11, -1.1162E-09, 4.024E-11, 1.1005E-09
DataValue, 4.4, 0, 1.0445E-09, -4.1250000000000006E-11, -1.0427E-09, 4.1250000000000006E-11, 1.0445E-09
DataValue, 4.5, 0, 1.0793E-09, 1.4760000000000003E-11, -1.0448E-09, 1.4760000000000003E-11, 1.0793E-09
DataValue, 4.6000000000000005, 0, 1.1074E-09, -4.345E-11, -1.1152E-09, 4.345E-11, 1.1074E-09
DataValue, 4.7, 0, 1.0466E-09, -4.3680000000000005E-11, -1.0414E-09, 4.3680000000000005E-11, 1.0466E-09
DataValue, 4.8, 0, 1.0851E-09, 8.3700000000000009E-12, -1.0395E-09, 8.3700000000000009E-12, 1.0851E-09
DataValue, 4.9, 0, 1.1122E-09, -5.026E-11, -1.114E-09, 5.026E-11, 1.1122E-09
DataValue, 5, 0, 1.0537E-09, -5.4580000000000007E-11, -1.0379E-09, 5.4580000000000007E-11, 1.0537E-09
DataValue, 0, 0.5, -6.1216E-12, -4.6930000000000006E-11, 4.9E-13, 4.6930000000000006E-11, 6.1216E-12
DataValue, 0.1, 0.5, 8.4829E-09, -2.5190000000000002E-11, -7.9288E-09, 2.5190000000000002E-11, 8.4829E-09
DataValue, 0.2, 0.5, 9.8307E-09, 3.8000000000000005E-13, -9.8265E-09, 3.8000000000000005E-13, 9.8307E-09
DataValue, 0.3, 0.5, 9.8431E-09, -1.7140000000000002E-11, -9.8561E-09, 1.7140000000000002E-11, 9.8431E-09
DataValue, 0.4, 0.5, 9.7169E-09, 4.144E-11, -9.684E-09, 4.144E-11, 9.7169E-09
DataValue, 0.5, 0.5, 9.543E-09, 1.9000000000000002E-13, -9.5654E-09, 1.9000000000000002E-13, 9.543E-09
DataValue, 0.6, 0.5, 9.3218E-09, -2.1710000000000002E-11, -9.3314E-09, 2.1710000000000002E-11, 9.3218E-09
DataValue, 0.70000000000000007, 0.5, 9.1431E-09, 3.893E-11, -9.1073E-09, 3.893E-11, 9.1431E-09
DataValue, 0.8, 0.5, 9.062E-09, -6.400000000000001E-13, -9.0743E-09, 6.400000000000001E-13, 9.062E-09
DataValue, 0.9, 0.5, 8.838E-09, -2.4450000000000003E-11, -8.856E-09, 2.4450000000000003E-11, 8.838E-09
DataValue, 1, 0.5, 8.7469E-09, 3.2910000000000006E-11, -8.702E-09, 3.2910000000000006E-11, 8.7469E-09
DataValue, 1.1, 0.5, 8.6277E-09, -1.46E-12, -8.657E-09, 1.46E-12, 8.6277E-09
DataValue, 1.2, 0.5, 8.5268E-09, -3.088E-11, -8.5091E-09, 3.088E-11, 8.5268E-09
DataValue, 1.3, 0.5, 8.4144E-09, 2.7340000000000003E-11, -8.3614E-09, 2.7340000000000003E-11, 8.4144E-09
DataValue, 1.4000000000000001, 0.5, 8.3648E-09, -2.47E-12, -8.3627E-09, 2.47E-12, 8.3648E-09
DataValue, 1.5, 0.5, 8.2388E-09, -3.373E-11, -8.2406E-09, 3.373E-11, 8.2388E-09
DataValue, 1.6, 0.5, 8.1732E-09, 2.5860000000000002E-11, -8.1326E-09, 2.5860000000000002E-11, 8.1732E-09
DataValue, 1.7, 0.5, 8.1868E-09, -4.2000000000000007E-12, -8.1601E-09, 4.2000000000000007E-12, 8.1868E-09
DataValue, 1.8, 0.5, 8.0456E-09, -3.533E-11, -8.0597E-09, 3.533E-11, 8.0456E-09
DataValue, 1.9000000000000001, 0.5, 7.9935E-09, 2.181E-11, -7.9213E-09, 2.181E-11, 7.9935E-09
DataValue, 2, 0.5, 7.9874E-09, -3.18E-12, -7.9634E-09, 3.18E-12, 7.9874E-09
DataValue, 2.1, 0.5, 7.8875E-09, -3.75E-11, -7.8931999999999992E-09, 3.75E-11, 7.8875E-09
DataValue, 2.2, 0.5, 7.8431E-09, 2.09E-11, -7.7661E-09, 2.09E-11, 7.8431E-09
DataValue, 2.3000000000000003, 0.5, 7.8086E-09, -5.4500000000000004E-12, -7.8143E-09, 5.4500000000000004E-12, 7.8086E-09
DataValue, 2.4, 0.5, 7.7422E-09, -4.068E-11, -7.7573E-09, 4.068E-11, 7.7422E-09
DataValue, 2.5, 0.5, 7.6959E-09, 1.675E-11, -7.6416E-09, 1.675E-11, 7.6959E-09
DataValue, 2.6, 0.5, 7.6963E-09, -6E-12, -7.6416E-09, 6E-12, 7.6963E-09
DataValue, 2.7, 0.5, 7.5729E-09, -4.4840000000000004E-11, -7.5953E-09, 4.4840000000000004E-11, 7.5729E-09
DataValue, 2.8000000000000003, 0.5, 7.5618E-09, 1.177E-11, -7.5273E-09, 1.177E-11, 7.5618E-09
DataValue, 2.9, 0.5, 7.5903E-09, -8.92E-12, -7.5608E-09, 8.92E-12, 7.5903E-09
DataValue, 3, 0.5, 7.4869E-09, -4.9190000000000007E-11, -7.4924E-09, 4.9190000000000007E-11, 7.4869E-09
DataValue, 3.1, 0.5, 7.4396E-09, 3.0400000000000004E-12, -7.3906E-09, 3.0400000000000004E-12, 7.4396E-09
DataValue, 3.2, 0.5, 7.4763E-09, -1.057E-11, -7.4145E-09, 1.057E-11, 7.4763E-09
DataValue, 3.3000000000000003, 0.5, 7.3593E-09, -5.273E-11, -7.3845E-09, 5.273E-11, 7.3593E-09
DataValue, 3.4, 0.5, 7.3582E-09, 2.39E-12, -7.3032E-09, 2.39E-12, 7.3582E-09
DataValue, 3.5, 0.5, 7.3774E-09, -1.381E-11, -7.3311E-09, 1.381E-11, 7.3774E-09
DataValue, 3.6, 0.5, 7.3183E-09, -5.656E-11, -7.3032E-09, 5.656E-11, 7.3183E-09
DataValue, 3.7, 0.5, 7.2804E-09, -3.91E-12, -7.199E-09, 3.91E-12, 7.2804E-09
DataValue, 3.8000000000000003, 0.5, 7.3091E-09, -1.697E-11, -7.263E-09, 1.697E-11, 7.3091E-09
DataValue, 3.9, 0.5, 7.2387E-09, -6.411E-11, -7.1998E-09, 6.411E-11, 7.2387E-09
DataValue, 4, 0.5, 7.217E-09, -1.1870000000000002E-11, -7.1337E-09, 1.1870000000000002E-11, 7.217E-09
DataValue, 4.1, 0.5, 7.2633E-09, -2.1530000000000002E-11, -7.213E-09, 2.1530000000000002E-11, 7.2633E-09
DataValue, 4.2, 0.5, 7.1908E-09, -6.905000000000001E-11, -7.1636E-09, 6.905000000000001E-11, 7.1908E-09
DataValue, 4.3, 0.5, 7.1257E-09, -1.93E-11, -7.0571E-09, 1.93E-11, 7.1257E-09
DataValue, 4.4, 0.5, 7.1908E-09, -2.6740000000000003E-11, -7.1239E-09, 2.6740000000000003E-11, 7.1908E-09
DataValue, 4.5, 0.5, 7.1267E-09, -7.582E-11, -7.0955E-09, 7.582E-11, 7.1267E-09
DataValue, 4.6000000000000005, 0.5, 7.0861E-09, -2.6560000000000003E-11, -6.9967E-09, 2.6560000000000003E-11, 7.0861E-09
DataValue, 4.7, 0.5, 7.1075E-09, -3.271E-11, -7.0462E-09, 3.271E-11, 7.1075E-09
DataValue, 4.8, 0.5, 7.0366E-09, -8.553E-11, -6.99E-09, 8.553E-11, 7.0366E-09
DataValue, 4.9, 0.5, 7.017E-09, -3.5450000000000004E-11, -6.9306E-09, 3.5450000000000004E-11, 7.017E-09
DataValue, 5, 0.5, 7.0517E-09, -4.3030000000000005E-11, -6.9773E-09, 4.3030000000000005E-11, 7.0517E-09
DataValue, 0, 1, -7.825E-11, 5.853E-11, 5.909E-11, 5.853E-11, 7.825E-11
DataValue, 0.1, 1, 4.8323199999999993E-08, 5.04E-12, -4.6368999999999997E-08, 5.04E-12, 4.8323199999999993E-08
DataValue, 0.2, 1, 6.2242599999999989E-08, 4.23E-12, -6.17128E-08, 4.23E-12, 6.2242599999999989E-08
DataValue, 0.3, 1, 6.36812E-08, 9.4E-13, -6.32744E-08, 9.4E-13, 6.36812E-08
DataValue, 0.4, 1, 6.2978599999999989E-08, 3.5500000000000004E-12, -6.27874E-08, 3.5500000000000004E-12, 6.2978599999999989E-08
DataValue, 0.5, 1, 6.20198E-08, -4.2000000000000003E-13, -6.1891E-08, 4.2000000000000003E-13, 6.20198E-08
DataValue, 0.6, 1, 6.07018E-08, 2.3000000000000003E-12, -6.05786E-08, 2.3000000000000003E-12, 6.07018E-08
DataValue, 0.70000000000000007, 1, 5.9898E-08, -9.8E-13, -5.9911E-08, 9.8E-13, 5.9898E-08
DataValue, 0.8, 1, 5.9077999999999995E-08, 3.1400000000000004E-12, -5.8970199999999996E-08, 3.1400000000000004E-12, 5.9077999999999995E-08
DataValue, 0.9, 1, 5.8317799999999996E-08, -8.5000000000000011E-13, -5.8112799999999995E-08, 8.5000000000000011E-13, 5.8317799999999996E-08
DataValue, 1, 1, 5.7609599999999996E-08, 6.7700000000000004E-12, -5.7424599999999991E-08, 6.7700000000000004E-12, 5.7609599999999996E-08
DataValue, 1.1, 1, 5.6919199999999993E-08, -1.5720000000000002E-11, -5.6739199999999994E-08, 1.5720000000000002E-11, 5.6919199999999993E-08
DataValue, 1.2, 1, 5.6373999999999992E-08, 2.64E-11, -5.6261399999999992E-08, 2.64E-11, 5.6373999999999992E-08
DataValue, 1.3, 1, 5.5871E-08, -3.8440000000000005E-11, -5.5766399999999993E-08, 3.8440000000000005E-11, 5.5871E-08
DataValue, 1.4000000000000001, 1, 5.5328E-08, 4.832E-11, -5.5426599999999996E-08, 4.832E-11, 5.5328E-08
DataValue, 1.5, 1, 5.49764E-08, -5.364E-11, -5.4932999999999993E-08, 5.364E-11, 5.49764E-08
DataValue, 1.6, 1, 5.4635999999999994E-08, 4.9480000000000006E-11, -5.4645399999999992E-08, 4.9480000000000006E-11, 5.4635999999999994E-08
DataValue, 1.7, 1, 5.4235199999999993E-08, -5.0050000000000004E-11, -5.4173999999999993E-08, 5.0050000000000004E-11, 5.4235199999999993E-08
DataValue, 1.8, 1, 5.37864E-08, 4.446E-11, -5.37236E-08, 4.446E-11, 5.37864E-08
DataValue, 1.9000000000000001, 1, 5.3478199999999995E-08, -3.9060000000000005E-11, -5.3394999999999996E-08, 3.9060000000000005E-11, 5.3478199999999995E-08
DataValue, 2, 1, 5.3239399999999993E-08, 2.5120000000000003E-11, -5.3273599999999996E-08, 2.5120000000000003E-11, 5.3239399999999993E-08
DataValue, 2.1, 1, 5.28612E-08, -1.681E-11, -5.29268E-08, 1.681E-11, 5.28612E-08
DataValue, 2.2, 1, 5.25074E-08, 4.4000000000000006E-12, -5.2541599999999993E-08, 4.4000000000000006E-12, 5.25074E-08
DataValue, 2.3000000000000003, 1, 5.2312399999999994E-08, -4.42E-12, -5.2270199999999995E-08, 4.42E-12, 5.2312399999999994E-08
DataValue, 2.4, 1, 5.2293399999999992E-08, -2.6600000000000004E-12, -5.2317E-08, 2.6600000000000004E-12, 5.2293399999999992E-08
DataValue, 2.5, 1, 5.1853599999999994E-08, -1.5800000000000001E-12, -5.18282E-08, 1.5800000000000001E-12, 5.1853599999999994E-08
DataValue, 2.6, 1, 5.1809399999999993E-08, -5.0500000000000005E-12, -5.17384E-08, 5.0500000000000005E-12, 5.1809399999999993E-08
DataValue, 2.7, 1, 5.1451799999999992E-08, -2.09E-12, -5.1420599999999993E-08, 2.09E-12, 5.1451799999999992E-08
DataValue, 2.8000000000000003, 1, 5.1320799999999996E-08, -5.33E-12, -5.1415599999999994E-08, 5.33E-12, 5.1320799999999996E-08
DataValue, 2.9, 1, 5.1051399999999994E-08, -2.9400000000000004E-12, -5.1054999999999996E-08, 2.9400000000000004E-12, 5.1051399999999994E-08
DataValue, 3, 1, 5.0906399999999995E-08, -6.4800000000000007E-12, -5.09352E-08, 6.4800000000000007E-12, 5.0906399999999995E-08
DataValue, 3.1, 1, 5.0855599999999994E-08, -3.5400000000000003E-12, -5.0832599999999994E-08, 3.5400000000000003E-12, 5.0855599999999994E-08
