
SetupTitle, TFT lin RollOut
PrimitiveTest, I/V Sweep
TestParameter, Context.MainFrame, B1500A
TestParameter, Channel.UnitType, SMU, SMU, SMU
TestParameter, Channel.Unit, SMU2:HR, SMU3:MP, SMU4:MP
TestParameter, Channel.IName, ID, IG, IS
TestParameter, Channel.VName, VD, VG, VS
TestParameter, Channel.Mode, V, V, COMMON
TestParameter, Channel.Func, CONST, VAR1, CONST
TestParameter, Channel.Index, 
TestParameter, Channel.Time, 
TestParameter, Measurement.Port.Unit, SMU2:HR, SMU3:MP, SMU4:MP
TestParameter, Measurement.Port.SeriesResistor, NONE, NONE, NONE
TestParameter, Measurement.Port.Filter, ON, ON, ON
TestParameter, Measurement.Port.OutputVoltageComparison, 0, 0, 0
TestParameter, Measurement.Primary.Locus, Single
TestParameter, Measurement.Primary.Scale, LINEAR
TestParameter, Measurement.Primary.Start, -2
TestParameter, Measurement.Primary.Stop, 3
TestParameter, Measurement.Primary.Step, 0.05
TestParameter, Measurement.Primary.Compliance, 0.001
TestParameter, Measurement.Primary.PowerCompliance, 0
TestParameter, Measurement.Aborting.Condition, CONTINUE AT ANY
TestParameter, Measurement.PostOutput.Value, START
TestParameter, Measurement.PostOutput.Retention, OFF
TestParameter, Measurement.Bias.Source, 0.1, -2, 0
TestParameter, Measurement.Bias.Compliance, 0.0001, 0.001, 0.1
TestParameter, Measurement.Monitor.Unit, SMU2:HR, SMU3:MP, SMU4:MP
TestParameter, Measurement.Monitor.Adc, HR ADC, HR ADC, HR ADC
TestParameter, Measurement.Monitor.Measurement, Compliance Side, Compliance Side, Compliance Side
TestParameter, Measurement.Monitor.RangingMode, LIMITED, LIMITED, LIMITED
TestParameter, Measurement.Monitor.RangeBoundary, 100pA, 1nA, 1nA
TestParameter, Measurement.Monitor.RangeRating, BY FULL RANGE, BY FULL RANGE, BY FULL RANGE
TestParameter, Measurement.Monitor.RangeRatingCoeff, 50, 50, 50
TestParameter, Measurement.Timing.Hold, 0.5
TestParameter, Measurement.Timing.Delay, 0.05
TestParameter, Measurement.Adc.HighSpeed.Mode, AUTO
TestParameter, Measurement.Adc.HighSpeed.Coeff, 1
TestParameter, Measurement.Adc.HighResolution.AutoZero, OFF
TestParameter, Measurement.Adc.HighResolution.Mode, AUTO
TestParameter, Measurement.Adc.HighResolution.Coeff, 6
TestParameter, Measurement.WaitTime.Source.Coeff, 1
TestParameter, Measurement.WaitTime.Source.Offset, 0
TestParameter, Measurement.WaitTime.Monitor.Coeff, 1
TestParameter, Measurement.WaitTime.Monitor.Offset, 0
TestParameter, Function.Analysis.Name, dIddVg, absIg, absId
TestParameter, Function.Analysis.Unit, S, A, A
TestParameter, Function.Analysis.Definition, delta(ID)/delta(VG), abs(IG), abs(ID)
TestParameter, Output.Graph.Enabled, true
TestParameter, Output.Graph.AutoScaling, false
TestParameter, Output.Graph.XAxis.Data, VG
TestParameter, Output.Graph.XAxis.Scale, Linear
TestParameter, Output.Graph.XAxis.Left, -2
TestParameter, Output.Graph.XAxis.Right, 6
TestParameter, Output.Graph.XAxis.RunTimeAutoScale, true
TestParameter, Output.Graph.YAxis.Data, absId, absIg, dIddVg, IS
TestParameter, Output.Graph.YAxis.Scale, Log, Log, Linear, Linear
TestParameter, Output.Graph.YAxis.Bottom, 0, 0, 0, -0.1
TestParameter, Output.Graph.YAxis.Top, 1, 1, 1, 0.1
TestParameter, Output.Graph.YAxis.Group, , , , 
TestParameter, Output.Graph.YAxis.RunTimeAutoScale, true, true, true, false
TestParameter, Output.List.Data, VG, IG, ID, IS, VD, dIddVg, absIg, absId
TestParameter, AutoAnalysis.Interpolation, false
TestParameter, AutoAnalysis.Line1.Enabled, false
TestParameter, AutoAnalysis.Line1.Type, 1
TestParameter, AutoAnalysis.Line1.Fix, True
TestParameter, AutoAnalysis.Line1.YAxis, 0
TestParameter, AutoAnalysis.Line1.Point1.Type, 0
TestParameter, AutoAnalysis.Line1.Point1.XY.X, 
TestParameter, AutoAnalysis.Line1.Point1.XY.Y, 
TestParameter, AutoAnalysis.Line1.Point1.Data.Var, 
TestParameter, AutoAnalysis.Line1.Point1.Data.Condition, 
TestParameter, AutoAnalysis.Line1.Point1.Data.Start, false
TestParameter, AutoAnalysis.Line1.Point1.Data.StartVar, 
TestParameter, AutoAnalysis.Line1.Point1.Data.StartCondition, 
TestParameter, AutoAnalysis.Line1.Point2.Type, 0
TestParameter, AutoAnalysis.Line1.Point2.XY.X, 
TestParameter, AutoAnalysis.Line1.Point2.XY.Y, 
TestParameter, AutoAnalysis.Line1.Point2.Data.Var, 
TestParameter, AutoAnalysis.Line1.Point2.Data.Condition, 
TestParameter, AutoAnalysis.Line1.Point2.Data.Start, false
TestParameter, AutoAnalysis.Line1.Point2.Data.StartVar, 
TestParameter, AutoAnalysis.Line1.Point2.Data.StartCondition, 
TestParameter, AutoAnalysis.Line1.GradientExpr, 0
TestParameter, AutoAnalysis.Line2.Enabled, false
TestParameter, AutoAnalysis.Line2.Type, 1
TestParameter, AutoAnalysis.Line2.Fix, True
TestParameter, AutoAnalysis.Line2.YAxis, 0
TestParameter, AutoAnalysis.Line2.Point1.Type, 0
TestParameter, AutoAnalysis.Line2.Point1.XY.X, 
TestParameter, AutoAnalysis.Line2.Point1.XY.Y, 
TestParameter, AutoAnalysis.Line2.Point1.Data.Var, 
TestParameter, AutoAnalysis.Line2.Point1.Data.Condition, 
TestParameter, AutoAnalysis.Line2.Point1.Data.Start, false
TestParameter, AutoAnalysis.Line2.Point1.Data.StartVar, 
TestParameter, AutoAnalysis.Line2.Point1.Data.StartCondition, 
TestParameter, AutoAnalysis.Line2.Point2.Type, 0
TestParameter, AutoAnalysis.Line2.Point2.XY.X, 
TestParameter, AutoAnalysis.Line2.Point2.XY.Y, 
TestParameter, AutoAnalysis.Line2.Point2.Data.Var, 
TestParameter, AutoAnalysis.Line2.Point2.Data.Condition, 
TestParameter, AutoAnalysis.Line2.Point2.Data.Start, false
TestParameter, AutoAnalysis.Line2.Point2.Data.StartVar, 
TestParameter, AutoAnalysis.Line2.Point2.Data.StartCondition, 
TestParameter, AutoAnalysis.Line2.GradientExpr, 0
TestParameter, AutoAnalysis.Marker.Enabled, false
TestParameter, AutoAnalysis.Marker.Data.Var, 
TestParameter, AutoAnalysis.Marker.Data.Condition, 
TestParameter, AutoAnalysis.Marker.Data.Start, false
TestParameter, AutoAnalysis.Marker.Data.StartVar, 
TestParameter, AutoAnalysis.Marker.Data.StartCondition, 
MetaData, TestRecord.EntryPoint, true
MetaData, TestRecord.RecordTime, 07/03/2019 11:16:25
MetaData, TestRecord.TestTarget, 6-42
MetaData, TestRecord.IterationIndex, 1
MetaData, TestRecord.Preservation, true
MetaData, TestRecord.Flag, 
MetaData, TestRecord.Remarks, good
MetaData, TestRecord.LinkKey, 7e5bfe05-7ed3-48e1-a930-57e3762de77c
Dimension1, 101, 101, 101, 101, 101, 101, 101, 101
Dimension2, 1, 1, 1, 1, 1, 1, 1, 1
DataName, VG, VD, ID, IG, IS, dIddVg, absIg, absId
DataValue, -2, 0.1, 6.3816E-12, 9.77E-12, 7.471E-11, 4.6011999999999944E-11, 9.77E-12, 6.3816E-12
DataValue, -1.95, 0.1, 8.6822E-12, -9.95E-12, 1.9200000000000003E-12, -3.1814000000000045E-11, 9.95E-12, 8.6822E-12
DataValue, -1.9000000000000001, 0.1, 3.2002E-12, 3.0170000000000004E-11, -3.1000000000000004E-13, -8.8766000000000115E-11, 3.0170000000000004E-11, 3.2002E-12
DataValue, -1.85, 0.1, -1.9439999999999998E-13, 2.001E-11, 5.383E-11, 3.6855999999999962E-11, 2.001E-11, 1.9439999999999998E-13
DataValue, -1.8, 0.1, 6.8858E-12, -6.0200000000000006E-12, -1.8000000000000002E-12, -4.8099999999999967E-12, 6.0200000000000006E-12, 6.8858E-12
DataValue, -1.75, 0.1, -6.754E-13, 3.8180000000000004E-11, -2.85E-12, -9.74539999999999E-11, 3.8180000000000004E-11, 6.754E-13
DataValue, -1.7, 0.1, -2.8596E-12, 1.391E-11, 5.8740000000000009E-11, 5.4226000000000072E-11, 1.391E-11, 2.8596E-12
DataValue, -1.6500000000000001, 0.1, 4.7472E-12, -4.5400000000000004E-12, -1.7500000000000002E-12, 7.2780000000000116E-12, 4.5400000000000004E-12, 4.7472E-12
DataValue, -1.6, 0.1, -2.1318E-12, 4.068E-11, -3.5E-13, -8.75299999999999E-11, 4.068E-11, 2.1318E-12
DataValue, -1.55, 0.1, -4.0058E-12, 1.384E-11, 6.261E-11, 5.6973999999999955E-11, 1.384E-11, 4.0058E-12
DataValue, -1.5, 0.1, 3.5656E-12, -3.35E-12, -3.2400000000000003E-12, 8.56799999999999E-12, 3.35E-12, 3.5656E-12
DataValue, -1.45, 0.1, -3.149E-12, 4.413E-11, -2.04E-12, -8.39180000000001E-11, 4.413E-11, 3.149E-12
DataValue, -1.4000000000000001, 0.1, -4.8262E-12, 1.23E-11, 6.046E-11, 5.5874000000000076E-11, 1.23E-11, 4.8262E-12
DataValue, -1.35, 0.1, 2.4383999999999998E-12, -1.2000000000000001E-12, -9.7000000000000011E-13, 8.83999999999999E-12, 1.2000000000000001E-12, 2.4383999999999998E-12
DataValue, -1.3, 0.1, -3.9422E-12, 4.531E-11, -3.35E-12, -7.9015999999999929E-11, 4.531E-11, 3.9422E-12
DataValue, -1.25, 0.1, -5.4631999999999996E-12, 8.7100000000000015E-12, 6.449E-11, 5.5359999999999952E-11, 8.7100000000000015E-12, 5.4631999999999996E-12
DataValue, -1.2, 0.1, 1.5938E-12, -1.59E-12, -2.8E-13, 8.6600000000000087E-12, 1.59E-12, 1.5938E-12
DataValue, -1.1500000000000001, 0.1, -4.5972E-12, 4.807E-11, -1.4E-12, 5.2044000000000069E-11, 4.807E-11, 4.5972E-12
DataValue, -1.1, 0.1, 6.7982E-12, -2.6000000000000002E-12, -7.27E-11, 5.1637999999999946E-11, 2.6000000000000002E-12, 6.7982E-12
DataValue, -1.05, 0.1, 5.666E-13, -7.9000000000000007E-13, -1.64E-12, -1.1822199999999989E-10, 7.9000000000000007E-13, 5.666E-13
DataValue, -1, 0.1, -5.0239999999999996E-12, 4.815E-11, -1.95E-12, 5.8614000000000013E-11, 4.815E-11, 5.0239999999999996E-12
DataValue, -0.95000000000000007, 0.1, 6.428E-12, -1.9200000000000003E-12, -7.1670000000000009E-11, 4.7822000000000007E-11, 1.9200000000000003E-12, 6.428E-12
DataValue, -0.9, 0.1, -2.418E-13, 1.32E-12, -1.91E-12, -1.1843399999999988E-10, 1.32E-12, 2.418E-13
DataValue, -0.85, 0.1, -5.4154E-12, 4.9700000000000007E-11, 1.6000000000000003E-13, 6.223400000000001E-11, 4.9700000000000007E-11, 5.4154E-12
DataValue, -0.8, 0.1, 5.9815999999999995E-12, -2.1700000000000002E-12, -6.916000000000001E-11, 4.3184000000000008E-11, 2.1700000000000002E-12, 5.9815999999999995E-12
DataValue, -0.75, 0.1, -1.097E-12, 2.3000000000000003E-12, -1.18E-12, -1.3388000000000002E-11, 2.3000000000000003E-12, 1.097E-12
DataValue, -0.70000000000000007, 0.1, 4.6427999999999996E-12, -4.432E-11, 1.9700000000000003E-12, 7.2972000000000025E-11, 4.432E-11, 4.6427999999999996E-12
DataValue, -0.65, 0.1, 6.2002E-12, -1.488E-11, -6.237E-11, -5.5759999999999945E-11, 1.488E-11, 6.2002E-12
DataValue, -0.6, 0.1, -9.332E-13, 2.21E-12, 1.1900000000000002E-12, 2.1219999999999948E-12, 2.21E-12, 9.332E-13
DataValue, -0.55, 0.1, 6.4124E-12, -4.6640000000000006E-11, 1.9000000000000002E-13, -2.476000000000001E-11, 4.6640000000000006E-11, 6.4124E-12
DataValue, -0.5, 0.1, -3.4092E-12, 3.2400000000000003E-12, 6.797E-11, -4.5119999999999937E-12, 3.2400000000000003E-12, 3.4092E-12
DataValue, -0.45, 0.1, 5.9612E-12, 1.6600000000000002E-12, -5.4700000000000007E-12, 2.4209800000000006E-10, 1.6600000000000002E-12, 5.9612E-12
DataValue, -0.4, 0.1, 2.08006E-11, -4.749E-11, -1.4310000000000002E-11, 2.8109400000000009E-10, 4.749E-11, 2.08006E-11
DataValue, -0.35000000000000003, 0.1, 3.40706E-11, 3.0300000000000002E-12, 2.9520000000000005E-11, 1.0189939999999996E-09, 3.0300000000000002E-12, 3.40706E-11
DataValue, -0.3, 0.1, 1.227E-10, -1.04E-12, -1.8048E-10, 1.9868939999999996E-09, 1.04E-12, 1.227E-10
DataValue, -0.25, 0.1, 2.3276E-10, 3.3200000000000004E-12, -2.7514000000000004E-10, 4.4688000000000009E-09, 3.3200000000000004E-12, 2.3276E-10
DataValue, -0.2, 0.1, 5.6958E-10, 4.9760000000000004E-11, -5.6275E-10, 6.3029E-09, 4.9760000000000004E-11, 5.6958E-10
DataValue, -0.15, 0.1, 8.6305E-10, -2.6580000000000003E-11, -7.7774E-10, 6.2011999999999988E-09, 2.6580000000000003E-11, 8.6305E-10
DataValue, -0.1, 0.1, 1.1897E-09, -2.6380000000000004E-11, -1.1682E-09, 7.4815E-09, 2.6380000000000004E-11, 1.1897E-09
DataValue, -0.05, 0.1, 1.6112E-09, -4.7830000000000004E-11, -1.5995E-09, 7.765E-09, 4.7830000000000004E-11, 1.6112E-09
DataValue, 0, 0.1, 1.9662E-09, 4.7500000000000006E-12, -1.8886E-09, 7.85E-09, 4.7500000000000006E-12, 1.9662E-09
DataValue, 0.05, 0.1, 2.3962E-09, 1.5E-12, -2.3329E-09, 7.89E-09, 1.5E-12, 2.3962E-09
DataValue, 0.1, 0.1, 2.7552E-09, -4.603E-11, -2.7251E-09, 7.915E-09, 4.603E-11, 2.7552E-09
DataValue, 0.15, 0.1, 3.1877E-09, 7.8900000000000013E-12, -3.1047E-09, 9.9180000000000015E-09, 7.8900000000000013E-12, 3.1877E-09
DataValue, 0.2, 0.1, 3.747E-09, 1.02E-12, -3.695E-09, 1.0914999999999997E-08, 1.02E-12, 3.747E-09
DataValue, 0.25, 0.1, 4.2792E-09, -3.103E-11, -4.2583E-09, 1.2288999999999997E-08, 3.103E-11, 4.2792E-09
DataValue, 0.3, 0.1, 4.9759E-09, 3.681E-11, -4.8974E-09, 1.5188999999999991E-08, 3.681E-11, 4.9759E-09
DataValue, 0.35000000000000003, 0.1, 5.7981E-09, 1.88E-12, -5.7646E-09, 1.7043999999999994E-08, 1.88E-12, 5.7981E-09
DataValue, 0.4, 0.1, 6.6803E-09, -3.5200000000000003E-12, -6.6679E-09, 2.0289000000000004E-08, 3.5200000000000003E-12, 6.6803E-09
DataValue, 0.45, 0.1, 7.827E-09, 5.4360000000000007E-11, -7.5134E-09, 2.3561000000000015E-08, 5.4360000000000007E-11, 7.827E-09
DataValue, 0.5, 0.1, 9.0364E-09, 4.5400000000000004E-12, -8.7591E-09, 2.390399999999998E-08, 4.5400000000000004E-12, 9.0364E-09
DataValue, 0.55, 0.1, 1.0217399999999998E-08, 4.8000000000000005E-12, -1.01466E-08, 3.0745999999999983E-08, 4.8000000000000005E-12, 1.0217399999999998E-08
DataValue, 0.6, 0.1, 1.2110999999999998E-08, 3.72E-12, -1.1998999999999999E-08, 4.1850000000000014E-08, 3.72E-12, 1.2110999999999998E-08
DataValue, 0.65, 0.1, 1.4402399999999999E-08, -5.0500000000000007E-11, -1.4251599999999999E-08, 4.9245999999999963E-08, 5.0500000000000007E-11, 1.4402399999999999E-08
DataValue, 0.70000000000000007, 0.1, 1.70356E-08, 1.0420000000000001E-11, -1.685E-08, 5.6834E-08, 1.0420000000000001E-11, 1.70356E-08
DataValue, 0.75, 0.1, 2.0085799999999998E-08, 3.0600000000000003E-12, -1.9824199999999997E-08, 6.7524E-08, 3.0600000000000003E-12, 2.0085799999999998E-08
DataValue, 0.8, 0.1, 2.3787999999999998E-08, -2.3460000000000002E-11, -2.35186E-08, 7.965E-08, 2.3460000000000002E-11, 2.3787999999999998E-08
DataValue, 0.85, 0.1, 2.8050799999999997E-08, 4.5440000000000007E-11, -2.77772E-08, 9.1613999999999989E-08, 4.5440000000000007E-11, 2.8050799999999997E-08
DataValue, 0.9, 0.1, 3.2949399999999995E-08, 3.53E-12, -3.2757E-08, 1.091819999999999E-07, 3.53E-12, 3.2949399999999995E-08
DataValue, 0.95000000000000007, 0.1, 3.8968999999999996E-08, 2.6E-13, -3.8707799999999994E-08, 1.3262600000000007E-07, 2.6E-13, 3.8968999999999996E-08
DataValue, 1, 0.1, 4.6212E-08, 5.4280000000000005E-11, -4.57308E-08, 1.5379600000000004E-07, 5.4280000000000005E-11, 4.6212E-08
DataValue, 1.05, 0.1, 5.43486E-08, -1.659E-11, -5.3911799999999996E-08, 1.7847599999999986E-07, 1.659E-11, 5.43486E-08
DataValue, 1.1, 0.1, 6.40596E-08, 1.3400000000000002E-12, -6.3532799999999993E-08, 2.0641399999999983E-07, 1.3400000000000002E-12, 6.40596E-08
DataValue, 1.1500000000000001, 0.1, 7.499E-08, 1.403E-11, -7.4535799999999989E-08, 2.3931000000000025E-07, 1.403E-11, 7.499E-08
DataValue, 1.2, 0.1, 8.7990599999999989E-08, -4.5180000000000006E-11, -8.7558399999999991E-08, 2.8190000000000043E-07, 4.5180000000000006E-11, 8.7990599999999989E-08
DataValue, 1.25, 0.1, 1.0318E-07, 4.945E-11, -1.0286E-07, 3.2369399999999985E-07, 4.945E-11, 1.0318E-07
DataValue, 1.3, 0.1, 1.2036E-07, 3.9900000000000006E-12, -1.2015999999999999E-07, 3.6479999999999961E-07, 3.9900000000000006E-12, 1.2036E-07
DataValue, 1.35, 0.1, 1.3966E-07, 5.2E-13, -1.397E-07, 4.1739999999999965E-07, 5.2E-13, 1.3966E-07
DataValue, 1.4000000000000001, 0.1, 1.621E-07, -3.358E-11, -1.6182E-07, 4.6800000000000059E-07, 3.358E-11, 1.621E-07
DataValue, 1.45, 0.1, 1.8646E-07, 4.78E-12, -1.8616E-07, 5.2080000000000069E-07, 4.78E-12, 1.8646E-07
DataValue, 1.5, 0.1, 2.1418E-07, 5.5510000000000004E-11, -2.1366E-07, 5.7719999999999964E-07, 5.5510000000000004E-11, 2.1418E-07
DataValue, 1.55, 0.1, 2.4418E-07, 1.27E-12, -2.4356E-07, 6.2799999999999922E-07, 1.27E-12, 2.4418E-07
DataValue, 1.6, 0.1, 2.7698E-07, -1.1750000000000001E-11, -2.7646E-07, 6.841999999999991E-07, 1.1750000000000001E-11, 2.7698E-07
DataValue, 1.6500000000000001, 0.1, 3.126E-07, -1.825E-11, -3.1242E-07, 7.44200000000001E-07, 1.825E-11, 3.126E-07
DataValue, 1.7, 0.1, 3.514E-07, 4.62E-12, -3.5076E-07, 8.0240000000000141E-07, 4.62E-12, 3.514E-07
DataValue, 1.75, 0.1, 3.9284E-07, 5.2850000000000004E-11, -3.923E-07, 8.5779999999999944E-07, 5.2850000000000004E-11, 3.9284E-07
DataValue, 1.8, 0.1, 4.3718E-07, 1.0100000000000001E-12, -4.3668E-07, 9.123999999999993E-07, 1.0100000000000001E-12, 4.3718E-07
DataValue, 1.85, 0.1, 4.8408E-07, -3.387E-11, -4.8352E-07, 9.6019999999999951E-07, 3.387E-11, 4.8408E-07
DataValue, 1.9000000000000001, 0.1, 5.332E-07, -5.8000000000000005E-13, -5.3272E-07, 1.0084000000000012E-06, 5.8000000000000005E-13, 5.332E-07
DataValue, 1.95, 0.1, 5.8492E-07, 4.97E-12, -5.8496E-07, 1.067800000000001E-06, 4.97E-12, 5.8492E-07
DataValue, 2, 0.1, 6.3998E-07, 4.428E-11, -6.3962E-07, 1.1186000000000015E-06, 4.428E-11, 6.3998E-07
DataValue, 2.05, 0.1, 6.9678E-07, 2.04E-12, -6.9664E-07, 1.1647999999999984E-06, 2.04E-12, 6.9678E-07
DataValue, 2.1, 0.1, 7.5645999999999993E-07, -4.8680000000000007E-11, -7.5604E-07, 1.215799999999999E-06, 4.8680000000000007E-11, 7.5645999999999993E-07
DataValue, 2.15, 0.1, 8.1836E-07, 3.77E-12, -8.1804E-07, 1.2659999999999998E-06, 3.77E-12, 8.1836E-07
DataValue, 2.2, 0.1, 8.8306E-07, 1.341E-11, -8.8284E-07, 1.3125999999999985E-06, 1.341E-11, 8.8306E-07
DataValue, 2.25, 0.1, 9.4962E-07, 2.956E-11, -9.4932E-07, 1.3571999999999982E-06, 2.956E-11, 9.4962E-07
DataValue, 2.3000000000000003, 0.1, 1.01878E-06, 2.4800000000000003E-12, -1.01852E-06, 1.398999999999999E-06, 2.4800000000000003E-12, 1.01878E-06
DataValue, 2.35, 0.1, 1.08952E-06, -4.6200000000000006E-11, -1.08918E-06, 1.4362000000000063E-06, 4.6200000000000006E-11, 1.08952E-06
DataValue, 2.4, 0.1, 1.1624E-06, 5.19E-12, -1.162E-06, 1.4758000000000003E-06, 5.19E-12, 1.1624E-06
DataValue, 2.45, 0.1, 1.2371000000000002E-06, 2.9E-12, -1.2376000000000002E-06, 1.524999999999999E-06, 2.9E-12, 1.2371000000000002E-06
DataValue, 2.5, 0.1, 1.3149000000000001E-06, -2.9620000000000003E-11, -1.3150000000000001E-06, 1.5619999999999973E-06, 2.9620000000000003E-11, 1.3149000000000001E-06
DataValue, 2.5500000000000003, 0.1, 1.3933E-06, 5.58E-12, -1.3936E-06, 1.5879999999999992E-06, 5.58E-12, 1.3933E-06
DataValue, 2.6, 0.1, 1.4737000000000002E-06, 3.368E-11, -1.4738000000000002E-06, 1.6270000000000073E-06, 3.368E-11, 1.4737000000000002E-06
DataValue, 2.65, 0.1, 1.5560000000000002E-06, 2.4000000000000003E-12, -1.5563000000000002E-06, 1.6509999999999976E-06, 2.4000000000000003E-12, 1.5560000000000002E-06
DataValue, 2.7, 0.1, 1.6388E-06, -2.123E-11, -1.6398000000000002E-06, 1.6759999999999974E-06, 2.123E-11, 1.6388E-06
DataValue, 2.75, 0.1, 1.7236000000000001E-06, 6.7400000000000008E-12, -1.7238000000000001E-06, 1.697999999999999E-06, 6.7400000000000008E-12, 1.7236000000000001E-06
DataValue, 2.8000000000000003, 0.1, 1.8086000000000001E-06, 2.895E-11, -1.8089000000000002E-06, 1.7140000000000002E-06, 2.895E-11, 1.8086000000000001E-06
DataValue, 2.85, 0.1, 1.8950000000000003E-06, 3.3100000000000002E-12, -1.8954E-06, 1.7320000000000071E-06, 3.3100000000000002E-12, 1.8950000000000003E-06
DataValue, 2.9, 0.1, 1.9818000000000002E-06, -1.4830000000000002E-11, -1.9819E-06, 1.7399999999999958E-06, 1.4830000000000002E-11, 1.9818000000000002E-06
DataValue, 2.95, 0.1, 2.069E-06, 7.41E-12, -2.069E-06, 1.7519999999999989E-06, 7.41E-12, 2.069E-06
DataValue, 3, 0.1, 2.1570000000000003E-06, 2.176E-11, -2.1571E-06, 1.7600000000000115E-06, 2.176E-11, 2.1570000000000003E-06