
SetupTitle, TFT lin RollOut
PrimitiveTest, I/V Sweep
TestParameter, Context.MainFrame, B1500A
TestParameter, Channel.UnitType, SMU, SMU, SMU
TestParameter, Channel.Unit, SMU2:HR, SMU3:MP, SMU4:MP
TestParameter, Channel.IName, ID, IG, IS
TestParameter, Channel.VName, VD, VG, VS
TestParameter, Channel.Mode, V, V, COMMON
TestParameter, Channel.Func, CONST, VAR1, CONST
TestParameter, Channel.Index, 
TestParameter, Channel.Time, 
TestParameter, Measurement.Port.Unit, SMU2:HR, SMU3:MP, SMU4:MP
TestParameter, Measurement.Port.SeriesResistor, NONE, NONE, NONE
TestParameter, Measurement.Port.Filter, ON, ON, ON
TestParameter, Measurement.Port.OutputVoltageComparison, 0, 0, 0
TestParameter, Measurement.Primary.Locus, Double
TestParameter, Measurement.Primary.Scale, LINEAR
TestParameter, Measurement.Primary.Start, -2
TestParameter, Measurement.Primary.Stop, 5
TestParameter, Measurement.Primary.Step, 0.07
TestParameter, Measurement.Primary.Compliance, 0.001
TestParameter, Measurement.Primary.PowerCompliance, 0
TestParameter, Measurement.Aborting.Condition, CONTINUE AT ANY
TestParameter, Measurement.PostOutput.Value, START
TestParameter, Measurement.PostOutput.Retention, OFF
TestParameter, Measurement.Bias.Source, 0.1, -2, 0
TestParameter, Measurement.Bias.Compliance, 0.0001, 0.001, 0.1
TestParameter, Measurement.Monitor.Unit, SMU2:HR, SMU3:MP, SMU4:MP
TestParameter, Measurement.Monitor.Adc, HR ADC, HR ADC, HR ADC
TestParameter, Measurement.Monitor.Measurement, Compliance Side, Compliance Side, Compliance Side
TestParameter, Measurement.Monitor.RangingMode, LIMITED, LIMITED, LIMITED
TestParameter, Measurement.Monitor.RangeBoundary, 100pA, 1nA, 1nA
TestParameter, Measurement.Monitor.RangeRating, BY FULL RANGE, BY FULL RANGE, BY FULL RANGE
TestParameter, Measurement.Monitor.RangeRatingCoeff, 50, 50, 50
TestParameter, Measurement.Timing.Hold, 0.5
TestParameter, Measurement.Timing.Delay, 0.05
TestParameter, Measurement.Adc.HighSpeed.Mode, AUTO
TestParameter, Measurement.Adc.HighSpeed.Coeff, 1
TestParameter, Measurement.Adc.HighResolution.AutoZero, OFF
TestParameter, Measurement.Adc.HighResolution.Mode, AUTO
TestParameter, Measurement.Adc.HighResolution.Coeff, 6
TestParameter, Measurement.WaitTime.Source.Coeff, 1
TestParameter, Measurement.WaitTime.Source.Offset, 0
TestParameter, Measurement.WaitTime.Monitor.Coeff, 1
TestParameter, Measurement.WaitTime.Monitor.Offset, 0
TestParameter, Function.Analysis.Name, dIddVg, absIg, absId
TestParameter, Function.Analysis.Unit, S, A, A
TestParameter, Function.Analysis.Definition, delta(ID)/delta(VG), abs(IG), abs(ID)
TestParameter, Output.Graph.Enabled, true
TestParameter, Output.Graph.AutoScaling, false
TestParameter, Output.Graph.XAxis.Data, VG
TestParameter, Output.Graph.XAxis.Scale, Linear
TestParameter, Output.Graph.XAxis.Left, -2
TestParameter, Output.Graph.XAxis.Right, 6
TestParameter, Output.Graph.XAxis.RunTimeAutoScale, true
TestParameter, Output.Graph.YAxis.Data, absId, absIg, dIddVg, IS
TestParameter, Output.Graph.YAxis.Scale, Log, Log, Linear, Linear
TestParameter, Output.Graph.YAxis.Bottom, 0, 0, 0, -0.1
TestParameter, Output.Graph.YAxis.Top, 1, 1, 1, 0.1
TestParameter, Output.Graph.YAxis.Group, , , , 
TestParameter, Output.Graph.YAxis.RunTimeAutoScale, true, true, true, false
TestParameter, Output.List.Data, VG, IG, ID, IS, VD, dIddVg, absIg, absId
TestParameter, AutoAnalysis.Interpolation, false
TestParameter, AutoAnalysis.Line1.Enabled, false
TestParameter, AutoAnalysis.Line1.Type, 1
TestParameter, AutoAnalysis.Line1.Fix, True
TestParameter, AutoAnalysis.Line1.YAxis, 0
TestParameter, AutoAnalysis.Line1.Point1.Type, 0
TestParameter, AutoAnalysis.Line1.Point1.XY.X, 
TestParameter, AutoAnalysis.Line1.Point1.XY.Y, 
TestParameter, AutoAnalysis.Line1.Point1.Data.Var, 
TestParameter, AutoAnalysis.Line1.Point1.Data.Condition, 
TestParameter, AutoAnalysis.Line1.Point1.Data.Start, false
TestParameter, AutoAnalysis.Line1.Point1.Data.StartVar, 
TestParameter, AutoAnalysis.Line1.Point1.Data.StartCondition, 
TestParameter, AutoAnalysis.Line1.Point2.Type, 0
TestParameter, AutoAnalysis.Line1.Point2.XY.X, 
TestParameter, AutoAnalysis.Line1.Point2.XY.Y, 
TestParameter, AutoAnalysis.Line1.Point2.Data.Var, 
TestParameter, AutoAnalysis.Line1.Point2.Data.Condition, 
TestParameter, AutoAnalysis.Line1.Point2.Data.Start, false
TestParameter, AutoAnalysis.Line1.Point2.Data.StartVar, 
TestParameter, AutoAnalysis.Line1.Point2.Data.StartCondition, 
TestParameter, AutoAnalysis.Line1.GradientExpr, 0
TestParameter, AutoAnalysis.Line2.Enabled, false
TestParameter, AutoAnalysis.Line2.Type, 1
TestParameter, AutoAnalysis.Line2.Fix, True
TestParameter, AutoAnalysis.Line2.YAxis, 0
TestParameter, AutoAnalysis.Line2.Point1.Type, 0
TestParameter, AutoAnalysis.Line2.Point1.XY.X, 
TestParameter, AutoAnalysis.Line2.Point1.XY.Y, 
TestParameter, AutoAnalysis.Line2.Point1.Data.Var, 
TestParameter, AutoAnalysis.Line2.Point1.Data.Condition, 
TestParameter, AutoAnalysis.Line2.Point1.Data.Start, false
TestParameter, AutoAnalysis.Line2.Point1.Data.StartVar, 
TestParameter, AutoAnalysis.Line2.Point1.Data.StartCondition, 
TestParameter, AutoAnalysis.Line2.Point2.Type, 0
TestParameter, AutoAnalysis.Line2.Point2.XY.X, 
TestParameter, AutoAnalysis.Line2.Point2.XY.Y, 
TestParameter, AutoAnalysis.Line2.Point2.Data.Var, 
TestParameter, AutoAnalysis.Line2.Point2.Data.Condition, 
TestParameter, AutoAnalysis.Line2.Point2.Data.Start, false
TestParameter, AutoAnalysis.Line2.Point2.Data.StartVar, 
TestParameter, AutoAnalysis.Line2.Point2.Data.StartCondition, 
TestParameter, AutoAnalysis.Line2.GradientExpr, 0
TestParameter, AutoAnalysis.Marker.Enabled, false
TestParameter, AutoAnalysis.Marker.Data.Var, 
TestParameter, AutoAnalysis.Marker.Data.Condition, 
TestParameter, AutoAnalysis.Marker.Data.Start, false
TestParameter, AutoAnalysis.Marker.Data.StartVar, 
TestParameter, AutoAnalysis.Marker.Data.StartCondition, 
MetaData, TestRecord.EntryPoint, true
MetaData, TestRecord.RecordTime, 07/03/2019 12:14:19
MetaData, TestRecord.TestTarget, 6-47
MetaData, TestRecord.IterationIndex, 1
MetaData, TestRecord.Preservation, true
MetaData, TestRecord.Flag, 
MetaData, TestRecord.Remarks, good
MetaData, TestRecord.LinkKey, 1e431de6-b1f0-4b6c-9482-a033313a7208
Dimension1, 202, 202, 202, 202, 202, 202, 202, 202
Dimension2, 1, 1, 1, 1, 1, 1, 1, 1
DataName, VG, VD, ID, IG, IS, dIddVg, absIg, absId
DataValue, -2, 0.1, -4.0948E-12, 2.99E-11, 4.48E-12, 1.5337142857142842E-10, 2.99E-11, 4.0948E-12
DataValue, -1.93, 0.1, 6.6412E-12, -4.0400000000000006E-12, -5.4090000000000004E-11, 2.1510000000000015E-11, 4.0400000000000006E-12, 6.6412E-12
DataValue, -1.86, 0.1, -1.0834E-12, 1.025E-11, -2.8300000000000003E-12, -3.1871428571428554E-12, 1.025E-11, 1.0834E-12
DataValue, -1.79, 0.1, 6.195E-12, -5.626E-11, -2.2200000000000002E-12, -2.5912857142857115E-11, 5.626E-11, 6.195E-12
DataValue, -1.72, 0.1, -4.7111999999999996E-12, 1.1600000000000001E-12, 6.567E-11, -2.7655714285714309E-11, 1.1600000000000001E-12, 4.7111999999999996E-12
DataValue, -1.6500000000000001, 0.1, 2.3232E-12, -6.9400000000000007E-12, 4.31E-12, 3.7600000000000018E-12, 6.9400000000000007E-12, 2.3232E-12
DataValue, -1.58, 0.1, -4.1848E-12, 5.3250000000000004E-11, -7.5E-13, 3.06885714285714E-11, 5.3250000000000004E-11, 4.1848E-12
DataValue, -1.51, 0.1, 6.6196E-12, -3.2700000000000004E-12, -7.623E-11, 3.0432857142857116E-11, 3.2700000000000004E-12, 6.6196E-12
DataValue, -1.44, 0.1, 7.58E-14, -2.5E-13, -2.6000000000000002E-12, -1.087000000000001E-11, 2.5E-13, 7.58E-14
DataValue, -1.37, 0.1, 5.0977999999999995E-12, -5.004E-11, 3.5500000000000004E-12, 4.6160000000000031E-11, 5.004E-11, 5.0977999999999995E-12
DataValue, -1.3, 0.1, 6.5382E-12, -1.3560000000000001E-11, -6.681E-11, -3.7537142857142818E-11, 1.3560000000000001E-11, 6.5382E-12
DataValue, -1.23, 0.1, -1.574E-13, 1.2500000000000001E-12, 8.300000000000001E-13, -7.354999999999993E-11, 1.2500000000000001E-12, 1.574E-13
DataValue, -1.16, 0.1, -3.7588E-12, 3.9610000000000006E-11, -1.96E-12, -3.9725714285714312E-11, 3.9610000000000006E-11, 3.7588E-12
DataValue, -1.09, 0.1, -5.719E-12, 2.4440000000000002E-11, 5.6380000000000003E-11, 4.0495714285714307E-11, 2.4440000000000002E-11, 5.719E-12
DataValue, -1.02, 0.1, 1.9106E-12, -1.9900000000000002E-12, -1.8100000000000002E-12, 8.64142857142857E-12, 1.9900000000000002E-12, 1.9106E-12
DataValue, -0.95000000000000007, 0.1, -4.5092E-12, 5.0490000000000005E-11, -3.53E-12, -5.7351428571428573E-11, 5.0490000000000005E-11, 4.5092E-12
DataValue, -0.88, 0.1, -6.1186E-12, 7.27E-12, 7.111E-11, 3.0162857142857139E-11, 7.27E-12, 6.1186E-12
DataValue, -0.81, 0.1, -2.8639999999999997E-13, -2.5E-13, -2.3300000000000004E-12, 7.5438571428571422E-11, 2.5E-13, 2.8639999999999997E-13
DataValue, -0.74, 0.1, 4.4428E-12, -4.7940000000000005E-11, 1.6300000000000001E-12, 4.4937142857142852E-11, 4.7940000000000005E-11, 4.4428E-12
DataValue, -0.67, 0.1, 6.0048E-12, -1.0740000000000002E-11, -6.818E-11, -3.5644285714285708E-11, 1.0740000000000002E-11, 6.0048E-12
DataValue, -0.6, 0.1, -5.474E-13, 2.3300000000000004E-12, 1.9400000000000002E-12, -7.4275714285714279E-11, 2.3300000000000004E-12, 5.474E-13
DataValue, -0.53, 0.1, -4.3938E-12, 4.26E-11, -2.72E-12, -4.0348571428571443E-11, 4.26E-11, 4.3938E-12
DataValue, -0.46, 0.1, -6.1962E-12, 2.1730000000000002E-11, 6.1220000000000009E-11, 4.0162857142857137E-11, 2.1730000000000002E-11, 6.1962E-12
DataValue, -0.39, 0.1, 1.229E-12, -1.91E-12, -6.0000000000000009E-14, 7.2428571428571384E-12, 1.91E-12, 1.229E-12
DataValue, -0.32, 0.1, -5.1822E-12, 5.28E-11, -9.000000000000001E-13, 3.17E-11, 5.28E-11, 5.1822E-12
DataValue, -0.25, 0.1, 5.667E-12, -2.37E-12, -7.781E-11, 3.0608571428571427E-11, 2.37E-12, 5.667E-12
DataValue, -0.18, 0.1, -8.97E-13, 7.9000000000000007E-13, -4.06E-12, -1.0662857142857144E-11, 7.9000000000000007E-13, 8.97E-13
DataValue, -0.11, 0.1, 4.1742E-12, -4.691E-11, 1.9900000000000002E-12, 5.5530000000000008E-11, 4.691E-11, 4.1742E-12
DataValue, -0.04, 0.1, 6.8772E-12, -1.0010000000000001E-11, -7.094E-11, 2.3819999999999998E-11, 1.0010000000000001E-11, 6.8772E-12
DataValue, 0.03, 0.1, 7.509E-12, 2.57E-12, -4.73E-12, 3.9288857142857143E-10, 2.57E-12, 7.509E-12
DataValue, 0.1, 0.1, 6.18816E-11, -5.23E-11, -5.3760000000000004E-11, 1.8682928571428573E-09, 5.23E-11, 6.18816E-11
DataValue, 0.17, 0.1, 2.6907000000000003E-10, 4.88E-11, -2.6696000000000003E-10, 5.8649885714285724E-09, 4.88E-11, 2.6907000000000003E-10
DataValue, 0.24, 0.1, 8.8298000000000009E-10, -7.0800000000000005E-12, -8.2118000000000005E-10, 9.8809285714285725E-09, 7.0800000000000005E-12, 8.8298000000000009E-10
DataValue, 0.31, 0.1, 1.6524E-09, -2.7800000000000003E-12, -1.5232E-09, 1.2398714285714284E-08, 2.7800000000000003E-12, 1.6524E-09
DataValue, 0.38, 0.1, 2.6188E-09, -2.3000000000000003E-13, -2.5719E-09, 1.3059285714285715E-08, 2.3000000000000003E-13, 2.6188E-09
DataValue, 0.45, 0.1, 3.4807E-09, -3.0060000000000004E-11, -3.4437E-09, 1.3244999999999999E-08, 3.0060000000000004E-11, 3.4807E-09
DataValue, 0.52, 0.1, 4.4731E-09, 3.5850000000000004E-11, -4.394E-09, 1.5819285714285718E-08, 3.5850000000000004E-11, 4.4731E-09
DataValue, 0.59, 0.1, 5.6954E-09, -1.1600000000000001E-12, -5.6321E-09, 1.8937142857142856E-08, 1.1600000000000001E-12, 5.6954E-09
DataValue, 0.66, 0.1, 7.1243E-09, -1.0830000000000001E-11, -6.7805E-09, 1.9567857142857143E-08, 1.0830000000000001E-11, 7.1243E-09
DataValue, 0.73, 0.1, 8.4349E-09, -2.7E-13, -8.1139E-09, 2.4893571428571421E-08, 2.7E-13, 8.4349E-09
DataValue, 0.8, 0.1, 1.06094E-08, -5.4E-13, -1.03678E-08, 3.7584999999999989E-08, 5.4E-13, 1.06094E-08
DataValue, 0.87, 0.1, 1.36968E-08, -1.64E-12, -1.3511999999999999E-08, 4.9099999999999976E-08, 1.64E-12, 1.36968E-08
DataValue, 0.94000000000000006, 0.1, 1.7483399999999997E-08, 5.7520000000000005E-11, -1.72718E-08, 6.1611428571428556E-08, 5.7520000000000005E-11, 1.7483399999999997E-08
DataValue, 1.01, 0.1, 2.2322399999999998E-08, -6.7400000000000008E-12, -2.20464E-08, 7.885142857142857E-08, 6.7400000000000008E-12, 2.2322399999999998E-08
DataValue, 1.08, 0.1, 2.8522599999999998E-08, -4.8000000000000008E-13, -2.8166199999999996E-08, 1.0082428571428559E-07, 4.8000000000000008E-13, 2.8522599999999998E-08
DataValue, 1.1500000000000001, 0.1, 3.6437799999999994E-08, 1.9270000000000002E-11, -3.60114E-08, 1.2598428571428576E-07, 1.9270000000000002E-11, 3.6437799999999994E-08
DataValue, 1.22, 0.1, 4.6160399999999993E-08, -4.953E-11, -4.5716399999999992E-08, 1.592814285714287E-07, 4.953E-11, 4.6160399999999993E-08
DataValue, 1.29, 0.1, 5.8737199999999996E-08, 1.4400000000000001E-12, -5.8235999999999993E-08, 2.0055142857142844E-07, 1.4400000000000001E-12, 5.8737199999999996E-08
DataValue, 1.36, 0.1, 7.42376E-08, 4.4500000000000006E-12, -7.34886E-08, 2.4382000000000007E-07, 4.4500000000000006E-12, 7.42376E-08
DataValue, 1.43, 0.1, 9.2871999999999986E-08, 4.11E-12, -9.1768199999999989E-08, 3.0430285714285733E-07, 4.11E-12, 9.2871999999999986E-08
DataValue, 1.5, 0.1, 1.1683999999999999E-07, 3.4500000000000004E-12, -1.1618E-07, 3.7905714285714257E-07, 3.4500000000000004E-12, 1.1683999999999999E-07
DataValue, 1.57, 0.1, 1.4594E-07, 5.5400000000000004E-11, -1.4542E-07, 4.6085714285714252E-07, 5.5400000000000004E-11, 1.4594E-07
DataValue, 1.6400000000000001, 0.1, 1.8136E-07, 3.0000000000000003E-13, -1.8061999999999999E-07, 5.4371428571428607E-07, 3.0000000000000003E-13, 1.8136E-07
DataValue, 1.71, 0.1, 2.2206E-07, -5.3580000000000004E-11, -2.2132E-07, 6.2957142857142874E-07, 5.3580000000000004E-11, 2.2206E-07
DataValue, 1.78, 0.1, 2.6949999999999997E-07, 3.4500000000000004E-12, -2.6898E-07, 7.25571428571428E-07, 3.4500000000000004E-12, 2.6949999999999997E-07
DataValue, 1.85, 0.1, 3.2364E-07, 2.052E-11, -3.1848E-07, 8.0357142857142942E-07, 2.052E-11, 3.2364E-07
DataValue, 1.92, 0.1, 3.82E-07, -8.6000000000000007E-13, -3.8124E-07, 9.0400000000000058E-07, 8.6000000000000007E-13, 3.82E-07
DataValue, 1.99, 0.1, 4.502E-07, -5.208E-11, -4.4972E-07, 1.0228571428571416E-06, 5.208E-11, 4.502E-07
DataValue, 2.06, 0.1, 5.252E-07, 4E-12, -5.2444E-07, 1.1188571428571437E-06, 4E-12, 5.252E-07
DataValue, 2.13, 0.1, 6.0684E-07, 9.3200000000000015E-12, -6.014E-07, 1.1801428571428564E-06, 9.3200000000000015E-12, 6.0684E-07
DataValue, 2.2, 0.1, 6.9042E-07, 1.5000000000000002E-13, -6.9006E-07, 1.263571428571427E-06, 1.5000000000000002E-13, 6.9042E-07
DataValue, 2.27, 0.1, 7.8374E-07, -4.7140000000000005E-11, -7.8314E-07, 1.3670000000000028E-06, 4.7140000000000005E-11, 7.8374E-07
DataValue, 2.34, 0.1, 8.818E-07, 4E-12, -8.8111999999999994E-07, 1.4404285714285699E-06, 4E-12, 8.818E-07
DataValue, 2.41, 0.1, 9.854E-07, 4.9870000000000005E-11, -9.8508E-07, 1.5131428571428564E-06, 4.9870000000000005E-11, 9.854E-07
DataValue, 2.48, 0.1, 1.09364E-06, 3.1400000000000004E-12, -1.09316E-06, 1.5728571428571431E-06, 3.1400000000000004E-12, 1.09364E-06
DataValue, 2.5500000000000003, 0.1, 1.2056000000000002E-06, -3.193E-11, -1.2041E-06, 1.6304285714285712E-06, 3.193E-11, 1.2056000000000002E-06
DataValue, 2.62, 0.1, 1.3219000000000002E-06, 7.35E-12, -1.3221000000000002E-06, 1.6971428571428614E-06, 7.35E-12, 1.3219000000000002E-06
DataValue, 2.69, 0.1, 1.4432000000000002E-06, -1.2470000000000002E-11, -1.4435000000000002E-06, 1.7571428571428545E-06, 1.2470000000000002E-11, 1.4432000000000002E-06
DataValue, 2.7600000000000002, 0.1, 1.5679E-06, 1E-13, -1.5685E-06, 1.8085714285714267E-06, 1E-13, 1.5679E-06
DataValue, 2.83, 0.1, 1.6964000000000002E-06, 1.9380000000000002E-11, -1.6951E-06, 1.8507142857142914E-06, 1.9380000000000002E-11, 1.6964000000000002E-06
DataValue, 2.9, 0.1, 1.8270000000000003E-06, -5.5000000000000008E-13, -1.8275000000000003E-06, 1.8842857142857135E-06, 5.5000000000000008E-13, 1.8270000000000003E-06
DataValue, 2.97, 0.1, 1.9602000000000003E-06, -1.2750000000000001E-11, -1.9605E-06, 1.9214285714285702E-06, 1.2750000000000001E-11, 1.9602000000000003E-06
DataValue, 3.04, 0.1, 2.0960000000000003E-06, 3.675E-11, -2.0958000000000003E-06, 1.9478571428571471E-06, 3.675E-11, 2.0960000000000003E-06
DataValue, 3.11, 0.1, 2.2329000000000003E-06, -4.0000000000000006E-14, -2.2332E-06, 1.9621428571428561E-06, 4.0000000000000006E-14, 2.2329000000000003E-06
DataValue, 3.18, 0.1, 2.3707000000000004E-06, -2.904E-11, -2.3711E-06, 1.980714285714283E-06, 2.904E-11, 2.3707000000000004E-06
DataValue, 3.25, 0.1, 2.5102E-06, 5.419E-11, -2.5105000000000004E-06, 1.9942857142857112E-06, 5.419E-11, 2.5102E-06
DataValue, 3.3200000000000003, 0.1, 2.6499000000000002E-06, 1.8200000000000003E-12, -2.6505000000000003E-06, 2.0007142857142845E-06, 1.8200000000000003E-12, 2.6499000000000002E-06
DataValue, 3.39, 0.1, 2.7903E-06, -4.8810000000000004E-11, -2.7909000000000002E-06, 2.0078571428571487E-06, 4.8810000000000004E-11, 2.7903E-06
DataValue, 3.46, 0.1, 2.9310000000000004E-06, 4.42E-12, -2.9311E-06, 2.0064285714285707E-06, 4.42E-12, 2.9310000000000004E-06
DataValue, 3.5300000000000002, 0.1, 3.0712000000000003E-06, 5.6250000000000006E-11, -3.0712000000000003E-06, 2.0071428571428548E-06, 5.6250000000000006E-11, 3.0712000000000003E-06
DataValue, 3.6, 0.1, 3.2120000000000003E-06, 8.5000000000000011E-13, -3.2120000000000003E-06, 2.0100000000000045E-06, 8.5000000000000011E-13, 3.2120000000000003E-06
DataValue, 3.67, 0.1, 3.3526000000000003E-06, -4.9440000000000006E-11, -3.3532000000000004E-06, 2.0071428571428548E-06, 4.9440000000000006E-11, 3.3526000000000003E-06
DataValue, 3.74, 0.1, 3.4930000000000003E-06, 6.5E-12, -3.4930000000000003E-06, 2.0078571428571423E-06, 6.5E-12, 3.4930000000000003E-06
DataValue, 3.81, 0.1, 3.6337000000000005E-06, 5.59E-11, -3.6339000000000005E-06, 1.998571428571435E-06, 5.59E-11, 3.6337000000000005E-06
DataValue, 3.88, 0.1, 3.7728000000000005E-06, 1.95E-12, -3.7733000000000004E-06, 1.9935714285714236E-06, 1.95E-12, 3.7728000000000005E-06
DataValue, 3.95, 0.1, 3.9128E-06, -4.6710000000000006E-11, -3.9133E-06, 1.9985714285714223E-06, 4.6710000000000006E-11, 3.9128E-06
DataValue, 4.0200000000000005, 0.1, 4.0526000000000008E-06, 5.7600000000000005E-12, -4.0528E-06, 1.990714285714293E-06, 5.7600000000000005E-12, 4.0526000000000008E-06
DataValue, 4.09, 0.1, 4.1915000000000004E-06, 5.3670000000000007E-11, -4.1919000000000005E-06, 1.9835714285714322E-06, 5.3670000000000007E-11, 4.1915000000000004E-06
DataValue, 4.16, 0.1, 4.3303000000000007E-06, 1.3300000000000002E-12, -4.3306000000000005E-06, 1.9799999999999895E-06, 1.3300000000000002E-12, 4.3303000000000007E-06
DataValue, 4.23, 0.1, 4.4687E-06, -4.593E-11, -4.4689000000000005E-06, 1.9750000000000031E-06, 4.593E-11, 4.4687E-06
DataValue, 4.3, 0.1, 4.6068000000000005E-06, 5.909E-11, -4.6071E-06, 1.9700000000000044E-06, 5.909E-11, 4.6068000000000005E-06
DataValue, 4.37, 0.1, 4.7445E-06, 2.4300000000000003E-12, -4.7439000000000004E-06, 1.9578571428571322E-06, 2.4300000000000003E-12, 4.7445E-06
DataValue, 4.44, 0.1, 4.8809E-06, -5.0780000000000005E-11, -4.8812000000000008E-06, 1.9535714285714393E-06, 5.0780000000000005E-11, 4.8809E-06
DataValue, 4.51, 0.1, 5.0180000000000009E-06, 6.55E-12, -5.0178000000000005E-06, 1.9500000000000089E-06, 6.55E-12, 5.0180000000000009E-06
DataValue, 4.58, 0.1, 5.1539000000000007E-06, 6.068E-11, -5.1543000000000008E-06, 1.94285714285713E-06, 6.068E-11, 5.1539000000000007E-06
DataValue, 4.65, 0.1, 5.29E-06, 2.97E-12, -5.2895000000000008E-06, 1.92928571428572E-06, 2.97E-12, 5.29E-06
DataValue, 4.72, 0.1, 5.4240000000000009E-06, -5.116E-11, -5.4248E-06, 1.9242857142857212E-06, 5.116E-11, 5.4240000000000009E-06
DataValue, 4.79, 0.1, 5.5594000000000005E-06, 6.4800000000000007E-12, -5.5590000000000005E-06, 1.9228571428571342E-06, 6.4800000000000007E-12, 5.5594000000000005E-06
DataValue, 4.86, 0.1, 5.6932000000000008E-06, 6.0370000000000007E-11, -5.693E-06, 1.9085714285714312E-06, 6.0370000000000007E-11, 5.6932000000000008E-06
DataValue, 4.93, 0.1, 5.8266E-06, 2.97E-12, -5.8258E-06, 1.8964285714285715E-06, 2.97E-12, 5.8266E-06
