
SetupTitle, Transfer stab
PrimitiveTest, I/V Sweep
TestParameter, Context.MainFrame, 4155C
TestParameter, Channel.UnitType, SMU, SMU, SMU
TestParameter, Channel.Unit, SMU3:MP, SMU4:MP, SMU1:MP
TestParameter, Channel.IName, ID, IS, IG
TestParameter, Channel.VName, VD, VS, VG
TestParameter, Channel.Mode, V, COMMON, V
TestParameter, Channel.Func, CONST, CONST, VAR1
TestParameter, Channel.Index, 
TestParameter, Channel.Time, 
TestParameter, Measurement.Port.Unit, SMU3:MP, SMU4:MP, SMU1:MP
TestParameter, Measurement.Port.SeriesResistor, NONE, NONE, NONE
TestParameter, Measurement.Port.Filter, ON, ON, ON
TestParameter, Measurement.Primary.Locus, Single
TestParameter, Measurement.Primary.Scale, LINEAR
TestParameter, Measurement.Primary.Start, -2
TestParameter, Measurement.Primary.Stop, 3
TestParameter, Measurement.Primary.Step, 0.05
TestParameter, Measurement.Primary.Compliance, 0.1
TestParameter, Measurement.Primary.PowerCompliance, 0
TestParameter, Measurement.Aborting.Condition, CONTINUE AT ANY
TestParameter, Measurement.PostOutput.Value, START
TestParameter, Measurement.PostOutput.Retention, OFF
TestParameter, Measurement.Bias.Source, 3, 0, -2
TestParameter, Measurement.Bias.Compliance, 0.1, 0.1, 0.1
TestParameter, Measurement.Monitor.Unit, SMU3:MP, SMU4:MP, SMU1:MP
TestParameter, Measurement.Monitor.Adc, HR ADC, HR ADC, HR ADC
TestParameter, Measurement.Monitor.RangingMode, AUTO, AUTO, AUTO
TestParameter, Measurement.Monitor.RangeBoundary, , , 
TestParameter, Measurement.Monitor.RangeRating, BY FULL RANGE, BY FULL RANGE, BY FULL RANGE
TestParameter, Measurement.Monitor.RangeRatingCoeff, 50, 50, 50
TestParameter, Measurement.Timing.Hold, 0.5
TestParameter, Measurement.Timing.Delay, 0.05
TestParameter, Measurement.Adc.HighResolution.AutoZero, OFF
TestParameter, Measurement.Adc.HighResolution.Mode, AUTO
TestParameter, Measurement.Adc.HighResolution.Coeff, 1
TestParameter, Measurement.Ag16440ASelector.SemiconductorRelay.Channel1, DEFAULT
TestParameter, Measurement.Ag16440ASelector.SemiconductorRelay.Channel3, DEFAULT
TestParameter, Function.User.Name, absID, sqrtID, gm2, absIG
TestParameter, Function.User.Unit, A, A, A/V, A
TestParameter, Function.User.Definition, abs(ID), sqrt(abs(ID)), (delta(sqrtID)/delta(VG))^2, abs(IG)
TestParameter, Output.Graph.Enabled, true
TestParameter, Output.Graph.XAxis.Data, VG
TestParameter, Output.Graph.XAxis.Scale, Linear
TestParameter, Output.Graph.XAxis.Left, -5
TestParameter, Output.Graph.XAxis.Right, 7
TestParameter, Output.Graph.YAxis.Data, ID, absIG, gm2
TestParameter, Output.Graph.YAxis.Scale, Log, Log, Linear
TestParameter, Output.Graph.YAxis.Bottom, 1E-14, 1E-14, 0
TestParameter, Output.Graph.YAxis.Top, 0.01, 0.01, 1E-05
TestParameter, Output.Graph.YAxis.Group, , , 
TestParameter, Output.List.Data, VG, IG, VD, ID, VS, IS, sqrtID, gm2, absIG
TestParameter, AutoAnalysis.Interpolation, false
TestParameter, AutoAnalysis.Line1.Enabled, false
TestParameter, AutoAnalysis.Line1.Type, 1
TestParameter, AutoAnalysis.Line1.Fix, True
TestParameter, AutoAnalysis.Line1.YAxis, 0
TestParameter, AutoAnalysis.Line1.Point1.Type, 0
TestParameter, AutoAnalysis.Line1.Point1.XY.X, 
TestParameter, AutoAnalysis.Line1.Point1.XY.Y, 
TestParameter, AutoAnalysis.Line1.Point1.Data.Var, 
TestParameter, AutoAnalysis.Line1.Point1.Data.Condition, 
TestParameter, AutoAnalysis.Line1.Point1.Data.Start, false
TestParameter, AutoAnalysis.Line1.Point1.Data.StartVar, 
TestParameter, AutoAnalysis.Line1.Point1.Data.StartCondition, 
TestParameter, AutoAnalysis.Line1.Point2.Type, 0
TestParameter, AutoAnalysis.Line1.Point2.XY.X, 
TestParameter, AutoAnalysis.Line1.Point2.XY.Y, 
TestParameter, AutoAnalysis.Line1.Point2.Data.Var, 
TestParameter, AutoAnalysis.Line1.Point2.Data.Condition, 
TestParameter, AutoAnalysis.Line1.Point2.Data.Start, false
TestParameter, AutoAnalysis.Line1.Point2.Data.StartVar, 
TestParameter, AutoAnalysis.Line1.Point2.Data.StartCondition, 
TestParameter, AutoAnalysis.Line1.GradientExpr, 0
TestParameter, AutoAnalysis.Line2.Enabled, false
TestParameter, AutoAnalysis.Line2.Type, 1
TestParameter, AutoAnalysis.Line2.Fix, True
TestParameter, AutoAnalysis.Line2.YAxis, 0
TestParameter, AutoAnalysis.Line2.Point1.Type, 0
TestParameter, AutoAnalysis.Line2.Point1.XY.X, 
TestParameter, AutoAnalysis.Line2.Point1.XY.Y, 
TestParameter, AutoAnalysis.Line2.Point1.Data.Var, 
TestParameter, AutoAnalysis.Line2.Point1.Data.Condition, 
TestParameter, AutoAnalysis.Line2.Point1.Data.Start, false
TestParameter, AutoAnalysis.Line2.Point1.Data.StartVar, 
TestParameter, AutoAnalysis.Line2.Point1.Data.StartCondition, 
TestParameter, AutoAnalysis.Line2.Point2.Type, 0
TestParameter, AutoAnalysis.Line2.Point2.XY.X, 
TestParameter, AutoAnalysis.Line2.Point2.XY.Y, 
TestParameter, AutoAnalysis.Line2.Point2.Data.Var, 
TestParameter, AutoAnalysis.Line2.Point2.Data.Condition, 
TestParameter, AutoAnalysis.Line2.Point2.Data.Start, false
TestParameter, AutoAnalysis.Line2.Point2.Data.StartVar, 
TestParameter, AutoAnalysis.Line2.Point2.Data.StartCondition, 
TestParameter, AutoAnalysis.Line2.GradientExpr, 0
TestParameter, AutoAnalysis.Marker.Enabled, false
TestParameter, AutoAnalysis.Marker.Data.Var, 
TestParameter, AutoAnalysis.Marker.Data.Condition, 
TestParameter, AutoAnalysis.Marker.Data.Start, false
TestParameter, AutoAnalysis.Marker.Data.StartVar, 
TestParameter, AutoAnalysis.Marker.Data.StartCondition, 
MetaData, TestRecord.EntryPoint, true
MetaData, TestRecord.RecordTime, 07/03/2019 10:17:19
MetaData, TestRecord.TestTarget, 5-11
MetaData, TestRecord.IterationIndex, 1
MetaData, TestRecord.Preservation, true
MetaData, TestRecord.Flag, 
MetaData, TestRecord.Remarks, leak
MetaData, TestRecord.LinkKey, 8f7ba1cb-0d66-4b54-adf5-3ff2f05cb438
Dimension1, 101, 101, 101, 101, 101, 101, 101, 101, 101, 101
Dimension2, 1, 1, 1, 1, 1, 1, 1, 1, 1, 1
DataName, VG, VD, VS, ID, IS, IG, absID, sqrtID, gm2, absIG
DataValue, -2, 3, 0, 1.80977E-09, -2.0213500000000002E-10, -1.48077E-09, 1.80977E-09, 4.2541391608643928E-05, 8.843672055975932E-10, 1.48077E-09
DataValue, -1.9500000000000002, 3, 0, 1.68547E-09, -2.7246300000000003E-10, -1.38782E-09, 1.68547E-09, 4.105447600445048E-05, 3.4452419427144004E-10, 1.38782E-09
DataValue, -1.9000000000000001, 3, 0, 1.65529E-09, -3.28296E-10, -1.30659E-09, 1.65529E-09, 4.0685255314425642E-05, 3.811387246889072E-11, 1.30659E-09
DataValue, -1.85, 3, 0, 1.63516E-09, -3.7120100000000003E-10, -1.24177E-09, 1.63516E-09, 4.0437111667378028E-05, 7.868352910963722E-13, 1.24177E-09
DataValue, -1.8, 3, 0, 1.64808E-09, -4.2271200000000005E-10, -1.18304E-09, 1.64808E-09, 4.0596551577689449E-05, 9.0213135953557188E-14, 1.18304E-09
DataValue, -1.75, 3, 0, 1.63759E-09, -4.8869800000000006E-10, -1.13439E-09, 1.63759E-09, 4.0467147169030832E-05, 3.2722338283392153E-12, 1.13439E-09
DataValue, -1.7000000000000002, 3, 0, 1.6628E-09, -5.5341000000000006E-10, -1.08638E-09, 1.6628E-09, 4.0777444745839582E-05, 2.0154092139421189E-12, 1.08638E-09
DataValue, -1.6500000000000001, 3, 0, 1.6491E-09, -5.8943900000000008E-10, -1.0467E-09, 1.6491E-09, 4.0609112277911222E-05, 7.49351277289949E-12, 1.0467E-09
DataValue, -1.6, 3, 0, 1.6852E-09, -6.55144E-10, -1.01475E-09, 1.6852E-09, 4.1051187558948885E-05, 2.5293833704703624E-11, 1.01475E-09
DataValue, -1.55, 3, 0, 1.6902E-09, -7.2210600000000007E-10, -9.7235E-10, 1.6902E-09, 4.1112042031502155E-05, 2.4986539408843606E-11, 9.7235E-10
DataValue, -1.5, 3, 0, 1.72649E-09, -7.74002E-10, -9.34369E-10, 1.72649E-09, 4.1551052934913691E-05, 2.7218999281337744E-11, 9.34369E-10
DataValue, -1.4500000000000002, 3, 0, 1.73337E-09, -8.05363E-10, -8.9927500000000008E-10, 1.73337E-09, 4.1633760339416854E-05, 2.924121772108335E-11, 8.9927500000000008E-10
DataValue, -1.4000000000000001, 3, 0, 1.77172E-09, -8.8646600000000011E-10, -8.5932800000000005E-10, 1.77172E-09, 4.20918044279406E-05, 1.8396983529381117E-10, 8.5932800000000005E-10
DataValue, -1.35, 3, 0, 1.84815E-09, -9.9785E-10, -8.223190000000001E-10, 1.84815E-09, 4.2990115142902327E-05, 1.3861605077132265E-10, 8.223190000000001E-10
DataValue, -1.3, 3, 0, 1.87222E-09, -1.11102E-09, -7.88745E-10, 1.87222E-09, 4.326915760677575E-05, 2.9114777612058963E-10, 7.88745E-10
DataValue, -1.25, 3, 0, 1.99777E-09, -1.21066E-09, -7.56753E-10, 1.99777E-09, 4.4696420438330405E-05, 6.6746858158422681E-10, 7.56753E-10
DataValue, -1.2, 3, 0, 2.10247E-09, -1.35409E-09, -7.24345E-10, 2.10247E-09, 4.585269893910281E-05, 3.820138216804135E-10, 7.24345E-10
DataValue, -1.1500000000000001, 3, 0, 2.17631E-09, -1.45753E-09, -6.89608E-10, 2.17631E-09, 4.6650937825514291E-05, 5.6711498691395831E-10, 6.89608E-10
DataValue, -1.1, 3, 0, 2.32653E-09, -1.62734E-09, -6.58123E-10, 2.32653E-09, 4.8234116556644842E-05, 8.4389679173063247E-10, 6.58123E-10
DataValue, -1.05, 3, 0, 2.45579E-09, -1.77232E-09, -6.2918800000000006E-10, 2.45579E-09, 4.9555928000593432E-05, 8.3467139531118461E-10, 6.2918800000000006E-10
DataValue, -1, 3, 0, 2.61358E-09, -1.92896E-09, -6.0192300000000005E-10, 2.61358E-09, 5.1123184564344187E-05, 8.5864275291005778E-10, 6.0192300000000005E-10
DataValue, -0.95000000000000007, 3, 0, 2.7548E-09, -2.13099E-09, -5.72098E-10, 2.7548E-09, 5.2486188659494031E-05, 1.065454552588174E-09, 5.72098E-10
DataValue, -0.9, 3, 0, 2.95798E-09, -2.38942E-09, -5.4186400000000006E-10, 2.95798E-09, 5.4387314697454957E-05, 1.8746667561837073E-09, 5.4186400000000006E-10
DataValue, -0.85000000000000009, 3, 0, 3.22805E-09, -2.66118E-09, -5.14111E-10, 3.22805E-09, 5.6815930864503132E-05, 2.9154310196729486E-09, 5.14111E-10
DataValue, -0.8, 3, 0, 3.57446E-09, -3.02884E-09, -4.87824E-10, 3.57446E-09, 5.9786787838116874E-05, 6.1977097469239052E-09, 4.87824E-10
DataValue, -0.75, 3, 0, 4.1846E-09, -3.66127E-09, -4.5912300000000004E-10, 4.1846E-09, 6.4688484292028356E-05, 1.2646983277468122E-08, 4.5912300000000004E-10
DataValue, -0.70000000000000007, 3, 0, 5.04564E-09, -4.50994E-09, -4.33713E-10, 5.04564E-09, 7.1032668540608839E-05, 2.0767720972027526E-08, 4.33713E-10
DataValue, -0.65, 3, 0, 6.25673E-09, -5.73167E-09, -4.09553E-10, 6.25673E-09, 7.9099494309382281E-05, 2.628898614933306E-08, 4.09553E-10
DataValue, -0.6, 3, 0, 7.61196E-09, -7.09976E-09, -3.85716E-10, 7.61196E-09, 8.72465472096174E-05, 2.2420757116210496E-08, 3.85716E-10
DataValue, -0.55, 3, 0, 8.84974E-09, -8.34604E-09, -3.65521E-10, 8.84974E-09, 9.407305671657533E-05, 2.4696424649807243E-08, 3.65521E-10
DataValue, -0.5, 3, 0, 1.0601099999999999E-08, -1.0073799999999999E-08, -3.4259E-10, 1.0601099999999999E-08, 0.00010296164334352866, 4.8366750657720017E-08, 3.4259E-10
DataValue, -0.45, 3, 0, 1.3471199999999998E-08, -1.2963499999999999E-08, -3.1956600000000003E-10, 1.3471199999999998E-08, 0.00011606549874962842, 7.3805344265421952E-08, 3.1956600000000003E-10
DataValue, -0.4, 3, 0, 1.6933499999999997E-08, -1.63638E-08, -2.93554E-10, 1.6933499999999997E-08, 0.00013012878236577793, 9.2143380880088628E-08, 2.93554E-10
DataValue, -0.35000000000000003, 3, 0, 2.1438999999999998E-08, -2.08704E-08, -2.7057000000000003E-10, 2.1438999999999998E-08, 0.00014642062696218727, 1.2211416730685307E-07, 2.7057000000000003E-10
DataValue, -0.3, 3, 0, 2.7249299999999998E-08, -2.6695599999999998E-08, -2.4889E-10, 2.7249299999999998E-08, 0.00016507361993971053, 1.7902146644394862E-07, 2.4889E-10
DataValue, -0.25, 3, 0, 3.5619599999999996E-08, -3.5125E-08, -2.2621700000000002E-10, 3.5619599999999996E-08, 0.00018873155539018903, 2.6791886114585259E-07, 2.2621700000000002E-10
DataValue, -0.2, 3, 0, 4.7017199999999994E-08, -4.6370199999999995E-08, -2.0386100000000002E-10, 4.7017199999999994E-08, 0.00021683449910012012, 3.7235284983543011E-07, 2.0386100000000002E-10
DataValue, -0.15, 3, 0, 6.23762E-08, -6.17236E-08, -1.8367200000000002E-10, 6.23762E-08, 0.000249752277266895, 5.01756257635636E-07, 1.8367200000000002E-10
DataValue, -0.1, 3, 0, 8.2753599999999993E-08, -8.2020699999999987E-08, -1.63344E-10, 8.2753599999999993E-08, 0.00028766925452679157, 6.1138818108322638E-07, 1.63344E-10
DataValue, -0.05, 3, 0, 1.07547E-07, -1.0703499999999999E-07, -1.4949300000000002E-10, 1.07547E-07, 0.00032794359271069772, 8.1725518520274523E-07, 1.4949300000000002E-10
DataValue, 0, 3, 0, 1.42938E-07, -1.4227E-07, -1.2828000000000002E-10, 1.42938E-07, 0.0003780714218239723, 1.0100505181727489E-06, 1.2828000000000002E-10
DataValue, 0.05, 3, 0, 1.83565E-07, -1.82564E-07, -1.08903E-10, 1.83565E-07, 0.00042844486226351227, 1.0497956213020394E-06, 1.08903E-10
DataValue, 0.1, 3, 0, 2.3091E-07, -2.3025E-07, -9.0096000000000009E-11, 2.3091E-07, 0.0004805309563389231, 1.113635292774951E-06, 9.0096000000000009E-11
DataValue, 0.15, 3, 0, 2.85128E-07, -2.84139E-07, -7.372E-11, 2.85128E-07, 0.00053397378212792436, 1.1654700135163734E-06, 7.372E-11
DataValue, 0.2, 3, 0, 3.46318E-07, -3.4515299999999997E-07, -5.6704000000000004E-11, 3.46318E-07, 0.00058848789282363323, 1.2254612713950168E-06, 5.6704000000000004E-11
DataValue, 0.25, 3, 0, 4.1560499999999997E-07, -4.14074E-07, -4.122E-11, 4.1560499999999997E-07, 0.00064467433639008769, 1.2793452418617409E-06, 4.122E-11
DataValue, 0.3, 3, 0, 4.92237E-07, -4.91671E-07, -2.7864000000000003E-11, 4.92237E-07, 0.00070159603761708921, 1.3346172873812777E-06, 2.7864000000000003E-11
DataValue, 0.35000000000000003, 3, 0, 5.77904E-07, -5.76742E-07, -1.4138000000000001E-11, 5.77904E-07, 0.0007601999736911335, 1.4147826859353469E-06, 1.4138000000000001E-11
DataValue, 0.4, 3, 0, 6.73287E-07, -6.72018E-07, -1.917E-12, 6.73287E-07, 0.00082054067540859909, 1.4786395403015577E-06, 1.917E-12
DataValue, 0.45, 3, 0, 7.7757E-07, -7.75852E-07, 9.585E-12, 7.7757E-07, 0.00088179929689243908, 1.5625242077635152E-06, 9.585E-12
DataValue, 0.5, 3, 0, 8.94049E-07, -8.92334E-07, 1.8559000000000003E-11, 8.94049E-07, 0.0009455416437153892, 1.6491692864277641E-06, 1.8559000000000003E-11
DataValue, 0.55, 3, 0, 1.020543E-06, -1.018169E-06, 2.9205000000000004E-11, 1.020543E-06, 0.0010102192831261934, 1.6147289785773237E-06, 2.9205000000000004E-11
DataValue, 0.6, 3, 0, 1.1505E-06, -1.14995E-06, 2.6494000000000002E-11, 1.1505E-06, 0.0010726136303441235, 1.8067669114443598E-06, 2.6494000000000002E-11
DataValue, 0.65, 3, 0, 1.3101900000000001E-06, -1.3068100000000002E-06, 3.8131000000000004E-11, 1.3101900000000001E-06, 0.0011446353131019504, 1.9650618513979685E-06, 3.8131000000000004E-11
DataValue, 0.70000000000000007, 3, 0, 1.4708700000000002E-06, -1.4658500000000001E-06, 4.593E-11, 1.4708700000000002E-06, 0.0012127942941818288, 1.8239082879766734E-06, 4.593E-11
DataValue, 0.75, 3, 0, 1.6376000000000002E-06, -1.6323600000000002E-06, 5.6157E-11, 1.6376000000000002E-06, 0.0012796874618437113, 1.7973428373389356E-06, 5.6157E-11
DataValue, 0.8, 3, 0, 1.81403E-06, -1.8061700000000002E-06, 5.9624E-11, 1.81403E-06, 0.0013468593096533877, 1.7716701699025765E-06, 5.9624E-11
DataValue, 0.85000000000000009, 3, 0, 1.9959800000000003E-06, -1.9874300000000002E-06, 6.328E-11, 1.9959800000000003E-06, 0.001412791562828714, 1.7702161818339263E-06, 6.328E-11
DataValue, 0.9, 3, 0, 2.1901300000000004E-06, -2.1798500000000004E-06, 6.7094E-11, 2.1901300000000004E-06, 0.0014799087809726653, 1.7825911036173573E-06, 6.7094E-11
DataValue, 0.95000000000000007, 3, 0, 2.3910600000000004E-06, -2.3798E-06, 6.7615E-11, 2.3910600000000004E-06, 0.00154630527387059, 1.7827389199637356E-06, 6.7615E-11
DataValue, 1, 3, 0, 2.6031500000000002E-06, -2.5917E-06, 6.5199000000000009E-11, 2.6031500000000002E-06, 0.0016134280275240046, 1.8169040081027541E-06, 6.5199000000000009E-11
DataValue, 1.05, 3, 0, 2.82609E-06, -2.8123700000000004E-06, 6.6755E-11, 2.82609E-06, 0.0016810978555693895, 1.8415354525767178E-06, 6.6755E-11
DataValue, 1.1, 3, 0, 3.0594600000000003E-06, -3.0438800000000005E-06, 6.587400000000001E-11, 3.0594600000000003E-06, 0.0017491312129168583, 1.9132321047186907E-06, 6.587400000000001E-11
DataValue, 1.1500000000000001, 3, 0, 3.31028E-06, -3.29374E-06, 6.5186E-11, 3.31028E-06, 0.0018194174891981226, 1.9750205497276568E-06, 6.5186E-11
DataValue, 1.2, 3, 0, 3.5708400000000004E-06, -3.5515400000000005E-06, 6.4673000000000008E-11, 3.5708400000000004E-06, 0.0018896666372670075, 1.9925851041475823E-06, 6.4673000000000008E-11
DataValue, 1.25, 3, 0, 3.84386E-06, -3.82297E-06, 5.9904E-11, 3.84386E-06, 0.0019605764458444359, 1.9634733226510591E-06, 5.9904E-11
DataValue, 1.3, 3, 0, 4.1200500000000005E-06, -4.0969400000000008E-06, 5.6393000000000005E-11, 4.1200500000000005E-06, 0.0020297906295970529, 1.9413042557939653E-06, 5.6393000000000005E-11
DataValue, 1.35, 3, 0, 4.4096100000000008E-06, -4.3849300000000006E-06, 6.1357000000000008E-11, 4.4096100000000008E-06, 0.0020999071408040883, 2.0069001497470092E-06, 6.1357000000000008E-11
DataValue, 1.4000000000000001, 3, 0, 4.7152200000000007E-06, -4.6879600000000004E-06, 6.113E-11, 4.7152200000000007E-06, 0.0021714557329128312, 2.0767504050964658E-06, 6.113E-11
DataValue, 1.4500000000000002, 3, 0, 5.03561E-06, -5.00408E-06, 6.2544000000000007E-11, 5.03561E-06, 0.0022440164883529711, 2.1476233749393323E-06, 6.2544000000000007E-11
DataValue, 1.5, 3, 0, 5.3731400000000005E-06, -5.3374200000000005E-06, 6.870500000000001E-11, 5.3731400000000005E-06, 0.0023180034512485094, 2.2215452955530273E-06, 6.870500000000001E-11
DataValue, 1.55, 3, 0, 5.7267600000000005E-06, -5.6911000000000004E-06, 7.8944000000000009E-11, 5.7267600000000005E-06, 0.0023930649803129041, 2.3519456641478555E-06, 7.8944000000000009E-11
DataValue, 1.6, 3, 0, 6.1076400000000009E-06, -6.0727E-06, 8.9766000000000008E-11, 6.1076400000000009E-06, 0.002471363995853302, 2.463290860113148E-06, 8.9766000000000008E-11
DataValue, 1.6500000000000001, 3, 0, 6.5025700000000007E-06, -6.46193E-06, 9.8960000000000013E-11, 6.5025700000000007E-06, 0.0025500137254532572, 2.5875746221399536E-06, 9.8960000000000013E-11
DataValue, 1.7000000000000002, 3, 0, 6.9286000000000009E-06, -6.885000000000001E-06, 1.04294E-10, 6.9286000000000009E-06, 0.0026322233947748434, 2.6591025429346524E-06, 1.04294E-10
DataValue, 1.75, 3, 0, 7.3608100000000006E-06, -7.3143800000000009E-06, 1.1694400000000002E-10, 7.3608100000000006E-06, 0.002713081274123575, 2.7149032110877564E-06, 1.1694400000000002E-10
DataValue, 1.8, 3, 0, 7.8231700000000012E-06, -7.77703E-06, 1.23194E-10, 7.8231700000000012E-06, 0.0027969930282358592, 2.7844476236429362E-06, 1.23194E-10
DataValue, 1.85, 3, 0, 8.2941E-06, -8.24421E-06, 1.3093700000000002E-10, 8.2941E-06, 0.0028799479161957082, 2.8735341991421649E-06, 1.3093700000000002E-10
DataValue, 1.9000000000000001, 3, 0, 8.80017E-06, -8.746780000000001E-06, 1.4526500000000002E-10, 8.80017E-06, 0.0029665080481940378, 2.9956717179375907E-06, 1.4526500000000002E-10
DataValue, 1.9500000000000002, 3, 0, 9.3209800000000013E-06, -9.26413E-06, 1.49076E-10, 9.3209800000000013E-06, 0.0030530280051123018, 3.0535219085245132E-06, 1.49076E-10
DataValue, 2, 3, 0, 9.86746E-06, -9.8077100000000017E-06, 1.65113E-10, 9.86746E-06, 0.0031412513430160282, 3.1762165950961936E-06, 1.65113E-10
DataValue, 2.05, 3, 0, 1.0440960000000001E-05, -1.0382290000000002E-05, 1.7348100000000001E-10, 1.0440960000000001E-05, 0.0032312474371363146, 3.2558410086923342E-06, 1.7348100000000001E-10
DataValue, 2.1, 3, 0, 1.1033630000000001E-05, -1.096773E-05, 1.82921E-10, 1.1033630000000001E-05, 0.0033216908344998034, 2.5871535945082744E-06, 1.82921E-10
DataValue, 2.15, 3, 0, 1.15063E-05, -1.1409E-05, 1.8484200000000002E-10, 1.15063E-05, 0.0033920937487044783, 2.8948468555822238E-06, 1.8484200000000002E-10
DataValue, 2.2, 3, 0, 1.21929E-05, -1.21274E-05, 1.8744300000000003E-10, 1.21929E-05, 0.0034918333293557985, 3.9067714928908016E-06, 1.8744300000000003E-10
DataValue, 2.25, 3, 0, 1.28863E-05, -1.28122E-05, 1.9408300000000002E-10, 1.28863E-05, 0.0035897492948672614, 3.73068104552681E-06, 1.9408300000000002E-10
DataValue, 2.3000000000000003, 3, 0, 1.35791E-05, -1.35017E-05, 2.0225500000000002E-10, 1.35791E-05, 0.003684983039309679, 3.6649654152110629E-06, 2.0225500000000002E-10
