
SetupTitle, Transfer stab
PrimitiveTest, I/V Sweep
TestParameter, Context.MainFrame, 4155C
TestParameter, Channel.UnitType, SMU, SMU, SMU
TestParameter, Channel.Unit, SMU3:MP, SMU4:MP, SMU1:MP
TestParameter, Channel.IName, ID, IS, IG
TestParameter, Channel.VName, VD, VS, VG
TestParameter, Channel.Mode, V, COMMON, V
TestParameter, Channel.Func, CONST, CONST, VAR1
TestParameter, Channel.Index, 
TestParameter, Channel.Time, 
TestParameter, Measurement.Port.Unit, SMU3:MP, SMU4:MP, SMU1:MP
TestParameter, Measurement.Port.SeriesResistor, NONE, NONE, NONE
TestParameter, Measurement.Port.Filter, ON, ON, ON
TestParameter, Measurement.Primary.Locus, Single
TestParameter, Measurement.Primary.Scale, LINEAR
TestParameter, Measurement.Primary.Start, -2
TestParameter, Measurement.Primary.Stop, 3
TestParameter, Measurement.Primary.Step, 0.05
TestParameter, Measurement.Primary.Compliance, 0.1
TestParameter, Measurement.Primary.PowerCompliance, 0
TestParameter, Measurement.Aborting.Condition, CONTINUE AT ANY
TestParameter, Measurement.PostOutput.Value, START
TestParameter, Measurement.PostOutput.Retention, OFF
TestParameter, Measurement.Bias.Source, 3, 0, -2
TestParameter, Measurement.Bias.Compliance, 0.1, 0.1, 0.1
TestParameter, Measurement.Monitor.Unit, SMU3:MP, SMU4:MP, SMU1:MP
TestParameter, Measurement.Monitor.Adc, HR ADC, HR ADC, HR ADC
TestParameter, Measurement.Monitor.RangingMode, AUTO, AUTO, AUTO
TestParameter, Measurement.Monitor.RangeBoundary, , , 
TestParameter, Measurement.Monitor.RangeRating, BY FULL RANGE, BY FULL RANGE, BY FULL RANGE
TestParameter, Measurement.Monitor.RangeRatingCoeff, 50, 50, 50
TestParameter, Measurement.Timing.Hold, 0.5
TestParameter, Measurement.Timing.Delay, 0.05
TestParameter, Measurement.Adc.HighResolution.AutoZero, OFF
TestParameter, Measurement.Adc.HighResolution.Mode, AUTO
TestParameter, Measurement.Adc.HighResolution.Coeff, 1
TestParameter, Measurement.Ag16440ASelector.SemiconductorRelay.Channel1, DEFAULT
TestParameter, Measurement.Ag16440ASelector.SemiconductorRelay.Channel3, DEFAULT
TestParameter, Function.User.Name, absID, sqrtID, gm2, absIG
TestParameter, Function.User.Unit, A, A, A/V, A
TestParameter, Function.User.Definition, abs(ID), sqrt(abs(ID)), (delta(sqrtID)/delta(VG))^2, abs(IG)
TestParameter, Output.Graph.Enabled, true
TestParameter, Output.Graph.XAxis.Data, VG
TestParameter, Output.Graph.XAxis.Scale, Linear
TestParameter, Output.Graph.XAxis.Left, -5
TestParameter, Output.Graph.XAxis.Right, 7
TestParameter, Output.Graph.YAxis.Data, ID, absIG, gm2
TestParameter, Output.Graph.YAxis.Scale, Log, Log, Linear
TestParameter, Output.Graph.YAxis.Bottom, 1E-14, 1E-14, 0
TestParameter, Output.Graph.YAxis.Top, 0.01, 0.01, 1E-05
TestParameter, Output.Graph.YAxis.Group, , , 
TestParameter, Output.List.Data, VG, IG, VD, ID, VS, IS, sqrtID, gm2, absIG
TestParameter, AutoAnalysis.Interpolation, false
TestParameter, AutoAnalysis.Line1.Enabled, false
TestParameter, AutoAnalysis.Line1.Type, 1
TestParameter, AutoAnalysis.Line1.Fix, True
TestParameter, AutoAnalysis.Line1.YAxis, 0
TestParameter, AutoAnalysis.Line1.Point1.Type, 0
TestParameter, AutoAnalysis.Line1.Point1.XY.X, 
TestParameter, AutoAnalysis.Line1.Point1.XY.Y, 
TestParameter, AutoAnalysis.Line1.Point1.Data.Var, 
TestParameter, AutoAnalysis.Line1.Point1.Data.Condition, 
TestParameter, AutoAnalysis.Line1.Point1.Data.Start, false
TestParameter, AutoAnalysis.Line1.Point1.Data.StartVar, 
TestParameter, AutoAnalysis.Line1.Point1.Data.StartCondition, 
TestParameter, AutoAnalysis.Line1.Point2.Type, 0
TestParameter, AutoAnalysis.Line1.Point2.XY.X, 
TestParameter, AutoAnalysis.Line1.Point2.XY.Y, 
TestParameter, AutoAnalysis.Line1.Point2.Data.Var, 
TestParameter, AutoAnalysis.Line1.Point2.Data.Condition, 
TestParameter, AutoAnalysis.Line1.Point2.Data.Start, false
TestParameter, AutoAnalysis.Line1.Point2.Data.StartVar, 
TestParameter, AutoAnalysis.Line1.Point2.Data.StartCondition, 
TestParameter, AutoAnalysis.Line1.GradientExpr, 0
TestParameter, AutoAnalysis.Line2.Enabled, false
TestParameter, AutoAnalysis.Line2.Type, 1
TestParameter, AutoAnalysis.Line2.Fix, True
TestParameter, AutoAnalysis.Line2.YAxis, 0
TestParameter, AutoAnalysis.Line2.Point1.Type, 0
TestParameter, AutoAnalysis.Line2.Point1.XY.X, 
TestParameter, AutoAnalysis.Line2.Point1.XY.Y, 
TestParameter, AutoAnalysis.Line2.Point1.Data.Var, 
TestParameter, AutoAnalysis.Line2.Point1.Data.Condition, 
TestParameter, AutoAnalysis.Line2.Point1.Data.Start, false
TestParameter, AutoAnalysis.Line2.Point1.Data.StartVar, 
TestParameter, AutoAnalysis.Line2.Point1.Data.StartCondition, 
TestParameter, AutoAnalysis.Line2.Point2.Type, 0
TestParameter, AutoAnalysis.Line2.Point2.XY.X, 
TestParameter, AutoAnalysis.Line2.Point2.XY.Y, 
TestParameter, AutoAnalysis.Line2.Point2.Data.Var, 
TestParameter, AutoAnalysis.Line2.Point2.Data.Condition, 
TestParameter, AutoAnalysis.Line2.Point2.Data.Start, false
TestParameter, AutoAnalysis.Line2.Point2.Data.StartVar, 
TestParameter, AutoAnalysis.Line2.Point2.Data.StartCondition, 
TestParameter, AutoAnalysis.Line2.GradientExpr, 0
TestParameter, AutoAnalysis.Marker.Enabled, false
TestParameter, AutoAnalysis.Marker.Data.Var, 
TestParameter, AutoAnalysis.Marker.Data.Condition, 
TestParameter, AutoAnalysis.Marker.Data.Start, false
TestParameter, AutoAnalysis.Marker.Data.StartVar, 
TestParameter, AutoAnalysis.Marker.Data.StartCondition, 
MetaData, TestRecord.EntryPoint, true
MetaData, TestRecord.RecordTime, 07/03/2019 10:24:14
MetaData, TestRecord.TestTarget, 5-45
MetaData, TestRecord.IterationIndex, 1
MetaData, TestRecord.Preservation, true
MetaData, TestRecord.Flag, 
MetaData, TestRecord.Remarks, leak
MetaData, TestRecord.LinkKey, 2841ec79-0add-4b73-adb1-892c48e8f5cd
Dimension1, 101, 101, 101, 101, 101, 101, 101, 101, 101, 101
Dimension2, 1, 1, 1, 1, 1, 1, 1, 1, 1, 1
DataName, VG, VD, VS, ID, IS, IG, absID, sqrtID, gm2, absIG
DataValue, -2, 3, 0, 4.80087E-09, -2.20007E-09, -2.1846E-09, 4.80087E-09, 6.9288310702455427E-05, 4.5848458745612857E-08, 2.1846E-09
DataValue, -1.9500000000000002, 3, 0, 6.39911E-09, -2.53138E-09, -4.6388E-09, 6.39911E-09, 7.9994437306602761E-05, 8.65180979800043E-09, 4.6388E-09
DataValue, -1.9000000000000001, 3, 0, 6.17636E-09, -2.67386E-09, -2.83585E-09, 6.17636E-09, 7.8589821223870972E-05, 2.449756535206493E-10, 2.83585E-09
DataValue, -1.85, 3, 0, 6.15115E-09, -2.8652E-09, -3.23486E-09, 6.15115E-09, 7.84292674962606E-05, 7.1074574487170178E-09, 3.23486E-09
DataValue, -1.8, 3, 0, 4.92232E-09, -3.08281E-09, -2.13624E-09, 4.92232E-09, 7.0159247430399361E-05, 4.70622212798151E-10, 2.13624E-09
DataValue, -1.75, 3, 0, 5.81557E-09, -3.21119E-09, -2.6814E-09, 5.81557E-09, 7.6259884605210361E-05, 5.3412106927990137E-09, 2.6814E-09
DataValue, -1.7000000000000002, 3, 0, 6.00123E-09, -3.34193E-09, -2.98298E-09, 6.00123E-09, 7.7467606133144458E-05, 3.1926621723012119E-10, 2.98298E-09
DataValue, -1.6500000000000001, 3, 0, 5.54624E-09, -3.49429E-09, -1.69509E-09, 5.54624E-09, 7.4473082385516977E-05, 1.8826507740913513E-09, 1.69509E-09
DataValue, -1.6, 3, 0, 5.3478E-09, -3.6515E-09, -1.71003E-09, 5.3478E-09, 7.3128653754872308E-05, 1.4067421076401803E-12, 1.71003E-09
DataValue, -1.55, 3, 0, 5.56392E-09, -3.90195E-09, -1.63727E-09, 5.56392E-09, 7.4591688545038319E-05, 6.7995731869237929E-10, 1.63727E-09
DataValue, -1.5, 3, 0, 5.73598E-09, -3.9966E-09, -1.70984E-09, 5.73598E-09, 7.57362528779976E-05, 3.3251274235470194E-10, 1.70984E-09
DataValue, -1.4500000000000002, 3, 0, 5.83928E-09, -4.18901E-09, -1.72064E-09, 5.83928E-09, 7.6415181737662577E-05, 4.5499480290902953E-10, 1.72064E-09
DataValue, -1.4000000000000001, 3, 0, 6.06363E-09, -4.4235E-09, -2.03872E-09, 6.06363E-09, 7.7869313596563833E-05, 6.80122665324889E-10, 2.03872E-09
DataValue, -1.35, 3, 0, 6.24465E-09, -4.60583E-09, -1.88179E-09, 6.24465E-09, 7.902309788916149E-05, 3.6593876628094704E-10, 1.88179E-09
DataValue, -1.3, 3, 0, 6.36521E-09, -4.84577E-09, -1.86471E-09, 6.36521E-09, 7.9782266199951977E-05, 3.7338680865890686E-10, 1.86471E-09
DataValue, -1.25, 3, 0, 6.55378E-09, -5.03369E-09, -1.36606E-09, 6.55378E-09, 8.0955419830916817E-05, 1.5991973980810775E-09, 1.36606E-09
DataValue, -1.2, 3, 0, 7.0193E-09, -5.38115E-09, -1.14541E-09, 7.0193E-09, 8.3781262821707339E-05, 4.4800441225030459E-11, 1.14541E-09
DataValue, -1.1500000000000001, 3, 0, 6.6626E-09, -5.53313E-09, -1.04069E-09, 6.6626E-09, 8.1624751148165833E-05, 8.8116012470530848E-11, 1.04069E-09
DataValue, -1.1, 3, 0, 6.86289E-09, -5.8396E-09, -1.093556E-09, 6.86289E-09, 8.28425615248587E-05, 1.2302136602458552E-09, 1.093556E-09
DataValue, -1.05, 3, 0, 7.24749E-09, -6.20422E-09, -1.0001170000000001E-09, 7.24749E-09, 8.5132191326195756E-05, 9.3550499357284042E-10, 1.0001170000000001E-09
DataValue, -1, 3, 0, 7.37901E-09, -6.46486E-09, -9.93905E-10, 7.37901E-09, 8.5901164136465585E-05, 7.38238539624302E-10, 9.93905E-10
DataValue, -0.95000000000000007, 3, 0, 7.71749E-09, -6.67657E-09, -9.1516000000000007E-10, 7.71749E-09, 8.7849245870411425E-05, 1.9542141092462771E-09, 9.1516000000000007E-10
DataValue, -0.9, 3, 0, 8.15803E-09, -7.18674E-09, -8.2267700000000007E-10, 8.15803E-09, 9.032181353360881E-05, 2.06680123004296E-09, 8.2267700000000007E-10
DataValue, -0.85000000000000009, 3, 0, 8.53692E-09, -7.5765E-09, -8.385300000000001E-10, 8.53692E-09, 9.2395454433646243E-05, 1.1857177300036985E-09, 8.385300000000001E-10
DataValue, -0.8, 3, 0, 8.79192E-09, -7.9984E-09, -7.3469100000000008E-10, 8.79192E-09, 9.3765238761494118E-05, 1.5956721671085425E-09, 7.3469100000000008E-10
DataValue, -0.75, 3, 0, 9.29104E-09, -8.47358E-09, -7.314380000000001E-10, 9.29104E-09, 9.6390040979345992E-05, 2.69445301472124E-09, 7.314380000000001E-10
DataValue, -0.70000000000000007, 3, 0, 9.792299999999999E-09, -8.95326E-09, -7.0211000000000007E-10, 9.792299999999999E-09, 9.8956050850870152E-05, 6.4423623760971012E-09, 7.0211000000000007E-10
DataValue, -0.65, 3, 0, 1.09028E-08, -9.9773999999999991E-09, -7.21568E-10, 1.09028E-08, 0.00010441647379604427, 2.1816398584706188E-08, 7.21568E-10
DataValue, -0.6, 3, 0, 1.2933699999999999E-08, -1.2086799999999998E-08, -6.6457900000000009E-10, 1.2933699999999999E-08, 0.00011372642612867072, 4.9877538016596773E-08, 6.6457900000000009E-10
DataValue, -0.55, 3, 0, 1.60655E-08, -1.53486E-08, -6.0662700000000008E-10, 1.60655E-08, 0.00012674975345143674, 9.4355464206989867E-08, 6.0662700000000008E-10
DataValue, -0.5, 3, 0, 2.0863999999999997E-08, -2.0022999999999997E-08, -6.29872E-10, 2.0863999999999997E-08, 0.00014444376068214229, 1.5007270880201095E-07, 6.29872E-10
DataValue, -0.45, 3, 0, 2.7386599999999997E-08, -2.6453199999999996E-08, -5.8055500000000007E-10, 2.7386599999999997E-08, 0.00016548897244227483, 1.8194840775149E-07, 5.8055500000000007E-10
DataValue, -0.4, 3, 0, 3.5006099999999995E-08, -3.3941299999999996E-08, -5.09172E-10, 3.5006099999999995E-08, 0.00018709917156417341, 1.7154917113749116E-07, 5.09172E-10
DataValue, -0.35000000000000003, 3, 0, 4.2810699999999996E-08, -4.17497E-08, -4.90378E-10, 4.2810699999999996E-08, 0.00020690746724079341, 1.4709387168518897E-07, 4.90378E-10
DataValue, -0.3, 3, 0, 5.0828599999999996E-08, -4.9609199999999995E-08, -5.11149E-10, 5.0828599999999996E-08, 0.00022545199045473073, 1.3571662864326027E-07, 5.11149E-10
DataValue, -0.25, 3, 0, 5.9412699999999994E-08, -5.8022699999999993E-08, -4.93794E-10, 5.9412699999999994E-08, 0.00024374720511218174, 1.3177587161818729E-07, 4.93794E-10
DataValue, -0.2, 3, 0, 6.8514599999999993E-08, -6.6832999999999987E-08, -4.67901E-10, 6.8514599999999993E-08, 0.00026175293694627379, 1.34938591503221E-07, 4.67901E-10
DataValue, -0.15, 3, 0, 7.8669699999999986E-08, -7.684729999999999E-08, -4.4966100000000004E-10, 7.8669699999999986E-08, 0.00028048119366545771, 9.8127944667415507E-08, 4.4966100000000004E-10
DataValue, -0.1, 3, 0, 8.58949E-08, -8.3287599999999989E-08, -4.6329300000000004E-10, 8.58949E-08, 0.00029307831717819045, 9.2340556172332556E-08, 4.6329300000000004E-10
DataValue, -0.05, 3, 0, 9.6639399999999991E-08, -9.388609999999999E-08, -4.3406100000000006E-10, 9.6639399999999991E-08, 0.00031086878260771052, 1.4535573747338019E-07, 4.3406100000000006E-10
DataValue, 0, 3, 0, 1.0969599999999999E-07, -1.07173E-07, -3.9327700000000004E-10, 1.0969599999999999E-07, 0.00033120386471175122, 2.6129890912842073E-07, 3.9327700000000004E-10
DataValue, 0.05, 3, 0, 1.31034E-07, -1.28776E-07, -3.6447600000000003E-10, 1.31034E-07, 0.00036198618758179158, 3.5289106523254514E-07, 3.6447600000000003E-10
DataValue, 0.1, 3, 0, 1.52575E-07, -1.49724E-07, -3.6265700000000004E-10, 1.52575E-07, 0.00039060849965150531, 3.06753694374666E-07, 3.6265700000000004E-10
DataValue, 0.15, 3, 0, 1.7419899999999998E-07, -1.71005E-07, -3.4421600000000004E-10, 1.7419899999999998E-07, 0.0004173715371225019, 2.9049909807175118E-07, 3.4421600000000004E-10
DataValue, 0.2, 3, 0, 1.97586E-07, -1.93943E-07, -3.22058E-10, 1.97586E-07, 0.00044450646789445035, 2.7637113613497917E-07, 3.22058E-10
DataValue, 0.25, 3, 0, 2.20846E-07, -2.17131E-07, -3.0041400000000003E-10, 2.20846E-07, 0.00046994254968027742, 2.5712634582800388E-07, 3.0041400000000003E-10
DataValue, 0.3, 3, 0, 2.45237E-07, -2.40617E-07, -2.8229200000000003E-10, 2.45237E-07, 0.00049521409511442622, 2.4334507190790659E-07, 2.8229200000000003E-10
DataValue, 0.35000000000000003, 3, 0, 2.69644E-07, -2.6529799999999997E-07, -2.65933E-10, 2.69644E-07, 0.000519272568118132, 2.2915074274637023E-07, 2.65933E-10
DataValue, 0.4, 3, 0, 2.9494E-07, -2.89848E-07, -2.47981E-10, 2.9494E-07, 0.00054308378727411849, 2.4098273366678126E-07, 2.47981E-10
DataValue, 0.45, 3, 0, 3.23036E-07, -3.17E-07, -2.29645E-10, 3.23036E-07, 0.00056836256034330766, 2.4898608895346121E-07, 2.29645E-10
DataValue, 0.5, 3, 0, 3.51628E-07, -3.45782E-07, -2.12107E-10, 3.51628E-07, 0.00059298229315891038, 2.5382782629769226E-07, 2.12107E-10
DataValue, 0.55, 3, 0, 3.82844E-07, -3.76209E-07, -1.93711E-10, 3.82844E-07, 0.00061874388885871032, 2.8232824585002477E-07, 1.93711E-10
DataValue, 0.6, 3, 0, 4.17467E-07, -4.10596E-07, -1.80613E-10, 4.17467E-07, 0.00064611686249470388, 3.1210511845654523E-07, 1.80613E-10
DataValue, 0.65, 3, 0, 4.5509899999999996E-07, -4.4733199999999997E-07, -1.76605E-10, 4.5509899999999996E-07, 0.00067461025785263591, 3.516746407865302E-07, 1.76605E-10
DataValue, 0.70000000000000007, 3, 0, 4.97616E-07, -4.88788E-07, -1.64893E-10, 4.97616E-07, 0.00070541902441031458, 3.908579325491743E-07, 1.64893E-10
DataValue, 0.75, 3, 0, 5.43359E-07, -5.34737E-07, -1.51451E-10, 5.43359E-07, 0.00073712888967941009, 4.2958471805804153E-07, 1.51451E-10
DataValue, 0.8, 3, 0, 5.94382E-07, -5.85329E-07, -1.3933E-10, 5.94382E-07, 0.00077096173705314326, 4.8228284820576215E-07, 1.3933E-10
DataValue, 0.85000000000000009, 3, 0, 6.50564E-07, -6.4015099999999995E-07, -1.27383E-10, 6.50564E-07, 0.00080657547693938731, 5.4023696472446524E-07, 1.27383E-10
DataValue, 0.9, 3, 0, 7.1311699999999994E-07, -7.0065099999999994E-07, -1.15125E-10, 7.1311699999999994E-07, 0.000844462550975471, 5.8678268727933677E-07, 1.15125E-10
DataValue, 0.95000000000000007, 3, 0, 7.80002E-07, -7.6729E-07, -1.0701000000000001E-10, 7.80002E-07, 0.000883177218909093, 6.6026397411302408E-07, 1.0701000000000001E-10
DataValue, 1, 3, 0, 8.56956E-07, -8.4212E-07, -9.9456E-11, 8.56956E-07, 0.00092571917988124237, 4.5513396969320612E-07, 9.9456E-11
DataValue, 1.05, 3, 0, 9.03718E-07, -8.94355E-07, -9.1259000000000008E-11, 9.03718E-07, 0.00095064083648873407, 3.6848100883360391E-07, 9.1259000000000008E-11
DataValue, 1.1, 3, 0, 9.73028E-07, -9.56964E-07, -8.2950000000000008E-11, 9.73028E-07, 0.000986421816465958, 1.4135253380299762E-06, 8.2950000000000008E-11
DataValue, 1.1500000000000001, 3, 0, 1.1439000000000002E-06, -1.08939E-06, -5.8832000000000009E-11, 1.1439000000000002E-06, 0.0010695326081985534, 1.3907171532853533E-06, 5.8832000000000009E-11
DataValue, 1.2, 3, 0, 1.21959E-06, -1.1983800000000001E-06, -5.2632E-11, 1.21959E-06, 0.0011043504878434202, 8.0205551612523044E-07, 5.2632E-11
DataValue, 1.25, 3, 0, 1.34349E-06, -1.3217700000000002E-06, -4.5360000000000005E-11, 1.34349E-06, 0.0011590901604275658, 1.2231933251052246E-06, 4.5360000000000005E-11
DataValue, 1.3, 3, 0, 1.4761000000000002E-06, -1.4533100000000002E-06, -3.9857000000000005E-11, 1.4761000000000002E-06, 0.0012149485585818028, 1.3359278829971695E-06, 3.9857000000000005E-11
DataValue, 1.35, 3, 0, 1.6247900000000002E-06, -1.6006400000000002E-06, -3.4529E-11, 1.6247900000000002E-06, 0.0012746725069601212, 1.4710947729062919E-06, 3.4529E-11
DataValue, 1.4000000000000001, 3, 0, 1.78553E-06, -1.75799E-06, -2.9475E-11, 1.78553E-06, 0.001336237254382619, 1.5624720762598674E-06, 2.9475E-11
DataValue, 1.4500000000000002, 3, 0, 1.9590800000000003E-06, -1.9284400000000003E-06, -2.4459000000000003E-11, 1.9590800000000003E-06, 0.0013996713900055256, 1.6544265560550287E-06, 2.4459000000000003E-11
DataValue, 1.5, 3, 0, 2.1458200000000004E-06, -2.11299E-06, -1.9528E-11, 2.1458200000000004E-06, 0.0014648617682225175, 1.8175217669782851E-06, 1.9528E-11
DataValue, 1.55, 3, 0, 2.3546500000000004E-06, -2.3196500000000003E-06, -1.5402E-11, 2.3546500000000004E-06, 0.0015344868849227747, 1.9395374987646964E-06, 1.5402E-11
DataValue, 1.6, 3, 0, 2.57323E-06, -2.53515E-06, -1.24E-11, 2.57323E-06, 0.0016041290471779384, 2.017854764123303E-06, 1.24E-11
DataValue, 1.6500000000000001, 3, 0, 2.81078E-06, -2.7709900000000004E-06, -9.401E-12, 2.81078E-06, 0.0016765380997758447, 2.1471283675058521E-06, 9.401E-12
DataValue, 1.7000000000000002, 3, 0, 3.06481E-06, -3.0216900000000004E-06, -7.348E-12, 3.06481E-06, 0.0017506598755897731, 2.2689952143426333E-06, 7.348E-12
DataValue, 1.75, 3, 0, 3.3385500000000004E-06, -3.2931700000000005E-06, -4.7810000000000007E-12, 3.3385500000000004E-06, 0.0018271699428350939, 2.3891002314636915E-06, 4.7810000000000007E-12
DataValue, 1.8, 3, 0, 3.6298900000000003E-06, -3.5812700000000004E-06, -2.549E-12, 3.6298900000000003E-06, 0.0019052270205936091, 2.5196924759200642E-06, 2.549E-12
DataValue, 1.85, 3, 0, 3.9438200000000008E-06, -3.8911700000000006E-06, -1.26E-12, 3.9438200000000008E-06, 0.0019859053351053771, 2.6400353659333879E-06, 1.26E-12
DataValue, 1.9000000000000001, 3, 0, 4.27542E-06, -4.22206E-06, 1.9000000000000002E-13, 4.27542E-06, 0.0020677088769940513, 2.8072233766722821E-06, 1.9000000000000002E-13
DataValue, 1.9500000000000002, 3, 0, 4.6373600000000004E-06, -4.57972E-06, 8.1400000000000007E-13, 4.6373600000000004E-06, 0.0021534530410482603, 2.9463095496744427E-06, 8.1400000000000007E-13
DataValue, 2, 3, 0, 5.01472E-06, -4.957E-06, 1.4050000000000002E-12, 5.01472E-06, 0.0022393570505839394, 3.0563883012575288E-06, 1.4050000000000002E-12
DataValue, 2.05, 3, 0, 5.42088E-06, -5.3586500000000008E-06, 2.218E-12, 5.42088E-06, 0.0023282783338767726, 3.1519617629512934E-06, 2.218E-12
DataValue, 2.1, 3, 0, 5.8413800000000008E-06, -5.7769600000000005E-06, 2.598E-12, 5.8413800000000008E-06, 0.002416894701885045, 3.2314640667289491E-06, 2.598E-12
DataValue, 2.15, 3, 0, 6.290270000000001E-06, -6.2236700000000007E-06, 2.917E-12, 6.290270000000001E-06, 0.0025080410682442981, 3.343324227896424E-06, 2.917E-12
DataValue, 2.2, 3, 0, 6.7586600000000008E-06, -6.6859700000000005E-06, 3.393E-12, 6.7586600000000008E-06, 0.0025997422949207869, 3.4530627549014847E-06, 3.393E-12
DataValue, 2.25, 3, 0, 7.2569100000000006E-06, -7.180150000000001E-06, 4.141E-12, 7.2569100000000006E-06, 0.0026938652527548589, 3.5194630312702359E-06, 4.141E-12
DataValue, 2.3000000000000003, 3, 0, 7.7692900000000013E-06, -7.69111E-06, 4.656E-12, 7.7692900000000013E-06, 0.0027873446145032016, 3.5812703196120693E-06, 4.656E-12
DataValue, 2.35, 3, 0, 8.31231E-06, -8.23254E-06, 4.644E-12, 8.31231E-06, 0.0028831076983005682, 3.7168480897638196E-06, 4.644E-12
DataValue, 2.4, 3, 0, 8.8812100000000013E-06, -8.79603E-06, 5.2310000000000006E-12, 8.8812100000000013E-06, 0.0029801359029413411, 3.7649128118212541E-06, 5.2310000000000006E-12
