
SetupTitle, Transfer stab
PrimitiveTest, I/V Sweep
TestParameter, Context.MainFrame, 4155C
TestParameter, Channel.UnitType, SMU, SMU, SMU
TestParameter, Channel.Unit, SMU3:MP, SMU4:MP, SMU1:MP
TestParameter, Channel.IName, ID, IS, IG
TestParameter, Channel.VName, VD, VS, VG
TestParameter, Channel.Mode, V, COMMON, V
TestParameter, Channel.Func, CONST, CONST, VAR1
TestParameter, Channel.Index, 
TestParameter, Channel.Time, 
TestParameter, Measurement.Port.Unit, SMU3:MP, SMU4:MP, SMU1:MP
TestParameter, Measurement.Port.SeriesResistor, NONE, NONE, NONE
TestParameter, Measurement.Port.Filter, ON, ON, ON
TestParameter, Measurement.Primary.Locus, Single
TestParameter, Measurement.Primary.Scale, LINEAR
TestParameter, Measurement.Primary.Start, -2
TestParameter, Measurement.Primary.Stop, 3
TestParameter, Measurement.Primary.Step, 0.05
TestParameter, Measurement.Primary.Compliance, 0.1
TestParameter, Measurement.Primary.PowerCompliance, 0
TestParameter, Measurement.Aborting.Condition, CONTINUE AT ANY
TestParameter, Measurement.PostOutput.Value, START
TestParameter, Measurement.PostOutput.Retention, OFF
TestParameter, Measurement.Bias.Source, 3, 0, -2
TestParameter, Measurement.Bias.Compliance, 0.1, 0.1, 0.1
TestParameter, Measurement.Monitor.Unit, SMU3:MP, SMU4:MP, SMU1:MP
TestParameter, Measurement.Monitor.Adc, HR ADC, HR ADC, HR ADC
TestParameter, Measurement.Monitor.RangingMode, AUTO, AUTO, AUTO
TestParameter, Measurement.Monitor.RangeBoundary, , , 
TestParameter, Measurement.Monitor.RangeRating, BY FULL RANGE, BY FULL RANGE, BY FULL RANGE
TestParameter, Measurement.Monitor.RangeRatingCoeff, 50, 50, 50
TestParameter, Measurement.Timing.Hold, 0.5
TestParameter, Measurement.Timing.Delay, 0.05
TestParameter, Measurement.Adc.HighResolution.AutoZero, OFF
TestParameter, Measurement.Adc.HighResolution.Mode, AUTO
TestParameter, Measurement.Adc.HighResolution.Coeff, 1
TestParameter, Measurement.Ag16440ASelector.SemiconductorRelay.Channel1, DEFAULT
TestParameter, Measurement.Ag16440ASelector.SemiconductorRelay.Channel3, DEFAULT
TestParameter, Function.User.Name, absID, sqrtID, gm2, absIG
TestParameter, Function.User.Unit, A, A, A/V, A
TestParameter, Function.User.Definition, abs(ID), sqrt(abs(ID)), (delta(sqrtID)/delta(VG))^2, abs(IG)
TestParameter, Output.Graph.Enabled, true
TestParameter, Output.Graph.XAxis.Data, VG
TestParameter, Output.Graph.XAxis.Scale, Linear
TestParameter, Output.Graph.XAxis.Left, -5
TestParameter, Output.Graph.XAxis.Right, 7
TestParameter, Output.Graph.YAxis.Data, ID, absIG, gm2
TestParameter, Output.Graph.YAxis.Scale, Log, Log, Linear
TestParameter, Output.Graph.YAxis.Bottom, 1E-14, 1E-14, 0
TestParameter, Output.Graph.YAxis.Top, 0.01, 0.01, 1E-05
TestParameter, Output.Graph.YAxis.Group, , , 
TestParameter, Output.List.Data, VG, IG, VD, ID, VS, IS, sqrtID, gm2, absIG
TestParameter, AutoAnalysis.Interpolation, false
TestParameter, AutoAnalysis.Line1.Enabled, false
TestParameter, AutoAnalysis.Line1.Type, 1
TestParameter, AutoAnalysis.Line1.Fix, True
TestParameter, AutoAnalysis.Line1.YAxis, 0
TestParameter, AutoAnalysis.Line1.Point1.Type, 0
TestParameter, AutoAnalysis.Line1.Point1.XY.X, 
TestParameter, AutoAnalysis.Line1.Point1.XY.Y, 
TestParameter, AutoAnalysis.Line1.Point1.Data.Var, 
TestParameter, AutoAnalysis.Line1.Point1.Data.Condition, 
TestParameter, AutoAnalysis.Line1.Point1.Data.Start, false
TestParameter, AutoAnalysis.Line1.Point1.Data.StartVar, 
TestParameter, AutoAnalysis.Line1.Point1.Data.StartCondition, 
TestParameter, AutoAnalysis.Line1.Point2.Type, 0
TestParameter, AutoAnalysis.Line1.Point2.XY.X, 
TestParameter, AutoAnalysis.Line1.Point2.XY.Y, 
TestParameter, AutoAnalysis.Line1.Point2.Data.Var, 
TestParameter, AutoAnalysis.Line1.Point2.Data.Condition, 
TestParameter, AutoAnalysis.Line1.Point2.Data.Start, false
TestParameter, AutoAnalysis.Line1.Point2.Data.StartVar, 
TestParameter, AutoAnalysis.Line1.Point2.Data.StartCondition, 
TestParameter, AutoAnalysis.Line1.GradientExpr, 0
TestParameter, AutoAnalysis.Line2.Enabled, false
TestParameter, AutoAnalysis.Line2.Type, 1
TestParameter, AutoAnalysis.Line2.Fix, True
TestParameter, AutoAnalysis.Line2.YAxis, 0
TestParameter, AutoAnalysis.Line2.Point1.Type, 0
TestParameter, AutoAnalysis.Line2.Point1.XY.X, 
TestParameter, AutoAnalysis.Line2.Point1.XY.Y, 
TestParameter, AutoAnalysis.Line2.Point1.Data.Var, 
TestParameter, AutoAnalysis.Line2.Point1.Data.Condition, 
TestParameter, AutoAnalysis.Line2.Point1.Data.Start, false
TestParameter, AutoAnalysis.Line2.Point1.Data.StartVar, 
TestParameter, AutoAnalysis.Line2.Point1.Data.StartCondition, 
TestParameter, AutoAnalysis.Line2.Point2.Type, 0
TestParameter, AutoAnalysis.Line2.Point2.XY.X, 
TestParameter, AutoAnalysis.Line2.Point2.XY.Y, 
TestParameter, AutoAnalysis.Line2.Point2.Data.Var, 
TestParameter, AutoAnalysis.Line2.Point2.Data.Condition, 
TestParameter, AutoAnalysis.Line2.Point2.Data.Start, false
TestParameter, AutoAnalysis.Line2.Point2.Data.StartVar, 
TestParameter, AutoAnalysis.Line2.Point2.Data.StartCondition, 
TestParameter, AutoAnalysis.Line2.GradientExpr, 0
TestParameter, AutoAnalysis.Marker.Enabled, false
TestParameter, AutoAnalysis.Marker.Data.Var, 
TestParameter, AutoAnalysis.Marker.Data.Condition, 
TestParameter, AutoAnalysis.Marker.Data.Start, false
TestParameter, AutoAnalysis.Marker.Data.StartVar, 
TestParameter, AutoAnalysis.Marker.Data.StartCondition, 
MetaData, TestRecord.EntryPoint, true
MetaData, TestRecord.RecordTime, 07/03/2019 10:25:13
MetaData, TestRecord.TestTarget, 5-44
MetaData, TestRecord.IterationIndex, 2
MetaData, TestRecord.Preservation, true
MetaData, TestRecord.Flag, 
MetaData, TestRecord.Remarks, leak
MetaData, TestRecord.LinkKey, 43936306-9765-4666-9887-520ef739567d
Dimension1, 101, 101, 101, 101, 101, 101, 101, 101, 101, 101
Dimension2, 1, 1, 1, 1, 1, 1, 1, 1, 1, 1
DataName, VG, VD, VS, ID, IS, IG, absID, sqrtID, gm2, absIG
DataValue, -2, 3, 0, 2.3551E-09, 1.7960000000000002E-12, -1.65224E-09, 2.3551E-09, 4.8529372549003761E-05, 3.47606403568902E-08, 1.65224E-09
DataValue, -1.9500000000000002, 3, 0, 1.53721E-09, -4.7370000000000005E-12, -1.46856E-09, 1.53721E-09, 3.9207269734068447E-05, 1.1043596560859215E-08, 1.46856E-09
DataValue, -1.9000000000000001, 3, 0, 1.44556E-09, -6.9240000000000008E-12, -1.4208E-09, 1.44556E-09, 3.8020520774970983E-05, 6.1053567472866905E-10, 1.4208E-09
DataValue, -1.85, 3, 0, 1.73707E-09, -1.1541E-11, -1.44533E-09, 1.73707E-09, 4.1678171744931424E-05, 2.1378648800205E-09, 1.44533E-09
DataValue, -1.8, 3, 0, 1.81853E-09, -1.3684E-11, -1.36895E-09, 1.81853E-09, 4.2644225869395263E-05, 1.4735173552276105E-09, 1.36895E-09
DataValue, -1.75, 3, 0, 1.43183E-09, -1.8145000000000002E-11, -1.37496E-09, 1.43183E-09, 3.7839529595384773E-05, 1.0886625872414126E-14, 1.37496E-09
DataValue, -1.7000000000000002, 3, 0, 1.81942E-09, -1.9312E-11, -1.17676E-09, 1.81942E-09, 4.2654659768892773E-05, 1.4335227778057335E-09, 1.17676E-09
DataValue, -1.6500000000000001, 3, 0, 1.15963E-09, -3.0397E-11, -1.15539E-09, 1.15963E-09, 3.4053340511615013E-05, 7.32876165207184E-09, 1.15539E-09
DataValue, -1.6, 3, 0, 1.16239E-09, -4.9585E-11, -1.48512E-09, 1.16239E-09, 3.4093841086037813E-05, 7.13924023249211E-11, 1.48512E-09
DataValue, -1.55, 3, 0, 1.21789E-09, -7.0932000000000012E-11, -1.21536E-09, 1.21789E-09, 3.4898280759945752E-05, 2.4740232854880979E-12, 1.21536E-09
DataValue, -1.5, 3, 0, 1.17314E-09, -8.9176E-11, -1.1110290000000001E-09, 1.17314E-09, 3.4251131368175271E-05, 5.3605771970857722E-10, 1.1110290000000001E-09
DataValue, -1.4500000000000002, 3, 0, 1.38485E-09, -9.4727E-11, -1.1287860000000002E-09, 1.38485E-09, 3.7213572792732493E-05, 2.85959290547286E-10, 1.1287860000000002E-09
DataValue, -1.4000000000000001, 3, 0, 1.06016E-09, -1.3391700000000001E-10, -8.17656E-10, 1.06016E-09, 3.2560098279949954E-05, 2.898266996630012E-09, 8.17656E-10
DataValue, -1.35, 3, 0, 1.01315E-09, -2.10462E-10, -8.25323E-10, 1.01315E-09, 3.1830017279291569E-05, 2.2135760511607195E-10, 8.25323E-10
DataValue, -1.3, 3, 0, 1.15926E-09, -3.46847E-10, -7.4592700000000011E-10, 1.15926E-09, 3.4047907424686174E-05, 1.6955639132290932E-09, 7.4592700000000011E-10
DataValue, -1.25, 3, 0, 1.29224E-09, -5.45618E-10, -7.3712200000000005E-10, 1.29224E-09, 3.59477398455035E-05, 3.754116810771527E-09, 7.3712200000000005E-10
DataValue, -1.2, 3, 0, 1.61403E-09, -8.32748E-10, -7.6483500000000008E-10, 1.61403E-09, 4.0174992221530048E-05, 4.7549014622394981E-09, 7.6483500000000008E-10
DataValue, -1.1500000000000001, 3, 0, 1.83555E-09, -1.11468E-09, -6.65702E-10, 1.83555E-09, 4.2843319199147023E-05, 5.2707831558574752E-09, 6.65702E-10
DataValue, -1.1, 3, 0, 2.25008E-09, -1.52893E-09, -6.59377E-10, 2.25008E-09, 4.7435008169072768E-05, 7.125354314725019E-09, 6.59377E-10
DataValue, -1.05, 3, 0, 2.6301E-09, -1.98106E-09, -5.9120000000000009E-10, 2.6301E-09, 5.1284500582534678E-05, 7.6641141201089972E-09, 5.9120000000000009E-10
DataValue, -1, 3, 0, 3.15726E-09, -2.52766E-09, -5.62168E-10, 3.15726E-09, 5.6189500798636752E-05, 1.1689318303934859E-08, 5.62168E-10
DataValue, -0.95000000000000007, 3, 0, 3.85594E-09, -3.24452E-09, -5.4926600000000008E-10, 3.85594E-09, 6.2096215665690936E-05, 1.5125197931972122E-08, 5.4926600000000008E-10
DataValue, -0.9, 3, 0, 4.6906E-09, -4.06225E-09, -5.38967E-10, 4.6906E-09, 6.8487955145412249E-05, 1.8242185919158023E-08, 5.38967E-10
DataValue, -0.85000000000000009, 3, 0, 5.71575E-09, -5.10337E-09, -5.17064E-10, 5.71575E-09, 7.5602579321078724E-05, 2.2841005407659382E-08, 5.17064E-10
DataValue, -0.8, 3, 0, 6.98916E-09, -6.36447E-09, -4.9778600000000006E-10, 6.98916E-09, 8.3601196163691344E-05, 2.9792458125985361E-08, 4.9778600000000006E-10
DataValue, -0.75, 3, 0, 8.62355E-09, -7.96937E-09, -4.78966E-10, 8.62355E-09, 9.2863071239325266E-05, 2.739087641642565E-08, 4.78966E-10
DataValue, -0.70000000000000007, 3, 0, 1.0030299999999999E-08, -9.25585E-09, -4.4745700000000005E-10, 1.0030299999999999E-08, 0.00010015138541228474, 4.1308058074996013E-08, 4.4745700000000005E-10
DataValue, -0.65, 3, 0, 1.2811399999999998E-08, -1.1808699999999999E-08, -4.27324E-10, 1.2811399999999998E-08, 0.00011318745513527547, 6.521647360013072E-08, 4.27324E-10
DataValue, -0.6, 3, 0, 1.5797699999999997E-08, -1.5102899999999998E-08, -4.0555200000000003E-10, 1.5797699999999997E-08, 0.00012568890165802227, 6.719052677461569E-08, 4.0555200000000003E-10
DataValue, -0.55, 3, 0, 1.9351199999999997E-08, -1.8591499999999998E-08, -3.9002900000000004E-10, 1.9351199999999997E-08, 0.00013910859067649273, 6.8519187764490364E-08, 3.9002900000000004E-10
DataValue, -0.5, 3, 0, 2.3062999999999996E-08, -2.2277299999999998E-08, -3.7073200000000004E-10, 2.3062999999999996E-08, 0.00015186507169194632, 6.7389964115249339E-08, 3.7073200000000004E-10
DataValue, -0.45, 3, 0, 2.7247499999999996E-08, -2.6380499999999996E-08, -3.55535E-10, 2.7247499999999996E-08, 0.00016506816773684743, 7.0769686012627677E-08, 3.55535E-10
DataValue, -0.4, 3, 0, 3.1850699999999995E-08, -3.0876299999999994E-08, -3.43182E-10, 3.1850699999999995E-08, 0.00017846764412632335, 7.4679325564295934E-08, 3.43182E-10
DataValue, -0.35000000000000003, 3, 0, 3.70161E-08, -3.5998199999999993E-08, -3.23904E-10, 3.70161E-08, 0.00019239568602232222, 8.04923968994017E-08, 3.23904E-10
DataValue, -0.3, 3, 0, 4.2782299999999995E-08, -4.15922E-08, -3.0871E-10, 4.2782299999999995E-08, 0.00020683882614248224, 9.2276626918221718E-08, 3.0871E-10
DataValue, -0.25, 3, 0, 4.9627699999999996E-08, -4.8403099999999992E-08, -3.02757E-10, 4.9627699999999996E-08, 0.00022277275416890638, 1.1056948395191848E-07, 3.02757E-10
DataValue, -0.2, 3, 0, 5.7643599999999995E-08, -5.6261599999999996E-08, -2.94964E-10, 5.7643599999999995E-08, 0.00024009081615088902, 1.3584513319096907E-07, 2.94964E-10
DataValue, -0.15, 3, 0, 6.7407699999999988E-08, -6.58962E-08, -2.9004300000000004E-10, 6.7407699999999988E-08, 0.00025962992893732413, 1.6772609090130405E-07, 2.9004300000000004E-10
DataValue, -0.1, 3, 0, 7.89864E-08, -7.7419599999999993E-08, -2.82122E-10, 7.89864E-08, 0.00028104519209550623, 1.3148427403111438E-07, 2.82122E-10
DataValue, -0.05, 3, 0, 8.7551299999999991E-08, -8.49584E-08, -2.6678100000000004E-10, 8.7551299999999991E-08, 0.00029589068927561742, 1.2177488347233084E-07, 2.6678100000000004E-10
DataValue, 0, 3, 0, 9.9819E-08, -9.70247E-08, -2.53236E-10, 9.9819E-08, 0.00031594145027204012, 2.3601495644453619E-07, 2.53236E-10
DataValue, 0.05, 3, 0, 1.1866099999999999E-07, -1.1395599999999999E-07, -2.41254E-10, 1.1866099999999999E-07, 0.00034447205982488622, 2.735039229172479E-07, 2.41254E-10
DataValue, 0.1, 3, 0, 1.356E-07, -1.33081E-07, -2.2501100000000002E-10, 1.356E-07, 0.00036823905279043936, 2.1669916348978458E-07, 2.2501100000000002E-10
DataValue, 0.15, 3, 0, 1.52899E-07, -1.5005E-07, -2.1739100000000002E-10, 1.52899E-07, 0.00039102301722532907, 1.819872320906726E-07, 2.1739100000000002E-10
DataValue, 0.2, 3, 0, 1.68838E-07, -1.6567899999999998E-07, -2.0518100000000002E-10, 1.68838E-07, 0.0004108990143575426, 1.5262829084498583E-07, 2.0518100000000002E-10
DataValue, 0.25, 3, 0, 1.84978E-07, -1.8148399999999999E-07, -1.9447000000000003E-10, 1.84978E-07, 0.00043009068811124008, 1.4652913360525942E-07, 1.9447000000000003E-10
DataValue, 0.3, 3, 0, 2.01761E-07, -1.97879E-07, -1.79254E-10, 2.01761E-07, 0.00044917813838164474, 1.4406820818184969E-07, 1.79254E-10
DataValue, 0.35000000000000003, 3, 0, 2.1906799999999999E-07, -2.15328E-07, -1.68294E-10, 2.1906799999999999E-07, 0.00046804700618634449, 1.5351789987623599E-07, 1.68294E-10
DataValue, 0.4, 3, 0, 2.38495E-07, -2.34512E-07, -1.56705E-10, 2.38495E-07, 0.00048835949873018752, 1.7453572848769779E-07, 1.56705E-10
DataValue, 0.45, 3, 0, 2.59921E-07, -2.55328E-07, -1.4221600000000002E-10, 2.59921E-07, 0.00050982447960057787, 1.9193675212590145E-07, 1.4221600000000002E-10
DataValue, 0.5, 3, 0, 2.83205E-07, -2.77957E-07, -1.3315E-10, 2.83205E-07, 0.00053217008559294267, 2.1294388583358364E-07, 1.3315E-10
DataValue, 0.55, 3, 0, 3.09103E-07, -3.03684E-07, -1.20131E-10, 3.09103E-07, 0.00055597032294898616, 2.4302813954879709E-07, 1.20131E-10
DataValue, 0.6, 3, 0, 3.3810499999999997E-07, -3.31727E-07, -1.1022000000000001E-10, 3.3810499999999997E-07, 0.00058146796988312261, 2.6275314544067071E-07, 1.1022000000000001E-10
DataValue, 0.65, 3, 0, 3.68728E-07, -3.6277799999999997E-07, -1.0303100000000001E-10, 3.68728E-07, 0.00060722977529103432, 2.9576427538711713E-07, 1.0303100000000001E-10
DataValue, 0.70000000000000007, 3, 0, 4.04308E-07, -3.97693E-07, -9.4993000000000013E-11, 4.04308E-07, 0.00063585218408054552, 3.2697805090390073E-07, 9.4993000000000013E-11
DataValue, 0.75, 3, 0, 4.41443E-07, -4.3418899999999997E-07, -9.0489000000000007E-11, 4.41443E-07, 0.00066441176991380876, 3.560328006260963E-07, 9.0489000000000007E-11
DataValue, 0.8, 3, 0, 4.83749E-07, -4.75763E-07, -8.3395000000000013E-11, 4.83749E-07, 0.00069552066827665161, 4.1695133511426814E-07, 8.3395000000000013E-11
DataValue, 0.85000000000000009, 3, 0, 5.3141699999999995E-07, -5.22145E-07, -7.533E-11, 5.3141699999999995E-07, 0.00072898353890880137, 4.7283928516054265E-07, 7.533E-11
DataValue, 0.9, 3, 0, 5.8413E-07, -5.74256E-07, -6.7286E-11, 5.8413E-07, 0.00076428397863621345, 5.36157751014394E-07, 6.7286E-11
DataValue, 0.95000000000000007, 3, 0, 6.43535E-07, -6.33019E-07, -6.1366000000000008E-11, 6.43535E-07, 0.00080220633256039553, 5.983780367247106E-07, 6.1366000000000008E-11
DataValue, 1, 3, 0, 7.08356E-07, -6.96861E-07, -5.4861000000000007E-11, 7.08356E-07, 0.00084163887742903136, 6.7682242732006226E-07, 5.4861000000000007E-11
DataValue, 1.05, 3, 0, 7.82297E-07, -7.6897E-07, -4.9382000000000006E-11, 7.82297E-07, 0.00088447555082093706, 7.6407135225594018E-07, 4.9382000000000006E-11
DataValue, 1.1, 3, 0, 8.63134E-07, -8.48685E-07, -4.3412000000000006E-11, 8.63134E-07, 0.00092905005247295475, 5.44497442695985E-07, 4.3412000000000006E-11
DataValue, 1.1500000000000001, 3, 0, 9.18273E-07, -9.09931E-07, -3.9158000000000006E-11, 9.18273E-07, 0.00095826562079623834, 5.0630235679031975E-07, 3.9158000000000006E-11
DataValue, 1.2, 3, 0, 1.00041E-06, -9.81772E-07, -3.8369000000000003E-11, 1.00041E-06, 0.0010002049789918064, 1.0967418243012906E-06, 3.8369000000000003E-11
DataValue, 1.25, 3, 0, 1.12995E-06, -1.0981400000000002E-06, -3.2246E-11, 1.12995E-06, 0.0010629910629915945, 1.4466571194099445E-06, 3.2246E-11
DataValue, 1.3, 3, 0, 1.2554800000000002E-06, -1.2350300000000002E-06, -2.8645000000000002E-11, 1.2554800000000002E-06, 0.0011204820391242335, 1.3881076809319622E-06, 2.8645000000000002E-11
DataValue, 1.35, 3, 0, 1.3943100000000002E-06, -1.3725700000000002E-06, -2.3677000000000003E-11, 1.3943100000000002E-06, 0.0011808090446808071, 1.4596425856989303E-06, 2.3677000000000003E-11
DataValue, 1.4000000000000001, 3, 0, 1.54082E-06, -1.51621E-06, -1.917E-11, 1.54082E-06, 0.0012412977080458983, 1.5289000285818E-06, 1.917E-11
DataValue, 1.4500000000000002, 3, 0, 1.7016100000000002E-06, -1.6737900000000001E-06, -1.6088000000000002E-11, 1.7016100000000002E-06, 0.0013044577417455883, 1.6245337990167132E-06, 1.6088000000000002E-11
DataValue, 1.5, 3, 0, 1.8734900000000003E-06, -1.8445400000000001E-06, -1.2906000000000002E-11, 1.8734900000000003E-06, 0.0013687549086669974, 1.7330306578921335E-06, 1.2906000000000002E-11
DataValue, 1.55, 3, 0, 2.06239E-06, -2.03118E-06, -1.0782000000000002E-11, 2.06239E-06, 0.0014361023640395555, 1.8555935854505101E-06, 1.0782000000000002E-11
DataValue, 1.6, 3, 0, 2.2649500000000002E-06, -2.2315700000000004E-06, -9.062E-12, 2.2649500000000002E-06, 0.0015049750828502113, 1.9866530795370393E-06, 9.062E-12
DataValue, 1.6500000000000001, 3, 0, 2.4870900000000004E-06, -2.45098E-06, -6.6350000000000007E-12, 2.4870900000000004E-06, 0.001577051045464287, 2.1261316628568858E-06, 6.6350000000000007E-12
DataValue, 1.7000000000000002, 3, 0, 2.7251000000000004E-06, -2.68497E-06, -4.8130000000000006E-12, 2.7251000000000004E-06, 0.0016507876907706819, 2.20525589111898E-06, 4.8130000000000006E-12
DataValue, 1.75, 3, 0, 2.9775300000000003E-06, -2.93581E-06, -4.0240000000000006E-12, 2.9775300000000003E-06, 0.0017255520855656605, 2.2770095151638194E-06, 4.0240000000000006E-12
DataValue, 1.8, 3, 0, 3.24607E-06, -3.2033200000000004E-06, -2.186E-12, 3.24607E-06, 0.0018016853221359162, 2.4595455938747216E-06, 2.186E-12
DataValue, 1.85, 3, 0, 3.5433600000000004E-06, -3.4961300000000003E-06, -1.139E-12, 3.5433600000000004E-06, 0.0018823814703720393, 2.59059351676178E-06, 1.139E-12
DataValue, 1.9000000000000001, 3, 0, 3.8519500000000004E-06, -3.8019600000000004E-06, -1.9200000000000002E-13, 3.8519500000000004E-06, 0.0019626385301425224, 2.6500875170026243E-06, 1.9200000000000002E-13
DataValue, 1.9500000000000002, 3, 0, 4.18273E-06, -4.12942E-06, 3.7300000000000003E-13, 4.18273E-06, 0.002045172364374211, 2.8123899845208347E-06, 3.7300000000000003E-13
DataValue, 2, 3, 0, 4.53835E-06, -4.4815900000000006E-06, 6.81E-13, 4.53835E-06, 0.0021303403483950633, 2.9202435674858168E-06, 6.81E-13
DataValue, 2.05, 3, 0, 4.91092E-06, -4.8521500000000006E-06, 2.157E-12, 4.91092E-06, 0.0022160595659864381, 2.9613808909281898E-06, 2.157E-12
DataValue, 2.1, 3, 0, 5.3011700000000006E-06, -5.24134E-06, 1.9490000000000003E-12, 5.3011700000000006E-06, 0.00230242698038396, 3.0978283329950918E-06, 1.9490000000000003E-12
DataValue, 2.15, 3, 0, 5.7219800000000007E-06, -5.656890000000001E-06, 3.5820000000000003E-12, 5.7219800000000007E-06, 0.0023920660525997188, 3.2640876630764571E-06, 3.5820000000000003E-12
DataValue, 2.2, 3, 0, 6.1657600000000009E-06, -6.0975300000000009E-06, 4.033E-12, 6.1657600000000009E-06, 0.0024830948431342694, 3.325591335198182E-06, 4.033E-12
DataValue, 2.25, 3, 0, 6.62768E-06, -6.5589100000000007E-06, 4.9450000000000004E-12, 6.62768E-06, 0.002574428091829329, 3.3970964006572329E-06, 4.9450000000000004E-12
DataValue, 2.3000000000000003, 3, 0, 7.1150600000000004E-06, -7.0406800000000005E-06, 6.413E-12, 7.1150600000000004E-06, 0.0026674069805712065, 3.4961205566340333E-06, 6.413E-12
