
SetupTitle, Output
PrimitiveTest, I/V Sweep
TestParameter, Context.MainFrame, 4155C
TestParameter, Channel.UnitType, SMU, SMU, SMU
TestParameter, Channel.Unit, SMU3:MP, SMU4:MP, SMU1:MP
TestParameter, Channel.IName, ID, IS, IG
TestParameter, Channel.VName, VD, VS, VG
TestParameter, Channel.Mode, V, COMMON, V
TestParameter, Channel.Func, VAR1, CONST, VAR2
TestParameter, Channel.Index, 
TestParameter, Channel.Time, 
TestParameter, Measurement.Port.Unit, SMU3:MP, SMU4:MP, SMU1:MP
TestParameter, Measurement.Port.SeriesResistor, NONE, NONE, NONE
TestParameter, Measurement.Port.Filter, ON, ON, ON
TestParameter, Measurement.Primary.Locus, Single
TestParameter, Measurement.Primary.Scale, LINEAR
TestParameter, Measurement.Primary.Start, 0
TestParameter, Measurement.Primary.Stop, 5
TestParameter, Measurement.Primary.Step, 0.5
TestParameter, Measurement.Primary.Compliance, 0.1
TestParameter, Measurement.Primary.PowerCompliance, 0
TestParameter, Measurement.Aborting.Condition, CONTINUE AT ANY
TestParameter, Measurement.PostOutput.Value, START
TestParameter, Measurement.PostOutput.Retention, OFF
TestParameter, Measurement.Secondary.Start, -1
TestParameter, Measurement.Secondary.Count, 7
TestParameter, Measurement.Secondary.Step, 1
TestParameter, Measurement.Secondary.Compliance, 0.1
TestParameter, Measurement.Secondary.PowerCompliance, 0
TestParameter, Measurement.Bias.Source, 0, 0, -1
TestParameter, Measurement.Bias.Compliance, 0.1, 0.1, 0.1
TestParameter, Measurement.Monitor.Unit, SMU3:MP, SMU4:MP, SMU1:MP
TestParameter, Measurement.Monitor.Adc, HR ADC, HR ADC, HR ADC
TestParameter, Measurement.Monitor.RangingMode, AUTO, AUTO, AUTO
TestParameter, Measurement.Monitor.RangeBoundary, , , 
TestParameter, Measurement.Monitor.RangeRating, BY FULL RANGE, BY FULL RANGE, BY FULL RANGE
TestParameter, Measurement.Monitor.RangeRatingCoeff, 50, 50, 50
TestParameter, Measurement.Timing.Hold, 0.5
TestParameter, Measurement.Timing.Delay, 0.05
TestParameter, Measurement.Adc.HighResolution.AutoZero, OFF
TestParameter, Measurement.Adc.HighResolution.Mode, AUTO
TestParameter, Measurement.Adc.HighResolution.Coeff, 1
TestParameter, Measurement.Ag16440ASelector.SemiconductorRelay.Channel1, DEFAULT
TestParameter, Measurement.Ag16440ASelector.SemiconductorRelay.Channel3, DEFAULT
TestParameter, Function.User.Name, absID, absIG
TestParameter, Function.User.Unit, A, A
TestParameter, Function.User.Definition, abs(ID), abs(IG)
TestParameter, Output.Graph.Enabled, true
TestParameter, Output.Graph.XAxis.Data, VD
TestParameter, Output.Graph.XAxis.Scale, Linear
TestParameter, Output.Graph.XAxis.Left, 0
TestParameter, Output.Graph.XAxis.Right, 7
TestParameter, Output.Graph.YAxis.Data, ID
TestParameter, Output.Graph.YAxis.Scale, Linear
TestParameter, Output.Graph.YAxis.Bottom, 1E-14
TestParameter, Output.Graph.YAxis.Top, 0.01
TestParameter, Output.Graph.YAxis.Group, 
TestParameter, Output.List.Data, VG, IG, VD, ID, VS, IS, absIG
TestParameter, AutoAnalysis.Interpolation, false
TestParameter, AutoAnalysis.Line1.Enabled, false
TestParameter, AutoAnalysis.Line1.Type, 1
TestParameter, AutoAnalysis.Line1.Fix, True
TestParameter, AutoAnalysis.Line1.YAxis, 0
TestParameter, AutoAnalysis.Line1.Point1.Type, 0
TestParameter, AutoAnalysis.Line1.Point1.XY.X, 
TestParameter, AutoAnalysis.Line1.Point1.XY.Y, 
TestParameter, AutoAnalysis.Line1.Point1.Data.Var, 
TestParameter, AutoAnalysis.Line1.Point1.Data.Condition, 
TestParameter, AutoAnalysis.Line1.Point1.Data.Start, false
TestParameter, AutoAnalysis.Line1.Point1.Data.StartVar, 
TestParameter, AutoAnalysis.Line1.Point1.Data.StartCondition, 
TestParameter, AutoAnalysis.Line1.Point2.Type, 0
TestParameter, AutoAnalysis.Line1.Point2.XY.X, 
TestParameter, AutoAnalysis.Line1.Point2.XY.Y, 
TestParameter, AutoAnalysis.Line1.Point2.Data.Var, 
TestParameter, AutoAnalysis.Line1.Point2.Data.Condition, 
TestParameter, AutoAnalysis.Line1.Point2.Data.Start, false
TestParameter, AutoAnalysis.Line1.Point2.Data.StartVar, 
TestParameter, AutoAnalysis.Line1.Point2.Data.StartCondition, 
TestParameter, AutoAnalysis.Line1.GradientExpr, 0
TestParameter, AutoAnalysis.Line2.Enabled, false
TestParameter, AutoAnalysis.Line2.Type, 1
TestParameter, AutoAnalysis.Line2.Fix, True
TestParameter, AutoAnalysis.Line2.YAxis, 0
TestParameter, AutoAnalysis.Line2.Point1.Type, 0
TestParameter, AutoAnalysis.Line2.Point1.XY.X, 
TestParameter, AutoAnalysis.Line2.Point1.XY.Y, 
TestParameter, AutoAnalysis.Line2.Point1.Data.Var, 
TestParameter, AutoAnalysis.Line2.Point1.Data.Condition, 
TestParameter, AutoAnalysis.Line2.Point1.Data.Start, false
TestParameter, AutoAnalysis.Line2.Point1.Data.StartVar, 
TestParameter, AutoAnalysis.Line2.Point1.Data.StartCondition, 
TestParameter, AutoAnalysis.Line2.Point2.Type, 0
TestParameter, AutoAnalysis.Line2.Point2.XY.X, 
TestParameter, AutoAnalysis.Line2.Point2.XY.Y, 
TestParameter, AutoAnalysis.Line2.Point2.Data.Var, 
TestParameter, AutoAnalysis.Line2.Point2.Data.Condition, 
TestParameter, AutoAnalysis.Line2.Point2.Data.Start, false
TestParameter, AutoAnalysis.Line2.Point2.Data.StartVar, 
TestParameter, AutoAnalysis.Line2.Point2.Data.StartCondition, 
TestParameter, AutoAnalysis.Line2.GradientExpr, 0
TestParameter, AutoAnalysis.Marker.Enabled, false
TestParameter, AutoAnalysis.Marker.Data.Var, 
TestParameter, AutoAnalysis.Marker.Data.Condition, 
TestParameter, AutoAnalysis.Marker.Data.Start, false
TestParameter, AutoAnalysis.Marker.Data.StartVar, 
TestParameter, AutoAnalysis.Marker.Data.StartCondition, 
MetaData, TestRecord.EntryPoint, true
MetaData, TestRecord.RecordTime, 06/18/2019 13:41:38
MetaData, TestRecord.TestTarget, 6-48
MetaData, TestRecord.IterationIndex, 1
MetaData, TestRecord.Preservation, true
MetaData, TestRecord.Flag, 
MetaData, TestRecord.Remarks, bad
MetaData, TestRecord.LinkKey, dd5c2f88-57ee-4744-b13d-83cf81a47499
Dimension1, 11, 11, 11, 11, 11, 11, 11, 11
Dimension2, 7, 7, 7, 7, 7, 7, 7, 7
DataName, VD, VG, VS, ID, IS, IG, absID, absIG
DataValue, 0, -1, 0, 7.8600000000000008E-13, 7.8500000000000009E-13, -1.003E-12, 7.8600000000000008E-13, 1.003E-12
DataValue, 0.5, -1, 0, 1.6100000000000002E-12, 1.8040000000000002E-12, -1.45E-12, 1.6100000000000002E-12, 1.45E-12
DataValue, 1, -1, 0, 2.3750000000000003E-12, -3.27E-13, -2.2160000000000003E-12, 2.3750000000000003E-12, 2.2160000000000003E-12
DataValue, 1.5, -1, 0, 3.0260000000000002E-12, -1.07E-12, -2.1530000000000002E-12, 3.0260000000000002E-12, 2.1530000000000002E-12
DataValue, 2, -1, 0, 2.62E-12, -1.57E-13, -2.435E-12, 2.62E-12, 2.435E-12
DataValue, 2.5, -1, 0, 3.5880000000000005E-12, 3.6900000000000004E-13, -3.4770000000000002E-12, 3.5880000000000005E-12, 3.4770000000000002E-12
DataValue, 3, -1, 0, 5.411E-12, -2.94E-13, -3.4410000000000004E-12, 5.411E-12, 3.4410000000000004E-12
DataValue, 3.5, -1, 0, 4.8000000000000005E-12, -4.66E-13, -3.5080000000000004E-12, 4.8000000000000005E-12, 3.5080000000000004E-12
DataValue, 4, -1, 0, 5.1890000000000006E-12, -1.331E-12, -4.1450000000000006E-12, 5.1890000000000006E-12, 4.1450000000000006E-12
DataValue, 4.5, -1, 0, 5.764E-12, -2.173E-12, -4.389E-12, 5.764E-12, 4.389E-12
DataValue, 5, -1, 0, 6.334E-12, -6.4800000000000007E-13, -4.759E-12, 6.334E-12, 4.759E-12
DataValue, 0, 0, 0, -1.7990000000000001E-12, -1.6370000000000002E-12, 1.0270000000000002E-12, 1.7990000000000001E-12, 1.0270000000000002E-12
DataValue, 0.5, 0, 0, -1.7900000000000002E-13, -2.9010000000000003E-12, 3.15E-13, 1.7900000000000002E-13, 3.15E-13
DataValue, 1, 0, 0, 2.43E-13, 3.3400000000000004E-13, -1.06E-13, 2.43E-13, 1.06E-13
DataValue, 1.5, 0, 0, 2.0870000000000003E-12, 1.9120000000000003E-12, -7.52E-13, 2.0870000000000003E-12, 7.52E-13
DataValue, 2, 0, 0, 9.0700000000000007E-13, -1.3880000000000001E-12, -8.1000000000000008E-13, 9.0700000000000007E-13, 8.1000000000000008E-13
DataValue, 2.5, 0, 0, 2.47E-13, -9.73E-13, -1.535E-12, 2.47E-13, 1.535E-12
DataValue, 3, 0, 0, 3.5730000000000002E-12, -2.719E-12, -2.1080000000000003E-12, 3.5730000000000002E-12, 2.1080000000000003E-12
DataValue, 3.5, 0, 0, 2.996E-12, -1.2960000000000001E-12, -2.4630000000000003E-12, 2.996E-12, 2.4630000000000003E-12
DataValue, 4, 0, 0, 4.735E-12, -2.7960000000000002E-12, -3.0780000000000004E-12, 4.735E-12, 3.0780000000000004E-12
DataValue, 4.5, 0, 0, 5.4050000000000005E-12, -1.464E-12, -3.2360000000000003E-12, 5.4050000000000005E-12, 3.2360000000000003E-12
DataValue, 5, 0, 0, 2.795E-12, -3.973E-12, -3.0430000000000003E-12, 2.795E-12, 3.0430000000000003E-12
DataValue, 0, 1, 0, -5.082E-12, 6.33E-13, 2.6540000000000002E-12, 5.082E-12, 2.6540000000000002E-12
DataValue, 0.5, 1, 0, 1.85415E-09, -1.85231E-09, 1.761E-12, 1.85415E-09, 1.761E-12
DataValue, 1, 1, 0, 1.85825E-09, -1.8547E-09, 7.48E-13, 1.85825E-09, 7.48E-13
DataValue, 1.5, 1, 0, 1.83889E-09, -1.84504E-09, 4.88E-13, 1.83889E-09, 4.88E-13
DataValue, 2, 1, 0, 1.82043E-09, -1.81329E-09, 6.0400000000000005E-13, 1.82043E-09, 6.0400000000000005E-13
DataValue, 2.5, 1, 0, 1.79148E-09, -1.79045E-09, -4.0500000000000004E-13, 1.79148E-09, 4.0500000000000004E-13
DataValue, 3, 1, 0, 1.7696E-09, -1.77059E-09, -1.122E-12, 1.7696E-09, 1.122E-12
DataValue, 3.5, 1, 0, 1.75581E-09, -1.74838E-09, -1.406E-12, 1.75581E-09, 1.406E-12
DataValue, 4, 1, 0, 1.73815E-09, -1.73003E-09, -1.6010000000000002E-12, 1.73815E-09, 1.6010000000000002E-12
DataValue, 4.5, 1, 0, 1.72927E-09, -1.72367E-09, -2.3760000000000004E-12, 1.72927E-09, 2.3760000000000004E-12
DataValue, 5, 1, 0, 1.71429E-09, -1.70734E-09, -2.6670000000000002E-12, 1.71429E-09, 2.6670000000000002E-12
DataValue, 0, 2, 0, -2.9227000000000005E-11, 2.3697000000000003E-11, 3.133E-12, 2.9227000000000005E-11, 3.133E-12
DataValue, 0.5, 2, 0, 4.26082E-08, -3.91379E-08, 2.5600000000000004E-12, 4.26082E-08, 2.5600000000000004E-12
DataValue, 1, 2, 0, 3.6102399999999996E-08, -3.5850299999999996E-08, 1.7270000000000002E-12, 3.6102399999999996E-08, 1.7270000000000002E-12
DataValue, 1.5, 2, 0, 3.2926E-08, -3.26679E-08, 1.281E-12, 3.2926E-08, 1.281E-12
DataValue, 2, 2, 0, 3.05522E-08, -3.03773E-08, 8.46E-13, 3.05522E-08, 8.46E-13
DataValue, 2.5, 2, 0, 2.8574999999999996E-08, -2.8390099999999997E-08, 5.64E-13, 2.8574999999999996E-08, 5.64E-13
DataValue, 3, 2, 0, 2.7087699999999998E-08, -2.7032499999999997E-08, 6.0000000000000005E-15, 2.7087699999999998E-08, 6.0000000000000005E-15
DataValue, 3.5, 2, 0, 2.5603899999999997E-08, -2.5569099999999998E-08, -4.5900000000000006E-13, 2.5603899999999997E-08, 4.5900000000000006E-13
DataValue, 4, 2, 0, 2.4659199999999997E-08, -2.4550899999999997E-08, -9.49E-13, 2.4659199999999997E-08, 9.49E-13
DataValue, 4.5, 2, 0, 2.3659499999999998E-08, -2.35413E-08, -1.264E-12, 2.3659499999999998E-08, 1.264E-12
DataValue, 5, 2, 0, 2.27959E-08, -2.2707799999999996E-08, -1.552E-12, 2.27959E-08, 1.552E-12
DataValue, 0, 3, 0, -6.6487000000000008E-11, 5.7605000000000004E-11, 5.4000000000000004E-12, 6.6487000000000008E-11, 5.4000000000000004E-12
DataValue, 0.5, 3, 0, 1.18199E-07, -1.04729E-07, 4.038E-12, 1.18199E-07, 4.038E-12
DataValue, 1, 3, 0, 1.07828E-07, -1.05819E-07, 2.6170000000000003E-12, 1.07828E-07, 2.6170000000000003E-12
DataValue, 1.5, 3, 0, 9.9541E-08, -9.7797499999999986E-08, 1.5640000000000002E-12, 9.9541E-08, 1.5640000000000002E-12
DataValue, 2, 3, 0, 9.0864599999999992E-08, -9.07232E-08, 1.51E-12, 9.0864599999999992E-08, 1.51E-12
DataValue, 2.5, 3, 0, 8.3123099999999988E-08, -8.2391099999999992E-08, 1.5990000000000002E-12, 8.3123099999999988E-08, 1.5990000000000002E-12
DataValue, 3, 3, 0, 7.70995E-08, -7.6413799999999988E-08, 1.105E-12, 7.70995E-08, 1.105E-12
DataValue, 3.5, 3, 0, 7.1873E-08, -7.14792E-08, 8.8800000000000005E-13, 7.1873E-08, 8.8800000000000005E-13
DataValue, 4, 3, 0, 6.81522E-08, -6.7790599999999993E-08, 4.0600000000000004E-13, 6.81522E-08, 4.0600000000000004E-13
DataValue, 4.5, 3, 0, 6.5160599999999989E-08, -6.50861E-08, 1.24E-13, 6.5160599999999989E-08, 1.24E-13
DataValue, 5, 3, 0, 6.26025E-08, -6.21955E-08, -3.0900000000000005E-13, 6.26025E-08, 3.0900000000000005E-13
DataValue, 0, 4, 0, -1.1009200000000001E-10, 1.04324E-10, 8.338000000000001E-12, 1.1009200000000001E-10, 8.338000000000001E-12
DataValue, 0.5, 4, 0, 2.37752E-07, -2.1216E-07, 6.715E-12, 2.37752E-07, 6.715E-12
DataValue, 1, 4, 0, 2.34502E-07, -2.29511E-07, 5.035E-12, 2.34502E-07, 5.035E-12
DataValue, 1.5, 4, 0, 2.22408E-07, -2.198E-07, 3.7350000000000005E-12, 2.22408E-07, 3.7350000000000005E-12
DataValue, 2, 4, 0, 2.08309E-07, -2.07292E-07, 3.5960000000000004E-12, 2.08309E-07, 3.5960000000000004E-12
DataValue, 2.5, 4, 0, 1.95948E-07, -1.94177E-07, 2.7680000000000003E-12, 1.95948E-07, 2.7680000000000003E-12
DataValue, 3, 4, 0, 1.84336E-07, -1.83582E-07, 2.2910000000000002E-12, 1.84336E-07, 2.2910000000000002E-12
DataValue, 3.5, 4, 0, 1.7523E-07, -1.7510899999999998E-07, 2.327E-12, 1.7523E-07, 2.327E-12
DataValue, 4, 4, 0, 1.68586E-07, -1.6742999999999999E-07, 1.588E-12, 1.68586E-07, 1.588E-12
DataValue, 4.5, 4, 0, 1.6173599999999999E-07, -1.61142E-07, 1.182E-12, 1.6173599999999999E-07, 1.182E-12
DataValue, 5, 4, 0, 1.55887E-07, -1.5522099999999998E-07, 7.77E-13, 1.55887E-07, 7.77E-13
DataValue, 0, 5, 0, -2.1570700000000002E-10, 1.9235700000000002E-10, 1.1986000000000002E-11, 2.1570700000000002E-10, 1.1986000000000002E-11
DataValue, 0.5, 5, 0, 4.75709E-07, -4.2496999999999997E-07, 1.0043000000000002E-11, 4.75709E-07, 1.0043000000000002E-11
DataValue, 1, 5, 0, 4.98364E-07, -4.86816E-07, 7.857000000000001E-12, 4.98364E-07, 7.857000000000001E-12
DataValue, 1.5, 5, 0, 4.94036E-07, -4.82869E-07, 6.823E-12, 4.94036E-07, 6.823E-12
DataValue, 2, 5, 0, 4.69569E-07, -4.65577E-07, 5.466E-12, 4.69569E-07, 5.466E-12
DataValue, 2.5, 5, 0, 4.42671E-07, -4.39407E-07, 4.764E-12, 4.42671E-07, 4.764E-12
DataValue, 3, 5, 0, 4.16651E-07, -4.13496E-07, 3.75E-12, 4.16651E-07, 3.75E-12
DataValue, 3.5, 5, 0, 3.97854E-07, -3.9611399999999997E-07, 3.4830000000000004E-12, 3.97854E-07, 3.4830000000000004E-12
DataValue, 4, 5, 0, 3.81122E-07, -3.80471E-07, 3.134E-12, 3.81122E-07, 3.134E-12
DataValue, 4.5, 5, 0, 3.64932E-07, -3.64456E-07, 3.0520000000000003E-12, 3.64932E-07, 3.0520000000000003E-12
DataValue, 5, 5, 0, 3.52283E-07, -3.50818E-07, 2.4750000000000003E-12, 3.52283E-07, 2.4750000000000003E-12