
SetupTitle, Output
PrimitiveTest, I/V Sweep
TestParameter, Context.MainFrame, 4155C
TestParameter, Channel.UnitType, SMU, SMU, SMU
TestParameter, Channel.Unit, SMU3:MP, SMU4:MP, SMU1:MP
TestParameter, Channel.IName, ID, IS, IG
TestParameter, Channel.VName, VD, VS, VG
TestParameter, Channel.Mode, V, COMMON, V
TestParameter, Channel.Func, VAR1, CONST, VAR2
TestParameter, Channel.Index, 
TestParameter, Channel.Time, 
TestParameter, Measurement.Port.Unit, SMU3:MP, SMU4:MP, SMU1:MP
TestParameter, Measurement.Port.SeriesResistor, NONE, NONE, NONE
TestParameter, Measurement.Port.Filter, ON, ON, ON
TestParameter, Measurement.Primary.Locus, Single
TestParameter, Measurement.Primary.Scale, LINEAR
TestParameter, Measurement.Primary.Start, 0
TestParameter, Measurement.Primary.Stop, 5
TestParameter, Measurement.Primary.Step, 0.5
TestParameter, Measurement.Primary.Compliance, 0.1
TestParameter, Measurement.Primary.PowerCompliance, 0
TestParameter, Measurement.Aborting.Condition, CONTINUE AT ANY
TestParameter, Measurement.PostOutput.Value, START
TestParameter, Measurement.PostOutput.Retention, OFF
TestParameter, Measurement.Secondary.Start, -1
TestParameter, Measurement.Secondary.Count, 7
TestParameter, Measurement.Secondary.Step, 1
TestParameter, Measurement.Secondary.Compliance, 0.1
TestParameter, Measurement.Secondary.PowerCompliance, 0
TestParameter, Measurement.Bias.Source, 0, 0, -1
TestParameter, Measurement.Bias.Compliance, 0.1, 0.1, 0.1
TestParameter, Measurement.Monitor.Unit, SMU3:MP, SMU4:MP, SMU1:MP
TestParameter, Measurement.Monitor.Adc, HR ADC, HR ADC, HR ADC
TestParameter, Measurement.Monitor.RangingMode, AUTO, AUTO, AUTO
TestParameter, Measurement.Monitor.RangeBoundary, , , 
TestParameter, Measurement.Monitor.RangeRating, BY FULL RANGE, BY FULL RANGE, BY FULL RANGE
TestParameter, Measurement.Monitor.RangeRatingCoeff, 50, 50, 50
TestParameter, Measurement.Timing.Hold, 0.5
TestParameter, Measurement.Timing.Delay, 0.05
TestParameter, Measurement.Adc.HighResolution.AutoZero, OFF
TestParameter, Measurement.Adc.HighResolution.Mode, AUTO
TestParameter, Measurement.Adc.HighResolution.Coeff, 1
TestParameter, Measurement.Ag16440ASelector.SemiconductorRelay.Channel1, DEFAULT
TestParameter, Measurement.Ag16440ASelector.SemiconductorRelay.Channel3, DEFAULT
TestParameter, Function.User.Name, absID, absIG
TestParameter, Function.User.Unit, A, A
TestParameter, Function.User.Definition, abs(ID), abs(IG)
TestParameter, Output.Graph.Enabled, true
TestParameter, Output.Graph.XAxis.Data, VD
TestParameter, Output.Graph.XAxis.Scale, Linear
TestParameter, Output.Graph.XAxis.Left, 0
TestParameter, Output.Graph.XAxis.Right, 7
TestParameter, Output.Graph.YAxis.Data, ID
TestParameter, Output.Graph.YAxis.Scale, Linear
TestParameter, Output.Graph.YAxis.Bottom, 1E-14
TestParameter, Output.Graph.YAxis.Top, 0.01
TestParameter, Output.Graph.YAxis.Group, 
TestParameter, Output.List.Data, VG, IG, VD, ID, VS, IS, absIG
TestParameter, AutoAnalysis.Interpolation, false
TestParameter, AutoAnalysis.Line1.Enabled, false
TestParameter, AutoAnalysis.Line1.Type, 1
TestParameter, AutoAnalysis.Line1.Fix, True
TestParameter, AutoAnalysis.Line1.YAxis, 0
TestParameter, AutoAnalysis.Line1.Point1.Type, 0
TestParameter, AutoAnalysis.Line1.Point1.XY.X, 
TestParameter, AutoAnalysis.Line1.Point1.XY.Y, 
TestParameter, AutoAnalysis.Line1.Point1.Data.Var, 
TestParameter, AutoAnalysis.Line1.Point1.Data.Condition, 
TestParameter, AutoAnalysis.Line1.Point1.Data.Start, false
TestParameter, AutoAnalysis.Line1.Point1.Data.StartVar, 
TestParameter, AutoAnalysis.Line1.Point1.Data.StartCondition, 
TestParameter, AutoAnalysis.Line1.Point2.Type, 0
TestParameter, AutoAnalysis.Line1.Point2.XY.X, 
TestParameter, AutoAnalysis.Line1.Point2.XY.Y, 
TestParameter, AutoAnalysis.Line1.Point2.Data.Var, 
TestParameter, AutoAnalysis.Line1.Point2.Data.Condition, 
TestParameter, AutoAnalysis.Line1.Point2.Data.Start, false
TestParameter, AutoAnalysis.Line1.Point2.Data.StartVar, 
TestParameter, AutoAnalysis.Line1.Point2.Data.StartCondition, 
TestParameter, AutoAnalysis.Line1.GradientExpr, 0
TestParameter, AutoAnalysis.Line2.Enabled, false
TestParameter, AutoAnalysis.Line2.Type, 1
TestParameter, AutoAnalysis.Line2.Fix, True
TestParameter, AutoAnalysis.Line2.YAxis, 0
TestParameter, AutoAnalysis.Line2.Point1.Type, 0
TestParameter, AutoAnalysis.Line2.Point1.XY.X, 
TestParameter, AutoAnalysis.Line2.Point1.XY.Y, 
TestParameter, AutoAnalysis.Line2.Point1.Data.Var, 
TestParameter, AutoAnalysis.Line2.Point1.Data.Condition, 
TestParameter, AutoAnalysis.Line2.Point1.Data.Start, false
TestParameter, AutoAnalysis.Line2.Point1.Data.StartVar, 
TestParameter, AutoAnalysis.Line2.Point1.Data.StartCondition, 
TestParameter, AutoAnalysis.Line2.Point2.Type, 0
TestParameter, AutoAnalysis.Line2.Point2.XY.X, 
TestParameter, AutoAnalysis.Line2.Point2.XY.Y, 
TestParameter, AutoAnalysis.Line2.Point2.Data.Var, 
TestParameter, AutoAnalysis.Line2.Point2.Data.Condition, 
TestParameter, AutoAnalysis.Line2.Point2.Data.Start, false
TestParameter, AutoAnalysis.Line2.Point2.Data.StartVar, 
TestParameter, AutoAnalysis.Line2.Point2.Data.StartCondition, 
TestParameter, AutoAnalysis.Line2.GradientExpr, 0
TestParameter, AutoAnalysis.Marker.Enabled, false
TestParameter, AutoAnalysis.Marker.Data.Var, 
TestParameter, AutoAnalysis.Marker.Data.Condition, 
TestParameter, AutoAnalysis.Marker.Data.Start, false
TestParameter, AutoAnalysis.Marker.Data.StartVar, 
TestParameter, AutoAnalysis.Marker.Data.StartCondition, 
MetaData, TestRecord.EntryPoint, true
MetaData, TestRecord.RecordTime, 06/18/2019 13:04:48
MetaData, TestRecord.TestTarget, 6-11
MetaData, TestRecord.IterationIndex, 1
MetaData, TestRecord.Preservation, true
MetaData, TestRecord.Flag, 
MetaData, TestRecord.Remarks, bad
MetaData, TestRecord.LinkKey, ece8840c-6fc7-4a23-8b1b-62da389035b4
Dimension1, 11, 11, 11, 11, 11, 11, 11, 11
Dimension2, 7, 7, 7, 7, 7, 7, 7, 7
DataName, VD, VG, VS, ID, IS, IG, absID, absIG
DataValue, 0, -1, 0, 3.7060000000000006E-12, 3.855E-12, -3.034E-12, 3.7060000000000006E-12, 3.034E-12
DataValue, 0.5, -1, 0, 1.5E-12, 2.565E-12, -3.635E-12, 1.5E-12, 3.635E-12
DataValue, 1, -1, 0, 3.81E-12, 2.1490000000000002E-12, -3.087E-12, 3.81E-12, 3.087E-12
DataValue, 1.5, -1, 0, 2.7000000000000002E-12, 5.41E-13, -3.2810000000000003E-12, 2.7000000000000002E-12, 3.2810000000000003E-12
DataValue, 2, -1, 0, 3.4830000000000004E-12, -4.3800000000000005E-13, -3.3490000000000004E-12, 3.4830000000000004E-12, 3.3490000000000004E-12
DataValue, 2.5, -1, 0, 3.723E-12, -1.8190000000000002E-12, -3.5650000000000003E-12, 3.723E-12, 3.5650000000000003E-12
DataValue, 3, -1, 0, 4.418E-12, -4.1240000000000006E-12, -3.6590000000000005E-12, 4.418E-12, 3.6590000000000005E-12
DataValue, 3.5, -1, 0, 5.33E-12, -2.1490000000000002E-12, -3.946E-12, 5.33E-12, 3.946E-12
DataValue, 4, -1, 0, 5.6470000000000005E-12, -2.8380000000000002E-12, -4.3560000000000004E-12, 5.6470000000000005E-12, 4.3560000000000004E-12
DataValue, 4.5, -1, 0, 6.353E-12, -2.184E-12, -5.0630000000000005E-12, 6.353E-12, 5.0630000000000005E-12
DataValue, 5, -1, 0, 5.3490000000000007E-12, -2.4880000000000003E-12, -5.837E-12, 5.3490000000000007E-12, 5.837E-12
DataValue, 0, 0, 0, -1.6140000000000002E-12, 9.26E-13, 1.281E-12, 1.6140000000000002E-12, 1.281E-12
DataValue, 0.5, 0, 0, 7.5843E-11, -7.7083000000000007E-11, 3.6100000000000003E-13, 7.5843E-11, 3.6100000000000003E-13
DataValue, 1, 0, 0, 7.7295E-11, -7.9667000000000008E-11, 3.1E-14, 7.7295E-11, 3.1E-14
DataValue, 1.5, 0, 0, 7.9785000000000012E-11, -8.2715000000000009E-11, -3.8400000000000003E-13, 7.9785000000000012E-11, 3.8400000000000003E-13
DataValue, 2, 0, 0, 8.3110000000000011E-11, -8.1486000000000012E-11, -6.7100000000000007E-13, 8.3110000000000011E-11, 6.7100000000000007E-13
DataValue, 2.5, 0, 0, 8.4216000000000012E-11, -8.2235E-11, -7.05E-13, 8.4216000000000012E-11, 7.05E-13
DataValue, 3, 0, 0, 8.461800000000001E-11, -8.732700000000001E-11, -5.3000000000000006E-13, 8.461800000000001E-11, 5.3000000000000006E-13
DataValue, 3.5, 0, 0, 8.641E-11, -9.0087000000000009E-11, -9.94E-13, 8.641E-11, 9.94E-13
DataValue, 4, 0, 0, 8.8395000000000009E-11, -9.0443000000000013E-11, -1.6930000000000002E-12, 8.8395000000000009E-11, 1.6930000000000002E-12
DataValue, 4.5, 0, 0, 8.916200000000001E-11, -8.784E-11, -2.502E-12, 8.916200000000001E-11, 2.502E-12
DataValue, 5, 0, 0, 9.2813000000000013E-11, -8.9072000000000013E-11, -2.9220000000000003E-12, 9.2813000000000013E-11, 2.9220000000000003E-12
DataValue, 0, 1, 0, -2.561E-12, 1.938E-12, 2.3540000000000003E-12, 2.561E-12, 2.3540000000000003E-12
DataValue, 0.5, 1, 0, 7.65635E-10, -7.4220000000000008E-10, 5.88E-13, 7.65635E-10, 5.88E-13
DataValue, 1, 1, 0, 6.7778600000000006E-10, -6.71624E-10, 1.074E-12, 6.7778600000000006E-10, 1.074E-12
DataValue, 1.5, 1, 0, 6.35295E-10, -6.2827500000000009E-10, 5.14E-13, 6.35295E-10, 5.14E-13
DataValue, 2, 1, 0, 6.02064E-10, -6.04453E-10, 8.8E-14, 6.02064E-10, 8.8E-14
DataValue, 2.5, 1, 0, 5.7901200000000007E-10, -5.7595100000000007E-10, -5.87E-13, 5.7901200000000007E-10, 5.87E-13
DataValue, 3, 1, 0, 5.59965E-10, -5.4929200000000009E-10, -1.093E-12, 5.59965E-10, 1.093E-12
DataValue, 3.5, 1, 0, 5.51269E-10, -5.46521E-10, -3.05E-13, 5.51269E-10, 3.05E-13
DataValue, 4, 1, 0, 5.33106E-10, -5.2797900000000006E-10, -9.27E-13, 5.33106E-10, 9.27E-13
DataValue, 4.5, 1, 0, 5.23116E-10, -5.19534E-10, -1.339E-12, 5.23116E-10, 1.339E-12
DataValue, 5, 1, 0, 5.54212E-10, -5.1079400000000009E-10, -1.686E-12, 5.54212E-10, 1.686E-12
DataValue, 0, 2, 0, -7.666E-12, 1.719E-12, 6.182E-12, 7.666E-12, 6.182E-12
DataValue, 0.5, 2, 0, 1.46648E-09, -1.38428E-09, 3.2690000000000003E-12, 1.46648E-09, 3.2690000000000003E-12
DataValue, 1, 2, 0, 1.33358E-09, -1.32856E-09, 1.416E-12, 1.33358E-09, 1.416E-12
DataValue, 1.5, 2, 0, 1.27564E-09, -1.28032E-09, 8.7500000000000011E-13, 1.27564E-09, 8.7500000000000011E-13
DataValue, 2, 2, 0, 1.218E-09, -1.22159E-09, 3.3600000000000003E-13, 1.218E-09, 3.3600000000000003E-13
DataValue, 2.5, 2, 0, 1.17701E-09, -1.18152E-09, -5.1000000000000004E-14, 1.17701E-09, 5.1000000000000004E-14
DataValue, 3, 2, 0, 1.15119E-09, -1.15356E-09, -4.5100000000000005E-13, 1.15119E-09, 4.5100000000000005E-13
DataValue, 3.5, 2, 0, 1.12766E-09, -1.1305E-09, -6.52E-13, 1.12766E-09, 6.52E-13
DataValue, 4, 2, 0, 1.11033E-09, -1.10727E-09, -4.0300000000000005E-13, 1.11033E-09, 4.0300000000000005E-13
DataValue, 4.5, 2, 0, 1.08104E-09, -1.0823E-09, -1.0790000000000002E-12, 1.08104E-09, 1.0790000000000002E-12
DataValue, 5, 2, 0, 1.07196E-09, -1.07444E-09, -1.247E-12, 1.07196E-09, 1.247E-12
DataValue, 0, 3, 0, -2.2034000000000002E-11, 3.658E-12, 1.8725000000000002E-11, 2.2034000000000002E-11, 1.8725000000000002E-11
DataValue, 0.5, 3, 0, 2.85376E-09, -2.69494E-09, 1.0539000000000001E-11, 2.85376E-09, 1.0539000000000001E-11
DataValue, 1, 3, 0, 2.59396E-09, -2.58561E-09, 6.032E-12, 2.59396E-09, 6.032E-12
DataValue, 1.5, 3, 0, 2.48359E-09, -2.48148E-09, 3.0400000000000004E-12, 2.48359E-09, 3.0400000000000004E-12
DataValue, 2, 3, 0, 2.41355E-09, -2.40858E-09, 1.5490000000000002E-12, 2.41355E-09, 1.5490000000000002E-12
DataValue, 2.5, 3, 0, 2.33202E-09, -2.32943E-09, 1.209E-12, 2.33202E-09, 1.209E-12
DataValue, 3, 3, 0, 2.27555E-09, -2.27881E-09, 9.240000000000001E-13, 2.27555E-09, 9.240000000000001E-13
DataValue, 3.5, 3, 0, 2.22494E-09, -2.23506E-09, 7.26E-13, 2.22494E-09, 7.26E-13
DataValue, 4, 3, 0, 2.19149E-09, -2.18871E-09, -1.5000000000000002E-14, 2.19149E-09, 1.5000000000000002E-14
DataValue, 4.5, 3, 0, 2.15476E-09, -2.15943E-09, -4.11E-13, 2.15476E-09, 4.11E-13
DataValue, 5, 3, 0, 2.10943E-09, -2.12064E-09, -6.16E-13, 2.10943E-09, 6.16E-13
DataValue, 0, 4, 0, -4.6915000000000007E-11, 5.6830000000000007E-12, 3.8573E-11, 4.6915000000000007E-11, 3.8573E-11
DataValue, 0.5, 4, 0, 5.4152E-09, -5.05761E-09, 2.5205000000000002E-11, 5.4152E-09, 2.5205000000000002E-11
DataValue, 1, 4, 0, 4.91642E-09, -4.90663E-09, 1.6717E-11, 4.91642E-09, 1.6717E-11
DataValue, 1.5, 4, 0, 4.76198E-09, -4.76964E-09, 1.0840000000000002E-11, 4.76198E-09, 1.0840000000000002E-11
DataValue, 2, 4, 0, 4.58798E-09, -4.56933E-09, 5.89E-12, 4.58798E-09, 5.89E-12
DataValue, 2.5, 4, 0, 4.53053E-09, -4.54796E-09, 3.3160000000000004E-12, 4.53053E-09, 3.3160000000000004E-12
DataValue, 3, 4, 0, 4.43174E-09, -4.43627E-09, 2.861E-12, 4.43174E-09, 2.861E-12
DataValue, 3.5, 4, 0, 4.32836E-09, -4.32773E-09, 2.461E-12, 4.32836E-09, 2.461E-12
DataValue, 4, 4, 0, 4.24062E-09, -4.25609E-09, 1.6680000000000002E-12, 4.24062E-09, 1.6680000000000002E-12
DataValue, 4.5, 4, 0, 4.19942E-09, -4.19119E-09, 1.124E-12, 4.19942E-09, 1.124E-12
DataValue, 5, 4, 0, 4.12549E-09, -4.12629E-09, 7.6900000000000006E-13, 4.12549E-09, 7.6900000000000006E-13
DataValue, 0, 5, 0, -7.7666E-11, 9.417E-12, 6.6004E-11, 7.7666E-11, 6.6004E-11
DataValue, 0.5, 5, 0, 1.0739099999999998E-08, -1.0116299999999999E-08, 4.756E-11, 1.0739099999999998E-08, 4.756E-11
DataValue, 1, 5, 0, 9.8677999999999985E-09, -9.9032999999999991E-09, 3.0632E-11, 9.8677999999999985E-09, 3.0632E-11
DataValue, 1.5, 5, 0, 9.5775E-09, -9.57366E-09, 1.9664000000000002E-11, 9.5775E-09, 1.9664000000000002E-11
DataValue, 2, 5, 0, 9.2908E-09, -9.27337E-09, 1.3005000000000001E-11, 9.2908E-09, 1.3005000000000001E-11
DataValue, 2.5, 5, 0, 9.12964E-09, -9.08017E-09, 8.476E-12, 9.12964E-09, 8.476E-12
DataValue, 3, 5, 0, 8.88088E-09, -8.81189E-09, 5.5420000000000004E-12, 8.88088E-09, 5.5420000000000004E-12
DataValue, 3.5, 5, 0, 8.72317E-09, -8.63821E-09, 4.3130000000000007E-12, 8.72317E-09, 4.3130000000000007E-12
DataValue, 4, 5, 0, 8.51062E-09, -8.52865E-09, 3.614E-12, 8.51062E-09, 3.614E-12
DataValue, 4.5, 5, 0, 8.3447E-09, -8.32768E-09, 3.5520000000000002E-12, 8.3447E-09, 3.5520000000000002E-12
DataValue, 5, 5, 0, 8.20027E-09, -8.15367E-09, 3.0720000000000002E-12, 8.20027E-09, 3.0720000000000002E-12