
SetupTitle, Output
PrimitiveTest, I/V Sweep
TestParameter, Context.MainFrame, 4155C
TestParameter, Channel.UnitType, SMU, SMU, SMU
TestParameter, Channel.Unit, SMU3:MP, SMU4:MP, SMU1:MP
TestParameter, Channel.IName, ID, IS, IG
TestParameter, Channel.VName, VD, VS, VG
TestParameter, Channel.Mode, V, COMMON, V
TestParameter, Channel.Func, VAR1, CONST, VAR2
TestParameter, Channel.Index, 
TestParameter, Channel.Time, 
TestParameter, Measurement.Port.Unit, SMU3:MP, SMU4:MP, SMU1:MP
TestParameter, Measurement.Port.SeriesResistor, NONE, NONE, NONE
TestParameter, Measurement.Port.Filter, ON, ON, ON
TestParameter, Measurement.Primary.Locus, Single
TestParameter, Measurement.Primary.Scale, LINEAR
TestParameter, Measurement.Primary.Start, 0
TestParameter, Measurement.Primary.Stop, 5
TestParameter, Measurement.Primary.Step, 0.5
TestParameter, Measurement.Primary.Compliance, 0.1
TestParameter, Measurement.Primary.PowerCompliance, 0
TestParameter, Measurement.Aborting.Condition, CONTINUE AT ANY
TestParameter, Measurement.PostOutput.Value, START
TestParameter, Measurement.PostOutput.Retention, OFF
TestParameter, Measurement.Secondary.Start, -1
TestParameter, Measurement.Secondary.Count, 7
TestParameter, Measurement.Secondary.Step, 1
TestParameter, Measurement.Secondary.Compliance, 0.1
TestParameter, Measurement.Secondary.PowerCompliance, 0
TestParameter, Measurement.Bias.Source, 0, 0, -1
TestParameter, Measurement.Bias.Compliance, 0.1, 0.1, 0.1
TestParameter, Measurement.Monitor.Unit, SMU3:MP, SMU4:MP, SMU1:MP
TestParameter, Measurement.Monitor.Adc, HR ADC, HR ADC, HR ADC
TestParameter, Measurement.Monitor.RangingMode, AUTO, AUTO, AUTO
TestParameter, Measurement.Monitor.RangeBoundary, , , 
TestParameter, Measurement.Monitor.RangeRating, BY FULL RANGE, BY FULL RANGE, BY FULL RANGE
TestParameter, Measurement.Monitor.RangeRatingCoeff, 50, 50, 50
TestParameter, Measurement.Timing.Hold, 0.5
TestParameter, Measurement.Timing.Delay, 0.05
TestParameter, Measurement.Adc.HighResolution.AutoZero, OFF
TestParameter, Measurement.Adc.HighResolution.Mode, AUTO
TestParameter, Measurement.Adc.HighResolution.Coeff, 1
TestParameter, Measurement.Ag16440ASelector.SemiconductorRelay.Channel1, DEFAULT
TestParameter, Measurement.Ag16440ASelector.SemiconductorRelay.Channel3, DEFAULT
TestParameter, Function.User.Name, absID, absIG
TestParameter, Function.User.Unit, A, A
TestParameter, Function.User.Definition, abs(ID), abs(IG)
TestParameter, Output.Graph.Enabled, true
TestParameter, Output.Graph.XAxis.Data, VD
TestParameter, Output.Graph.XAxis.Scale, Linear
TestParameter, Output.Graph.XAxis.Left, 0
TestParameter, Output.Graph.XAxis.Right, 7
TestParameter, Output.Graph.YAxis.Data, ID
TestParameter, Output.Graph.YAxis.Scale, Linear
TestParameter, Output.Graph.YAxis.Bottom, 1E-14
TestParameter, Output.Graph.YAxis.Top, 0.01
TestParameter, Output.Graph.YAxis.Group, 
TestParameter, Output.List.Data, VG, IG, VD, ID, VS, IS, absIG
TestParameter, AutoAnalysis.Interpolation, false
TestParameter, AutoAnalysis.Line1.Enabled, false
TestParameter, AutoAnalysis.Line1.Type, 1
TestParameter, AutoAnalysis.Line1.Fix, True
TestParameter, AutoAnalysis.Line1.YAxis, 0
TestParameter, AutoAnalysis.Line1.Point1.Type, 0
TestParameter, AutoAnalysis.Line1.Point1.XY.X, 
TestParameter, AutoAnalysis.Line1.Point1.XY.Y, 
TestParameter, AutoAnalysis.Line1.Point1.Data.Var, 
TestParameter, AutoAnalysis.Line1.Point1.Data.Condition, 
TestParameter, AutoAnalysis.Line1.Point1.Data.Start, false
TestParameter, AutoAnalysis.Line1.Point1.Data.StartVar, 
TestParameter, AutoAnalysis.Line1.Point1.Data.StartCondition, 
TestParameter, AutoAnalysis.Line1.Point2.Type, 0
TestParameter, AutoAnalysis.Line1.Point2.XY.X, 
TestParameter, AutoAnalysis.Line1.Point2.XY.Y, 
TestParameter, AutoAnalysis.Line1.Point2.Data.Var, 
TestParameter, AutoAnalysis.Line1.Point2.Data.Condition, 
TestParameter, AutoAnalysis.Line1.Point2.Data.Start, false
TestParameter, AutoAnalysis.Line1.Point2.Data.StartVar, 
TestParameter, AutoAnalysis.Line1.Point2.Data.StartCondition, 
TestParameter, AutoAnalysis.Line1.GradientExpr, 0
TestParameter, AutoAnalysis.Line2.Enabled, false
TestParameter, AutoAnalysis.Line2.Type, 1
TestParameter, AutoAnalysis.Line2.Fix, True
TestParameter, AutoAnalysis.Line2.YAxis, 0
TestParameter, AutoAnalysis.Line2.Point1.Type, 0
TestParameter, AutoAnalysis.Line2.Point1.XY.X, 
TestParameter, AutoAnalysis.Line2.Point1.XY.Y, 
TestParameter, AutoAnalysis.Line2.Point1.Data.Var, 
TestParameter, AutoAnalysis.Line2.Point1.Data.Condition, 
TestParameter, AutoAnalysis.Line2.Point1.Data.Start, false
TestParameter, AutoAnalysis.Line2.Point1.Data.StartVar, 
TestParameter, AutoAnalysis.Line2.Point1.Data.StartCondition, 
TestParameter, AutoAnalysis.Line2.Point2.Type, 0
TestParameter, AutoAnalysis.Line2.Point2.XY.X, 
TestParameter, AutoAnalysis.Line2.Point2.XY.Y, 
TestParameter, AutoAnalysis.Line2.Point2.Data.Var, 
TestParameter, AutoAnalysis.Line2.Point2.Data.Condition, 
TestParameter, AutoAnalysis.Line2.Point2.Data.Start, false
TestParameter, AutoAnalysis.Line2.Point2.Data.StartVar, 
TestParameter, AutoAnalysis.Line2.Point2.Data.StartCondition, 
TestParameter, AutoAnalysis.Line2.GradientExpr, 0
TestParameter, AutoAnalysis.Marker.Enabled, false
TestParameter, AutoAnalysis.Marker.Data.Var, 
TestParameter, AutoAnalysis.Marker.Data.Condition, 
TestParameter, AutoAnalysis.Marker.Data.Start, false
TestParameter, AutoAnalysis.Marker.Data.StartVar, 
TestParameter, AutoAnalysis.Marker.Data.StartCondition, 
MetaData, TestRecord.EntryPoint, true
MetaData, TestRecord.RecordTime, 06/18/2019 17:18:20
MetaData, TestRecord.TestTarget, 8-41
MetaData, TestRecord.IterationIndex, 1
MetaData, TestRecord.Preservation, true
MetaData, TestRecord.Flag, 
MetaData, TestRecord.Remarks, bad
MetaData, TestRecord.LinkKey, 923efa15-89ac-4b3f-986f-c48c2c52251c
Dimension1, 11, 11, 11, 11, 11, 11, 11, 11
Dimension2, 7, 7, 7, 7, 7, 7, 7, 7
DataName, VD, VG, VS, ID, IS, IG, absID, absIG
DataValue, 0, -1, 0, 1.901E-12, 7.8900000000000007E-13, -1.827E-12, 1.901E-12, 1.827E-12
DataValue, 0.5, -1, 0, 1.8448E-11, -6.0000000000000009E-14, -2.215E-12, 1.8448E-11, 2.215E-12
DataValue, 1, -1, 0, 2.1240000000000002E-12, 1.89E-13, -2.397E-12, 2.1240000000000002E-12, 2.397E-12
DataValue, 1.5, -1, 0, 5.67E-13, 1.4510000000000002E-12, -2.808E-12, 5.67E-13, 2.808E-12
DataValue, 2, -1, 0, 3.825E-12, 4.5300000000000004E-13, -3.221E-12, 3.825E-12, 3.221E-12
DataValue, 2.5, -1, 0, 9.524E-12, -1.2080000000000001E-12, -3.413E-12, 9.524E-12, 3.413E-12
DataValue, 3, -1, 0, 8.2090000000000011E-12, 4.47E-13, -4.2950000000000006E-12, 8.2090000000000011E-12, 4.2950000000000006E-12
DataValue, 3.5, -1, 0, 7.8380000000000011E-12, -3.7900000000000006E-12, -4.643E-12, 7.8380000000000011E-12, 4.643E-12
DataValue, 4, -1, 0, 7.1950000000000007E-12, -8.3200000000000009E-13, -5.601E-12, 7.1950000000000007E-12, 5.601E-12
DataValue, 4.5, -1, 0, 7.942E-12, -3.2520000000000003E-12, -5.811E-12, 7.942E-12, 5.811E-12
DataValue, 5, -1, 0, 8.6420000000000013E-12, -1.379E-12, -6.489E-12, 8.6420000000000013E-12, 6.489E-12
DataValue, 0, 0, 0, -1.5180000000000002E-12, 1.0800000000000001E-13, 1.0520000000000002E-12, 1.5180000000000002E-12, 1.0520000000000002E-12
DataValue, 0.5, 0, 0, 2.9462000000000005E-11, -3.0865E-11, -2.43E-13, 2.9462000000000005E-11, 2.43E-13
DataValue, 1, 0, 0, 3.2781000000000004E-11, -3.2539E-11, -5.22E-13, 3.2781000000000004E-11, 5.22E-13
DataValue, 1.5, 0, 0, 3.4840000000000006E-11, -3.4343E-11, 6.6000000000000009E-14, 3.4840000000000006E-11, 6.6000000000000009E-14
DataValue, 2, 0, 0, 3.5228E-11, -3.4426E-11, -1.648E-12, 3.5228E-11, 1.648E-12
DataValue, 2.5, 0, 0, 3.6682E-11, -3.2561000000000004E-11, -2.0540000000000003E-12, 3.6682E-11, 2.0540000000000003E-12
DataValue, 3, 0, 0, 3.762E-11, -3.6041E-11, -1.847E-12, 3.762E-11, 1.847E-12
DataValue, 3.5, 0, 0, 3.7879E-11, -3.3164E-11, -2.599E-12, 3.7879E-11, 2.599E-12
DataValue, 4, 0, 0, 4.1001E-11, -3.6059E-11, -2.974E-12, 4.1001E-11, 2.974E-12
DataValue, 4.5, 0, 0, 4.0191E-11, -3.6856E-11, -3.654E-12, 4.0191E-11, 3.654E-12
DataValue, 5, 0, 0, 4.1295000000000004E-11, -3.5755000000000003E-11, -3.8380000000000004E-12, 4.1295000000000004E-11, 3.8380000000000004E-12
DataValue, 0, 1, 0, -9.006000000000001E-12, 1.3630000000000002E-12, 3.066E-12, 9.006000000000001E-12, 3.066E-12
DataValue, 0.5, 1, 0, 9.35182E-10, -9.0423800000000006E-10, 1.199E-12, 9.35182E-10, 1.199E-12
DataValue, 1, 1, 0, 7.9299100000000008E-10, -7.87393E-10, 1.06E-13, 7.9299100000000008E-10, 1.06E-13
DataValue, 1.5, 1, 0, 6.5964500000000005E-10, -6.5502900000000005E-10, -1.4E-14, 6.5964500000000005E-10, 1.4E-14
DataValue, 2, 1, 0, 6.06569E-10, -5.8857100000000008E-10, -2.7500000000000004E-13, 6.06569E-10, 2.7500000000000004E-13
DataValue, 2.5, 1, 0, 5.48635E-10, -5.32395E-10, -6.15E-13, 5.48635E-10, 6.15E-13
DataValue, 3, 1, 0, 5.12367E-10, -5.1087800000000008E-10, -7.9000000000000007E-13, 5.12367E-10, 7.9000000000000007E-13
DataValue, 3.5, 1, 0, 4.79553E-10, -4.6486700000000005E-10, -1.214E-12, 4.79553E-10, 1.214E-12
DataValue, 4, 1, 0, 4.47514E-10, -4.3524500000000003E-10, -1.4170000000000001E-12, 4.47514E-10, 1.4170000000000001E-12
DataValue, 4.5, 1, 0, 4.4099100000000005E-10, -4.2006400000000003E-10, -2.2250000000000003E-12, 4.4099100000000005E-10, 2.2250000000000003E-12
DataValue, 5, 1, 0, 4.10793E-10, -4.0969900000000003E-10, -2.658E-12, 4.10793E-10, 2.658E-12
DataValue, 0, 2, 0, -2.6176E-11, 2.783E-12, 2.0337E-11, 2.6176E-11, 2.0337E-11
DataValue, 0.5, 2, 0, 2.82296E-09, -2.49939E-09, 8.411E-12, 2.82296E-09, 8.411E-12
DataValue, 1, 2, 0, 2.48786E-09, -2.52485E-09, 3.0030000000000004E-12, 2.48786E-09, 3.0030000000000004E-12
DataValue, 1.5, 2, 0, 2.05233E-09, -2.08592E-09, 2.265E-12, 2.05233E-09, 2.265E-12
DataValue, 2, 2, 0, 1.89828E-09, -1.96212E-09, 2.1120000000000003E-12, 1.89828E-09, 2.1120000000000003E-12
DataValue, 2.5, 2, 0, 1.76336E-09, -1.78832E-09, 1.477E-12, 1.76336E-09, 1.477E-12
DataValue, 3, 2, 0, 1.56536E-09, -1.61847E-09, 1.1000000000000002E-12, 1.56536E-09, 1.1000000000000002E-12
DataValue, 3.5, 2, 0, 1.43207E-09, -1.46697E-09, 9.11E-13, 1.43207E-09, 9.11E-13
DataValue, 4, 2, 0, 1.32856E-09, -1.32385E-09, 5.5100000000000008E-13, 1.32856E-09, 5.5100000000000008E-13
DataValue, 4.5, 2, 0, 1.26781E-09, -1.28411E-09, 2.36E-13, 1.26781E-09, 2.36E-13
DataValue, 5, 2, 0, 1.23939E-09, -1.24528E-09, -2.9700000000000005E-13, 1.23939E-09, 2.9700000000000005E-13
DataValue, 0, 3, 0, -5.6692000000000004E-11, -5.63E-12, 5.7691000000000005E-11, 5.6692000000000004E-11, 5.7691000000000005E-11
DataValue, 0.5, 3, 0, 7.41654E-09, -6.29143E-09, 3.7937E-11, 7.41654E-09, 3.7937E-11
DataValue, 1, 3, 0, 6.43549E-09, -6.54586E-09, 2.5228000000000002E-11, 6.43549E-09, 2.5228000000000002E-11
DataValue, 1.5, 3, 0, 6.41787E-09, -6.77016E-09, 2.0537E-11, 6.41787E-09, 2.0537E-11
DataValue, 2, 3, 0, 5.8736399999999996E-09, -6.01229E-09, 1.6584E-11, 5.8736399999999996E-09, 1.6584E-11
DataValue, 2.5, 3, 0, 5.54652E-09, -5.69894E-09, 1.5678E-11, 5.54652E-09, 1.5678E-11
DataValue, 3, 3, 0, 5.11414E-09, -4.9871E-09, 1.4404E-11, 5.11414E-09, 1.4404E-11
DataValue, 3.5, 3, 0, 4.76266E-09, -4.56866E-09, 1.4409000000000001E-11, 4.76266E-09, 1.4409000000000001E-11
DataValue, 4, 3, 0, 4.09481E-09, -4.33519E-09, 1.4728000000000003E-11, 4.09481E-09, 1.4728000000000003E-11
DataValue, 4.5, 3, 0, 3.64503E-09, -3.5762E-09, 1.4017E-11, 3.64503E-09, 1.4017E-11
DataValue, 5, 3, 0, 3.39615E-09, -3.41264E-09, 1.3311000000000001E-11, 3.39615E-09, 1.3311000000000001E-11
DataValue, 0, 4, 0, -7.9113000000000012E-11, -2.0872000000000002E-11, 9.3994000000000012E-11, 7.9113000000000012E-11, 9.3994000000000012E-11
DataValue, 0.5, 4, 0, 2.02014E-08, -1.8203299999999997E-08, 7.612E-11, 2.02014E-08, 7.612E-11
DataValue, 1, 4, 0, 1.9829399999999997E-08, -1.9957099999999997E-08, 6.0957E-11, 1.9829399999999997E-08, 6.0957E-11
DataValue, 1.5, 4, 0, 1.9257599999999998E-08, -2.0515999999999997E-08, 4.9679E-11, 1.9257599999999998E-08, 4.9679E-11
DataValue, 2, 4, 0, 1.97136E-08, -1.9022499999999997E-08, 4.1870000000000006E-11, 1.97136E-08, 4.1870000000000006E-11
DataValue, 2.5, 4, 0, 1.7579299999999998E-08, -1.76866E-08, 3.7567000000000006E-11, 1.7579299999999998E-08, 3.7567000000000006E-11
DataValue, 3, 4, 0, 1.8117499999999997E-08, -1.62038E-08, 3.4323000000000004E-11, 1.8117499999999997E-08, 3.4323000000000004E-11
DataValue, 3.5, 4, 0, 1.6685699999999998E-08, -1.7094499999999998E-08, 3.5255000000000005E-11, 1.6685699999999998E-08, 3.5255000000000005E-11
DataValue, 4, 4, 0, 1.5862E-08, -1.62821E-08, 3.2549000000000004E-11, 1.5862E-08, 3.2549000000000004E-11
DataValue, 4.5, 4, 0, 1.46367E-08, -1.3928999999999999E-08, 3.1039E-11, 1.46367E-08, 3.1039E-11
DataValue, 5, 4, 0, 1.4417899999999998E-08, -1.4440599999999998E-08, 3.0918000000000004E-11, 1.4417899999999998E-08, 3.0918000000000004E-11
DataValue, 0, 5, 0, -1.2165300000000001E-10, -8.6250000000000009E-12, 1.25087E-10, 1.2165300000000001E-10, 1.25087E-10
DataValue, 0.5, 5, 0, 5.14125E-08, -4.52709E-08, 9.8265000000000009E-11, 5.14125E-08, 9.8265000000000009E-11
DataValue, 1, 5, 0, 5.7424799999999996E-08, -5.68898E-08, 8.1005000000000009E-11, 5.7424799999999996E-08, 8.1005000000000009E-11
DataValue, 1.5, 5, 0, 5.3103299999999992E-08, -5.27037E-08, 6.8941E-11, 5.3103299999999992E-08, 6.8941E-11
DataValue, 2, 5, 0, 5.8901499999999993E-08, -5.6717E-08, 5.7224000000000006E-11, 5.8901499999999993E-08, 5.7224000000000006E-11
DataValue, 2.5, 5, 0, 5.1331499999999992E-08, -5.4998899999999996E-08, 5.0148000000000005E-11, 5.1331499999999992E-08, 5.0148000000000005E-11
DataValue, 3, 5, 0, 5.0380699999999997E-08, -5.1201599999999996E-08, 4.4202000000000004E-11, 5.0380699999999997E-08, 4.4202000000000004E-11
DataValue, 3.5, 5, 0, 4.90234E-08, -4.7724799999999995E-08, 4.1509000000000005E-11, 4.90234E-08, 4.1509000000000005E-11
DataValue, 4, 5, 0, 4.8088099999999992E-08, -4.8240399999999996E-08, 3.8017E-11, 4.8088099999999992E-08, 3.8017E-11
DataValue, 4.5, 5, 0, 4.50182E-08, -4.3706499999999995E-08, 3.7006E-11, 4.50182E-08, 3.7006E-11
DataValue, 5, 5, 0, 4.1684299999999994E-08, -4.26907E-08, 3.7244E-11, 4.1684299999999994E-08, 3.7244E-11