
SetupTitle, Transfer lin
PrimitiveTest, I/V Sweep
TestParameter, Context.MainFrame, 4155C
TestParameter, Channel.UnitType, SMU, SMU, SMU
TestParameter, Channel.Unit, SMU3:MP, SMU4:MP, SMU1:MP
TestParameter, Channel.IName, ID, IS, IG
TestParameter, Channel.VName, VD, VS, VG
TestParameter, Channel.Mode, V, COMMON, V
TestParameter, Channel.Func, CONST, CONST, VAR1
TestParameter, Channel.Index, 
TestParameter, Channel.Time, 
TestParameter, Measurement.Port.Unit, SMU3:MP, SMU4:MP, SMU1:MP
TestParameter, Measurement.Port.SeriesResistor, NONE, NONE, NONE
TestParameter, Measurement.Port.Filter, ON, ON, ON
TestParameter, Measurement.Primary.Locus, Double
TestParameter, Measurement.Primary.Scale, LINEAR
TestParameter, Measurement.Primary.Start, -2
TestParameter, Measurement.Primary.Stop, 3
TestParameter, Measurement.Primary.Step, 0.05
TestParameter, Measurement.Primary.Compliance, 0.001
TestParameter, Measurement.Primary.PowerCompliance, 0
TestParameter, Measurement.Aborting.Condition, CONTINUE AT ANY
TestParameter, Measurement.PostOutput.Value, START
TestParameter, Measurement.PostOutput.Retention, OFF
TestParameter, Measurement.Bias.Source, 0.1, 0, -2
TestParameter, Measurement.Bias.Compliance, 0.001, 0.1, 0.001
TestParameter, Measurement.Monitor.Unit, SMU3:MP, SMU4:MP, SMU1:MP
TestParameter, Measurement.Monitor.Adc, HR ADC, HR ADC, HR ADC
TestParameter, Measurement.Monitor.RangingMode, AUTO, AUTO, AUTO
TestParameter, Measurement.Monitor.RangeBoundary, , , 
TestParameter, Measurement.Monitor.RangeRating, BY FULL RANGE, BY FULL RANGE, BY FULL RANGE
TestParameter, Measurement.Monitor.RangeRatingCoeff, 50, 50, 50
TestParameter, Measurement.Timing.Hold, 0.5
TestParameter, Measurement.Timing.Delay, 0.05
TestParameter, Measurement.Adc.HighResolution.AutoZero, OFF
TestParameter, Measurement.Adc.HighResolution.Mode, AUTO
TestParameter, Measurement.Adc.HighResolution.Coeff, 1
TestParameter, Measurement.Ag16440ASelector.SemiconductorRelay.Channel1, DEFAULT
TestParameter, Measurement.Ag16440ASelector.SemiconductorRelay.Channel3, DEFAULT
TestParameter, Function.User.Name, absID, sqrtID, gm2, absIG
TestParameter, Function.User.Unit, A, A, A/V, A
TestParameter, Function.User.Definition, abs(ID), sqrt(abs(ID)), (delta(sqrtID)/delta(VG))^2, abs(IG)
TestParameter, Output.Graph.Enabled, true
TestParameter, Output.Graph.XAxis.Data, VG
TestParameter, Output.Graph.XAxis.Scale, Linear
TestParameter, Output.Graph.XAxis.Left, -5
TestParameter, Output.Graph.XAxis.Right, 7
TestParameter, Output.Graph.YAxis.Data, ID, absIG, gm2
TestParameter, Output.Graph.YAxis.Scale, Log, Log, Linear
TestParameter, Output.Graph.YAxis.Bottom, 1E-14, 1E-14, 0
TestParameter, Output.Graph.YAxis.Top, 0.01, 0.01, 1E-05
TestParameter, Output.Graph.YAxis.Group, , , 
TestParameter, Output.List.Data, VG, IG, VD, ID, VS, IS, sqrtID, gm2, absIG
TestParameter, AutoAnalysis.Interpolation, false
TestParameter, AutoAnalysis.Line1.Enabled, false
TestParameter, AutoAnalysis.Line1.Type, 1
TestParameter, AutoAnalysis.Line1.Fix, True
TestParameter, AutoAnalysis.Line1.YAxis, 0
TestParameter, AutoAnalysis.Line1.Point1.Type, 0
TestParameter, AutoAnalysis.Line1.Point1.XY.X, 
TestParameter, AutoAnalysis.Line1.Point1.XY.Y, 
TestParameter, AutoAnalysis.Line1.Point1.Data.Var, 
TestParameter, AutoAnalysis.Line1.Point1.Data.Condition, 
TestParameter, AutoAnalysis.Line1.Point1.Data.Start, false
TestParameter, AutoAnalysis.Line1.Point1.Data.StartVar, 
TestParameter, AutoAnalysis.Line1.Point1.Data.StartCondition, 
TestParameter, AutoAnalysis.Line1.Point2.Type, 0
TestParameter, AutoAnalysis.Line1.Point2.XY.X, 
TestParameter, AutoAnalysis.Line1.Point2.XY.Y, 
TestParameter, AutoAnalysis.Line1.Point2.Data.Var, 
TestParameter, AutoAnalysis.Line1.Point2.Data.Condition, 
TestParameter, AutoAnalysis.Line1.Point2.Data.Start, false
TestParameter, AutoAnalysis.Line1.Point2.Data.StartVar, 
TestParameter, AutoAnalysis.Line1.Point2.Data.StartCondition, 
TestParameter, AutoAnalysis.Line1.GradientExpr, 0
TestParameter, AutoAnalysis.Line2.Enabled, false
TestParameter, AutoAnalysis.Line2.Type, 1
TestParameter, AutoAnalysis.Line2.Fix, True
TestParameter, AutoAnalysis.Line2.YAxis, 0
TestParameter, AutoAnalysis.Line2.Point1.Type, 0
TestParameter, AutoAnalysis.Line2.Point1.XY.X, 
TestParameter, AutoAnalysis.Line2.Point1.XY.Y, 
TestParameter, AutoAnalysis.Line2.Point1.Data.Var, 
TestParameter, AutoAnalysis.Line2.Point1.Data.Condition, 
TestParameter, AutoAnalysis.Line2.Point1.Data.Start, false
TestParameter, AutoAnalysis.Line2.Point1.Data.StartVar, 
TestParameter, AutoAnalysis.Line2.Point1.Data.StartCondition, 
TestParameter, AutoAnalysis.Line2.Point2.Type, 0
TestParameter, AutoAnalysis.Line2.Point2.XY.X, 
TestParameter, AutoAnalysis.Line2.Point2.XY.Y, 
TestParameter, AutoAnalysis.Line2.Point2.Data.Var, 
TestParameter, AutoAnalysis.Line2.Point2.Data.Condition, 
TestParameter, AutoAnalysis.Line2.Point2.Data.Start, false
TestParameter, AutoAnalysis.Line2.Point2.Data.StartVar, 
TestParameter, AutoAnalysis.Line2.Point2.Data.StartCondition, 
TestParameter, AutoAnalysis.Line2.GradientExpr, 0
TestParameter, AutoAnalysis.Marker.Enabled, false
TestParameter, AutoAnalysis.Marker.Data.Var, 
TestParameter, AutoAnalysis.Marker.Data.Condition, 
TestParameter, AutoAnalysis.Marker.Data.Start, false
TestParameter, AutoAnalysis.Marker.Data.StartVar, 
TestParameter, AutoAnalysis.Marker.Data.StartCondition, 
MetaData, TestRecord.EntryPoint, true
MetaData, TestRecord.RecordTime, 06/18/2019 15:42:01
MetaData, TestRecord.TestTarget, 11-46
MetaData, TestRecord.IterationIndex, 1
MetaData, TestRecord.Preservation, true
MetaData, TestRecord.Flag, 
MetaData, TestRecord.Remarks, some leak
MetaData, TestRecord.LinkKey, 8affaa27-15af-4793-94a1-4d2348c70558
Dimension1, 202, 202, 202, 202, 202, 202, 202, 202, 202, 202
Dimension2, 1, 1, 1, 1, 1, 1, 1, 1, 1, 1
DataName, VG, VD, VS, ID, IS, IG, absID, sqrtID, gm2, absIG
DataValue, -2, 0.1, 0, 1.2020000000000001E-11, 1.3085000000000001E-11, -2.2533000000000002E-11, 1.2020000000000001E-11, 3.4669871646719432E-06, 8.549743751314399E-11, 2.2533000000000002E-11
DataValue, -1.9500000000000002, 0.1, 0, 9.028E-12, 1.2007000000000001E-11, -2.0682E-11, 9.028E-12, 3.0046630426721729E-06, 6.3009754017895288E-11, 2.0682E-11
DataValue, -1.9000000000000001, 0.1, 0, 7.1460000000000004E-12, 1.3075E-11, -1.786E-11, 7.1460000000000004E-12, 2.6732003291934559E-06, 4.022350668745672E-11, 1.786E-11
DataValue, -1.85, 0.1, 0, 5.619E-12, 8.227E-12, -1.5137000000000002E-11, 5.619E-12, 2.3704429965725815E-06, 1.6974890656993552E-11, 1.5137000000000002E-11
DataValue, -1.8, 0.1, 0, 5.1130000000000005E-12, 1.1079000000000002E-11, -1.4735E-11, 5.1130000000000005E-12, 2.2611943746613207E-06, 2.567666083929236E-12, 1.4735E-11
DataValue, -1.75, 0.1, 0, 4.885E-12, 6.4740000000000009E-12, -1.3605000000000001E-11, 4.885E-12, 2.2102036105300345E-06, 3.4918932642576052E-12, 1.3605000000000001E-11
DataValue, -1.7000000000000002, 0.1, 0, 5.9930000000000008E-12, 7.537E-12, -1.2296000000000002E-11, 5.9930000000000008E-12, 2.4480604567698081E-06, 2.6818720993500667E-11, 1.2296000000000002E-11
DataValue, -1.6500000000000001, 0.1, 0, 2.8640000000000003E-12, 1.127E-11, -1.2074E-11, 2.8640000000000003E-12, 1.6923356641044945E-06, 5.9101483825226015E-11, 1.2074E-11
DataValue, -1.6, 0.1, 0, 2.82E-12, 1.3526E-11, -1.2393E-11, 2.82E-12, 1.6792855623746665E-06, 1.0154067659475041E-11, 1.2393E-11
DataValue, -1.55, 0.1, 0, 1.8870000000000003E-12, 1.1008000000000002E-11, -9.441E-12, 1.8870000000000003E-12, 1.3736811857195978E-06, 6.350254911243985E-14, 9.441E-12
DataValue, -1.5, 0.1, 0, 2.736E-12, 3.7400000000000006E-12, -8.9380000000000009E-12, 2.736E-12, 1.6540858502508267E-06, 1.629491963364734E-12, 8.9380000000000009E-12
DataValue, -1.4500000000000002, 0.1, 0, 2.2540000000000003E-12, 4.549E-12, -8.7580000000000013E-12, 2.2540000000000003E-12, 1.5013327412669052E-06, 1.0234845054573921E-11, 8.7580000000000013E-12
DataValue, -1.4000000000000001, 0.1, 0, 1.78E-12, 4.475E-12, -8.5960000000000009E-12, 1.78E-12, 1.3341664064126334E-06, 4.9927157324218749E-12, 8.5960000000000009E-12
DataValue, -1.35, 0.1, 0, 1.6330000000000002E-12, 7.682E-12, -7.984E-12, 1.6330000000000002E-12, 1.2778888840583911E-06, 6.4224696686650538E-12, 7.984E-12
DataValue, -1.3, 0.1, 0, 1.168E-12, 8.165E-12, -7.8060000000000013E-12, 1.168E-12, 1.0807404868885037E-06, 9.866536821450853E-13, 7.8060000000000013E-12
DataValue, -1.25, 0.1, 0, 1.389E-12, 2.5500000000000002E-12, -6.4350000000000008E-12, 1.389E-12, 1.178558441486887E-06, 8.9446212753201333E-12, 6.4350000000000008E-12
DataValue, -1.2, 0.1, 0, 6.11E-13, 7.859E-12, -6.421E-12, 6.11E-13, 7.8166488983451219E-07, 2.3876016528926519E-11, 6.421E-12
DataValue, -1.1500000000000001, 0.1, 0, 4.76E-13, 3.5230000000000002E-12, -4.6970000000000007E-12, 4.76E-13, 6.8992753242641362E-07, 2.4546754278361162E-13, 4.6970000000000007E-12
DataValue, -1.1, 0.1, 0, 5.36E-13, 5.2E-13, -5.2500000000000004E-12, 5.36E-13, 7.3212020870892505E-07, 3.6488518381794886E-13, 5.2500000000000004E-12
DataValue, -1.05, 0.1, 0, 5.63E-13, 7.02E-12, -5.1390000000000006E-12, 5.63E-13, 7.5033325929216283E-07, 5.025810928790613E-12, 5.1390000000000006E-12
DataValue, -1, 0.1, 0, 2.58E-13, 4.367E-12, -4.302E-12, 2.58E-13, 5.0793700396801182E-07, 1.2226682955724192E-11, 4.302E-12
DataValue, -0.95000000000000007, 0.1, 0, -1.21E-12, 2.92E-12, -3.4290000000000004E-12, 1.21E-12, 1.1E-06, 2.4380107023221577E-12, 3.4290000000000004E-12
DataValue, -0.9, 0.1, 0, -4.4100000000000004E-13, 3.393E-12, -3.0190000000000004E-12, 4.4100000000000004E-13, 6.6407830863535974E-07, 3.9409673212565192E-11, 3.0190000000000004E-12
DataValue, -0.85000000000000009, 0.1, 0, 2.23E-13, 1.9400000000000002E-12, -2.9260000000000003E-12, 2.23E-13, 4.7222875812470383E-07, 1.3134553540488291E-11, 2.9260000000000003E-12
DataValue, -0.8, 0.1, 0, -9.1E-14, 1.3880000000000001E-12, -3.2240000000000004E-12, 9.1E-14, 3.0166206257996714E-07, 1.2750788212061203E-13, 3.2240000000000004E-12
DataValue, -0.75, 0.1, 0, -2.58E-13, 1.981E-12, -2.324E-12, 2.58E-13, 5.0793700396801182E-07, 1.1111492412155041E-13, 2.324E-12
DataValue, -0.70000000000000007, 0.1, 0, 7.2000000000000009E-14, 4.3920000000000007E-12, -2.202E-12, 7.2000000000000009E-14, 2.6832815729997477E-07, 1.2055809857672989E-10, 2.202E-12
DataValue, -0.65, 0.1, 0, -2.5790000000000002E-12, 1.5430000000000002E-12, -1.2040000000000001E-12, 2.5790000000000002E-12, 1.6059265238484605E-06, 9.58516484003178E-12, 1.2040000000000001E-12
DataValue, -0.6, 0.1, 0, -3.3400000000000004E-13, -2.7700000000000003E-13, -7.99E-13, 3.3400000000000004E-13, 5.7792733107199562E-07, 8.38649817862942E-12, 7.99E-13
DataValue, -0.55, 0.1, 0, 3.593E-12, 1.738E-12, -1.5220000000000002E-12, 3.593E-12, 1.8955210365490539E-06, 1.7977583335776659E-12, 1.5220000000000002E-12
DataValue, -0.5, 0.1, 0, 1.9700000000000002E-13, 5.222E-12, -1.7270000000000002E-12, 1.9700000000000002E-13, 4.4384682042344294E-07, 7.7986243081361061E-11, 1.7270000000000002E-12
DataValue, -0.45, 0.1, 0, -1.0250000000000002E-12, 1.1350000000000001E-12, -2.4100000000000003E-13, 1.0250000000000002E-12, 1.0124228365658295E-06, 1.9201596440284943E-11, 2.4100000000000003E-13
DataValue, -0.4, 0.1, 0, -7.78E-13, -5.13E-13, -1.7300000000000002E-13, 7.78E-13, 8.8204308284799781E-07, 1.70781140931283E-11, 1.7300000000000002E-13
DataValue, -0.35000000000000003, 0.1, 0, -3.5900000000000004E-13, -5.4250000000000008E-12, 5.700000000000001E-14, 3.5900000000000004E-13, 5.9916608715780968E-07, 1.1200363717970938E-10, 5.700000000000001E-14
DataValue, -0.3, 0.1, 0, -3.765E-12, 2.6090000000000003E-12, 2.37E-13, 3.765E-12, 1.9403607911932254E-06, 1.92387520165546E-11, 2.37E-13
DataValue, -0.25, 0.1, 0, -1.0770000000000002E-12, 5.67E-13, -7.340000000000001E-13, 1.0770000000000002E-12, 1.0377861051295687E-06, 1.5966558888031409E-11, 7.340000000000001E-13
DataValue, -0.2, 0.1, 0, -2.374E-12, -1.973E-12, 1.4970000000000002E-12, 2.374E-12, 1.5407790237409128E-06, 5.1837283257888776E-11, 1.4970000000000002E-12
DataValue, -0.15, 0.1, 0, 1.0100000000000001E-13, 2.4100000000000003E-13, 7.74E-13, 1.0100000000000001E-13, 3.1780497164141409E-07, 2.6601549913129797E-12, 7.74E-13
DataValue, -0.1, 0.1, 0, 1.898E-12, -3.1100000000000003E-12, 1.408E-12, 1.898E-12, 1.3776792079435619E-06, 2.8684914939665052E-10, 1.408E-12
DataValue, -0.05, 0.1, 0, 4.046E-12, -6.9700000000000006E-13, 1.5100000000000001E-13, 4.046E-12, 2.0114671262538694E-06, 2.5962894659901991E-10, 1.5100000000000001E-13
DataValue, 0, 0.1, 0, 8.934E-12, -7.592E-12, 1.28E-13, 8.934E-12, 2.9889797590482276E-06, 2.6518508851408603E-10, 1.28E-13
DataValue, 0.05, 0.1, 0, 1.3249E-11, -2.5307E-11, 4.89E-12, 1.3249E-11, 3.6399175814845039E-06, 3.5429116759581228E-10, 4.89E-12
DataValue, 0.1, 0.1, 0, 2.3729000000000003E-11, -2.9424E-11, 4.142E-12, 2.3729000000000003E-11, 4.8712421413844745E-06, 6.89892587524381E-10, 4.142E-12
DataValue, 0.15, 0.1, 0, 3.9269E-11, -3.6525000000000004E-11, 2.4220000000000004E-12, 3.9269E-11, 6.2664982246865757E-06, 1.0611927880580849E-09, 2.4220000000000004E-12
DataValue, 0.2, 0.1, 0, 6.6078E-11, -6.223100000000001E-11, 2.14E-12, 6.6078E-11, 8.1288375552719712E-06, 1.6022608178211899E-09, 2.14E-12
DataValue, 0.25, 0.1, 0, 1.0545900000000001E-10, -1.0817600000000001E-10, 2.7010000000000003E-12, 1.0545900000000001E-10, 1.0269323249367507E-05, 2.1624432513277643E-09, 2.7010000000000003E-12
DataValue, 0.3, 0.1, 0, 1.63304E-10, -1.56341E-10, 2.9430000000000003E-12, 1.63304E-10, 1.2779045347755833E-05, 3.0199944347677753E-09, 2.9430000000000003E-12
DataValue, 0.35000000000000003, 0.1, 0, 2.48528E-10, -2.3880500000000004E-10, 3.083E-12, 2.48528E-10, 1.5764770851490356E-05, 4.4732829556834858E-09, 3.083E-12
DataValue, 0.4, 0.1, 0, 3.7897600000000004E-10, -3.6222400000000005E-10, 3.4910000000000004E-12, 3.7897600000000004E-10, 1.9467305925576862E-05, 6.5979865835341349E-09, 3.4910000000000004E-12
DataValue, 0.45, 0.1, 0, 5.70616E-10, -5.53056E-10, 3.4250000000000005E-12, 5.70616E-10, 2.3887569989431742E-05, 7.8366003639063058E-09, 3.4250000000000005E-12
DataValue, 0.5, 0.1, 0, 8.020090000000001E-10, -7.751190000000001E-10, 3.23E-12, 8.020090000000001E-10, 2.83197634170909E-05, 1.0939467927800993E-08, 3.23E-12
DataValue, 0.55, 0.1, 0, 1.1797E-09, -1.12675E-09, 2.8420000000000002E-12, 1.1797E-09, 3.4346761128234494E-05, 2.2396479722996021E-08, 2.8420000000000002E-12
DataValue, 0.6, 0.1, 0, 1.87361E-09, -1.8507E-09, 3.418E-12, 1.87361E-09, 4.32852168759728E-05, 3.7152445081944615E-08, 3.418E-12
DataValue, 0.65, 0.1, 0, 2.87529E-09, -2.81878E-09, 4.4950000000000005E-12, 2.87529E-09, 5.3621730669570896E-05, 4.9533934642536659E-08, 4.4950000000000005E-12
DataValue, 0.70000000000000007, 0.1, 0, 4.29568E-09, -4.19615E-09, 4.2850000000000004E-12, 4.29568E-09, 6.554143727444494E-05, 6.5099518978909379E-08, 4.2850000000000004E-12
DataValue, 0.75, 0.1, 0, 6.26256E-09, -6.11432E-09, 4.5130000000000007E-12, 6.26256E-09, 7.9136338050228228E-05, 8.4943982710390767E-08, 4.5130000000000007E-12
DataValue, 0.8, 0.1, 0, 8.96555E-09, -8.76943E-09, 4.8370000000000005E-12, 8.96555E-09, 9.4686588279439018E-05, 8.7929493754415487E-08, 4.8370000000000005E-12
DataValue, 0.85000000000000009, 0.1, 0, 1.1835099999999999E-08, -1.1359E-08, 4.551E-12, 1.1835099999999999E-08, 0.00010878924579203589, 1.1760539340198214E-07, 4.551E-12
DataValue, 0.9, 0.1, 0, 1.66359E-08, -1.6331E-08, 5.13E-12, 1.66359E-08, 0.0001289802310433657, 1.7745408633514308E-07, 5.13E-12
DataValue, 0.95000000000000007, 0.1, 0, 2.2775199999999998E-08, -2.2378599999999996E-08, 5.487E-12, 2.2775199999999998E-08, 0.00015091454535597288, 1.9955368169356563E-07, 5.487E-12
DataValue, 1, 0.1, 0, 3.0154899999999996E-08, -2.9651199999999996E-08, 6.489E-12, 3.0154899999999996E-08, 0.0001736516628195653, 2.0928663036835183E-07, 6.489E-12
DataValue, 1.05, 0.1, 0, 3.8676099999999994E-08, -3.80737E-08, 6.14E-12, 3.8676099999999994E-08, 0.0001966624010836845, 2.1271627323294271E-07, 6.14E-12
DataValue, 1.1, 0.1, 0, 4.8300099999999995E-08, -4.7572299999999994E-08, 6.0540000000000007E-12, 4.8300099999999995E-08, 0.00021977283726611893, 2.1284614119386864E-07, 6.0540000000000007E-12
DataValue, 1.1500000000000001, 0.1, 0, 5.8950699999999993E-08, -5.81082E-08, 6.526E-12, 5.8950699999999993E-08, 0.00024279765237744783, 2.0786997279242317E-07, 6.526E-12
DataValue, 1.2, 0.1, 0, 7.04189E-08, -6.9497499999999991E-08, 6.778E-12, 7.04189E-08, 0.00026536559686590874, 1.9969240281622886E-07, 6.778E-12
DataValue, 1.25, 0.1, 0, 8.26474E-08, -8.16527E-08, 6.41E-12, 8.26474E-08, 0.00028748460828364358, 1.941582635505191E-07, 6.41E-12
DataValue, 1.3, 0.1, 0, 9.5746299999999992E-08, -9.45666E-08, 5.8100000000000005E-12, 9.5746299999999992E-08, 0.00030942899023847135, 1.4826084831019557E-07, 5.8100000000000005E-12
DataValue, 1.35, 0.1, 0, 1.06269E-07, -1.04081E-07, 7.0330000000000004E-12, 1.06269E-07, 0.00032598926362688692, 1.4455421958187006E-07, 7.0330000000000004E-12
DataValue, 1.4000000000000001, 0.1, 0, 1.2072099999999999E-07, -1.19466E-07, 7.384E-12, 1.2072099999999999E-07, 0.00034744927687361789, 1.8771699684136291E-07, 7.384E-12
DataValue, 1.4500000000000002, 0.1, 0, 1.36394E-07, -1.35168E-07, 7.597E-12, 1.36394E-07, 0.000369315583207641, 1.8621660858412129E-07, 7.597E-12
DataValue, 1.5, 0.1, 0, 1.5257E-07, -1.51199E-07, 7.479E-12, 1.5257E-07, 0.00039060209932871586, 1.8052104228284116E-07, 7.479E-12
DataValue, 1.55, 0.1, 0, 1.69582E-07, -1.68216E-07, 7.669E-12, 1.69582E-07, 0.00041180335112769542, 1.7661776499042146E-07, 7.669E-12
DataValue, 1.6, 0.1, 0, 1.87167E-07, -1.85485E-07, 7.933E-12, 1.87167E-07, 0.00043262801573638291, 1.7067249772576855E-07, 7.933E-12
DataValue, 1.6500000000000001, 0.1, 0, 2.05314E-07, -2.03645E-07, 8.247E-12, 2.05314E-07, 0.00045311587921855048, 1.6996154207240173E-07, 8.247E-12
DataValue, 1.7000000000000002, 0.1, 0, 2.24538E-07, -2.22572E-07, 8.8230000000000015E-12, 2.24538E-07, 0.00047385440802001622, 1.7188225978097591E-07, 8.8230000000000015E-12
DataValue, 1.75, 0.1, 0, 2.44604E-07, -2.42869E-07, 8.84E-12, 2.44604E-07, 0.00049457456465127681, 1.7206264531401743E-07, 8.84E-12
DataValue, 1.8, 0.1, 0, 2.6557E-07, -2.63485E-07, 8.559E-12, 2.6557E-07, 0.00051533484260236082, 1.7344286186010563E-07, 8.559E-12
DataValue, 1.85, 0.1, 0, 2.87533E-07, -2.85226E-07, 8.479E-12, 2.87533E-07, 0.00053622103651386152, 1.7235886260924459E-07, 8.479E-12
DataValue, 1.9000000000000001, 0.1, 0, 3.10083E-07, -3.08046E-07, 9.148000000000001E-12, 3.10083E-07, 0.00055685096749489443, 1.7487358831559868E-07, 9.148000000000001E-12
DataValue, 1.9500000000000002, 0.1, 0, 3.34129E-07, -3.31846E-07, 9.4000000000000011E-12, 3.34129E-07, 0.00057803892602488287, 1.81408760997039E-07, 9.4000000000000011E-12
DataValue, 2, 0.1, 0, 3.59332E-07, -3.57075E-07, 9.703000000000001E-12, 3.59332E-07, 0.00059944307486199222, 1.8379132345208778E-07, 9.703000000000001E-12
DataValue, 2.05, 0.1, 0, 3.85529E-07, -3.83198E-07, 1.0291000000000001E-11, 3.85529E-07, 0.00062090981631795778, 1.8298301288066575E-07, 1.0291000000000001E-11
DataValue, 2.1, 0.1, 0, 4.12446E-07, -4.09893E-07, 1.0655000000000001E-11, 4.12446E-07, 0.00064221958861436176, 1.8778455037356418E-07, 1.0655000000000001E-11
DataValue, 2.15, 0.1, 0, 4.4122E-07, -4.38592E-07, 1.0188000000000001E-11, 4.4122E-07, 0.00066424393109760507, 1.9151930313693484E-07, 1.0188000000000001E-11
DataValue, 2.2, 0.1, 0, 4.70572E-07, -4.68445E-07, 1.1054E-11, 4.70572E-07, 0.00068598250706559569, 1.9508456350399694E-07, 1.1054E-11
DataValue, 2.25, 0.1, 0, 5.01848E-07, -4.99271E-07, 1.1045E-11, 5.01848E-07, 0.00070841230932275584, 1.9971158195538786E-07, 1.1045E-11
DataValue, 2.3000000000000003, 0.1, 0, 5.33881E-07, -5.31074E-07, 1.1154E-11, 5.33881E-07, 0.00073067160886406421, 1.9843333621315591E-07, 1.1154E-11
