
SetupTitle, Transfer sat
PrimitiveTest, I/V Sweep
TestParameter, Context.MainFrame, 4155C
TestParameter, Channel.UnitType, SMU, SMU, SMU
TestParameter, Channel.Unit, SMU3:MP, SMU4:MP, SMU1:MP
TestParameter, Channel.IName, IS, ID, IG
TestParameter, Channel.VName, VS, VD, VG
TestParameter, Channel.Mode, COMMON, V, V
TestParameter, Channel.Func, CONST, CONST, VAR1
TestParameter, Channel.Index, 
TestParameter, Channel.Time, 
TestParameter, Measurement.Port.Unit, SMU3:MP, SMU4:MP, SMU1:MP
TestParameter, Measurement.Port.SeriesResistor, NONE, NONE, NONE
TestParameter, Measurement.Port.Filter, ON, ON, ON
TestParameter, Measurement.Primary.Locus, Double
TestParameter, Measurement.Primary.Scale, LINEAR
TestParameter, Measurement.Primary.Start, -2
TestParameter, Measurement.Primary.Stop, 3
TestParameter, Measurement.Primary.Step, 0.05
TestParameter, Measurement.Primary.Compliance, 0.001
TestParameter, Measurement.Primary.PowerCompliance, 0
TestParameter, Measurement.Aborting.Condition, CONTINUE AT ANY
TestParameter, Measurement.PostOutput.Value, START
TestParameter, Measurement.PostOutput.Retention, OFF
TestParameter, Measurement.Bias.Source, 0, 5, -2
TestParameter, Measurement.Bias.Compliance, 0.1, 0.001, 0.001
TestParameter, Measurement.Monitor.Unit, SMU4:MP, SMU3:MP, SMU1:MP
TestParameter, Measurement.Monitor.Adc, HR ADC, HR ADC, HR ADC
TestParameter, Measurement.Monitor.RangingMode, AUTO, AUTO, AUTO
TestParameter, Measurement.Monitor.RangeBoundary, , , 
TestParameter, Measurement.Monitor.RangeRating, BY FULL RANGE, BY FULL RANGE, BY FULL RANGE
TestParameter, Measurement.Monitor.RangeRatingCoeff, 50, 50, 50
TestParameter, Measurement.Timing.Hold, 0.5
TestParameter, Measurement.Timing.Delay, 0.05
TestParameter, Measurement.Adc.HighResolution.AutoZero, OFF
TestParameter, Measurement.Adc.HighResolution.Mode, AUTO
TestParameter, Measurement.Adc.HighResolution.Coeff, 1
TestParameter, Measurement.Ag16440ASelector.SemiconductorRelay.Channel1, DEFAULT
TestParameter, Measurement.Ag16440ASelector.SemiconductorRelay.Channel3, DEFAULT
TestParameter, Function.User.Name, absID, sqrtID, gm2, absIG
TestParameter, Function.User.Unit, A, A, A/V, A
TestParameter, Function.User.Definition, abs(ID), sqrt(abs(ID)), (delta(sqrtID)/delta(VG))^2, abs(IG)
TestParameter, Output.Graph.Enabled, true
TestParameter, Output.Graph.XAxis.Data, VG
TestParameter, Output.Graph.XAxis.Scale, Linear
TestParameter, Output.Graph.XAxis.Left, -5
TestParameter, Output.Graph.XAxis.Right, 7
TestParameter, Output.Graph.YAxis.Data, ID, absIG, gm2
TestParameter, Output.Graph.YAxis.Scale, Log, Log, Linear
TestParameter, Output.Graph.YAxis.Bottom, 1E-14, 1E-14, 0
TestParameter, Output.Graph.YAxis.Top, 0.01, 0.01, 1E-05
TestParameter, Output.Graph.YAxis.Group, , , 
TestParameter, Output.List.Data, VG, IG, VD, ID, VS, IS, sqrtID, gm2, absIG
TestParameter, AutoAnalysis.Interpolation, false
TestParameter, AutoAnalysis.Line1.Enabled, false
TestParameter, AutoAnalysis.Line1.Type, 1
TestParameter, AutoAnalysis.Line1.Fix, True
TestParameter, AutoAnalysis.Line1.YAxis, 0
TestParameter, AutoAnalysis.Line1.Point1.Type, 0
TestParameter, AutoAnalysis.Line1.Point1.XY.X, 
TestParameter, AutoAnalysis.Line1.Point1.XY.Y, 
TestParameter, AutoAnalysis.Line1.Point1.Data.Var, 
TestParameter, AutoAnalysis.Line1.Point1.Data.Condition, 
TestParameter, AutoAnalysis.Line1.Point1.Data.Start, false
TestParameter, AutoAnalysis.Line1.Point1.Data.StartVar, 
TestParameter, AutoAnalysis.Line1.Point1.Data.StartCondition, 
TestParameter, AutoAnalysis.Line1.Point2.Type, 0
TestParameter, AutoAnalysis.Line1.Point2.XY.X, 
TestParameter, AutoAnalysis.Line1.Point2.XY.Y, 
TestParameter, AutoAnalysis.Line1.Point2.Data.Var, 
TestParameter, AutoAnalysis.Line1.Point2.Data.Condition, 
TestParameter, AutoAnalysis.Line1.Point2.Data.Start, false
TestParameter, AutoAnalysis.Line1.Point2.Data.StartVar, 
TestParameter, AutoAnalysis.Line1.Point2.Data.StartCondition, 
TestParameter, AutoAnalysis.Line1.GradientExpr, 0
TestParameter, AutoAnalysis.Line2.Enabled, false
TestParameter, AutoAnalysis.Line2.Type, 1
TestParameter, AutoAnalysis.Line2.Fix, True
TestParameter, AutoAnalysis.Line2.YAxis, 0
TestParameter, AutoAnalysis.Line2.Point1.Type, 0
TestParameter, AutoAnalysis.Line2.Point1.XY.X, 
TestParameter, AutoAnalysis.Line2.Point1.XY.Y, 
TestParameter, AutoAnalysis.Line2.Point1.Data.Var, 
TestParameter, AutoAnalysis.Line2.Point1.Data.Condition, 
TestParameter, AutoAnalysis.Line2.Point1.Data.Start, false
TestParameter, AutoAnalysis.Line2.Point1.Data.StartVar, 
TestParameter, AutoAnalysis.Line2.Point1.Data.StartCondition, 
TestParameter, AutoAnalysis.Line2.Point2.Type, 0
TestParameter, AutoAnalysis.Line2.Point2.XY.X, 
TestParameter, AutoAnalysis.Line2.Point2.XY.Y, 
TestParameter, AutoAnalysis.Line2.Point2.Data.Var, 
TestParameter, AutoAnalysis.Line2.Point2.Data.Condition, 
TestParameter, AutoAnalysis.Line2.Point2.Data.Start, false
TestParameter, AutoAnalysis.Line2.Point2.Data.StartVar, 
TestParameter, AutoAnalysis.Line2.Point2.Data.StartCondition, 
TestParameter, AutoAnalysis.Line2.GradientExpr, 0
TestParameter, AutoAnalysis.Marker.Enabled, false
TestParameter, AutoAnalysis.Marker.Data.Var, 
TestParameter, AutoAnalysis.Marker.Data.Condition, 
TestParameter, AutoAnalysis.Marker.Data.Start, false
TestParameter, AutoAnalysis.Marker.Data.StartVar, 
TestParameter, AutoAnalysis.Marker.Data.StartCondition, 
MetaData, TestRecord.EntryPoint, true
MetaData, TestRecord.RecordTime, 06/18/2019 14:08:26
MetaData, TestRecord.TestTarget, 3-14
MetaData, TestRecord.IterationIndex, 1
MetaData, TestRecord.Preservation, true
MetaData, TestRecord.Flag, 
MetaData, TestRecord.Remarks, leak
MetaData, TestRecord.LinkKey, 17e4ef54-642f-4e70-b6a5-a3c1b40c11d8
Dimension1, 202, 202, 202, 202, 202, 202, 202, 202, 202, 202
Dimension2, 1, 1, 1, 1, 1, 1, 1, 1, 1, 1
DataName, VG, VS, VD, ID, IS, IG, absID, sqrtID, gm2, absIG
DataValue, -2, 0, 5, 3.96771E-09, -7.959E-12, -3.85349E-09, 3.96771E-09, 6.2989761072733077E-05, 1.8000956542133174E-11, 3.85349E-09
DataValue, -1.9500000000000002, 0, 5, 3.94103E-09, -8.8540000000000008E-12, -3.70627E-09, 3.94103E-09, 6.277762340197342E-05, 1.7636438426078027E-10, 3.70627E-09
DataValue, -1.9000000000000001, 0, 5, 3.80217E-09, -9.764E-12, -3.65851E-09, 3.80217E-09, 6.1661738541821874E-05, 3.9139222887146321E-10, 3.65851E-09
DataValue, -1.85, 0, 5, 3.69655E-09, -1.2077E-11, -4.52595E-09, 3.69655E-09, 6.079925986391611E-05, 1.4841435668936158E-09, 4.52595E-09
DataValue, -1.8, 0, 5, 4.29211E-09, -1.2545E-11, -4.51643E-09, 4.29211E-09, 6.5514196934710262E-05, 2.7080802907879622E-09, 4.51643E-09
DataValue, -1.75, 0, 5, 4.35642E-09, -2.0851000000000003E-11, -5.47339E-09, 4.35642E-09, 6.60031817414888E-05, 2.9544698928625331E-09, 5.47339E-09
DataValue, -1.7000000000000002, 0, 5, 5.03386E-09, -2.5529000000000002E-11, -5.03014E-09, 5.03386E-09, 7.0949700492672969E-05, 1.4897160048754704E-09, 5.03014E-09
DataValue, -1.6500000000000001, 0, 5, 4.88082E-09, -3.2579000000000003E-11, -4.81014E-09, 4.88082E-09, 6.9862865672687657E-05, 1.2910988009906814E-09, 4.81014E-09
DataValue, -1.6, 0, 5, 4.5369E-09, -3.5434E-11, -4.59595E-09, 4.5369E-09, 6.7356514161586473E-05, 1.6038107692268107E-09, 4.59595E-09
DataValue, -1.55, 0, 5, 4.33729E-09, -4.5030000000000005E-11, -4.31843E-09, 4.33729E-09, 6.58581050441022E-05, 2.8749469907190248E-10, 4.31843E-09
DataValue, -1.5, 0, 5, 4.31136E-09, -5.2973000000000005E-11, -4.27534E-09, 4.31136E-09, 6.5660947297461371E-05, 3.3938803748070662E-13, 4.27534E-09
DataValue, -1.4500000000000002, 0, 5, 4.32962E-09, -5.9667E-11, -4.47231E-09, 4.32962E-09, 6.57998480241406E-05, 1.2147642950742172E-09, 4.47231E-09
DataValue, -1.4000000000000001, 0, 5, 4.78121E-09, -7.0249000000000007E-11, -4.92724E-09, 4.78121E-09, 6.9146294188481279E-05, 7.3318710500878244E-10, 4.92724E-09
DataValue, -1.35, 0, 5, 4.69329E-09, -7.530400000000001E-11, -4.69514E-09, 4.69329E-09, 6.8507590820287943E-05, 2.7508286990288164E-09, 4.69514E-09
DataValue, -1.3, 0, 5, 5.53404E-09, -8.709500000000001E-11, -1.024137E-08, 5.53404E-09, 7.4391128503337013E-05, 5.1009533546372576E-06, 1.024137E-08
DataValue, -1.25, 0, 5, 8.6648099999999988E-08, -8.8262E-11, -3.8038999999999994E-08, 8.6648099999999988E-08, 0.00029436049327312929, 1.0595175468000939E-06, 3.8038999999999994E-08
DataValue, -1.2, 0, 5, 3.1443799999999996E-08, -1.0625500000000001E-10, -2.9395799999999996E-08, 3.1443799999999996E-08, 0.00017732399724797542, 1.640718440481257E-06, 2.9395799999999996E-08
DataValue, -1.1500000000000001, 0, 5, 2.76457E-08, -1.25497E-10, -2.57183E-08, 2.76457E-08, 0.00016626996120766972, 3.8744346522423251E-08, 2.57183E-08
DataValue, -1.1, 0, 5, 2.4850499999999998E-08, -1.39786E-10, -2.4913999999999997E-08, 2.4850499999999998E-08, 0.0001576404136000664, 6.1053252634935204E-09, 2.4913999999999997E-08
DataValue, -1.05, 0, 5, 2.5108399999999997E-08, -1.58863E-10, -3.6481599999999994E-08, 2.5108399999999997E-08, 0.00015845630312486783, 1.7378022437269728E-07, 3.6481599999999994E-08
DataValue, -1, 0, 5, 3.9731399999999995E-08, -1.8051500000000002E-10, -3.58905E-08, 3.9731399999999995E-08, 0.00019932736891857073, 1.0205574803475585E-07, 3.58905E-08
DataValue, -0.95000000000000007, 0, 5, 3.62531E-08, -2.0381100000000003E-10, -3.55717E-08, 3.62531E-08, 0.00019040246847139351, 1.4045182090498047E-08, 3.55717E-08
DataValue, -0.9, 0, 5, 3.5147299999999993E-08, -2.29488E-10, -3.8234099999999996E-08, 3.5147299999999993E-08, 0.0001874761318141592, 1.7840929103977104E-08, 3.8234099999999996E-08
DataValue, -0.85000000000000009, 0, 5, 3.13451E-08, -2.581E-10, -2.9253099999999996E-08, 3.13451E-08, 0.00017704547438440781, 9.887517268986685E-09, 2.9253099999999996E-08
DataValue, -0.8, 0, 5, 3.1517799999999994E-08, -2.9065700000000003E-10, -3.01042E-08, 3.1517799999999994E-08, 0.00017753253223001128, 2.0575789082134224E-09, 3.01042E-08
DataValue, -0.75, 0, 5, 2.9759499999999996E-08, -3.25759E-10, -2.7828299999999996E-08, 2.9759499999999996E-08, 0.00017250942003264633, 1.9685617825121133E-08, 2.7828299999999996E-08
DataValue, -0.70000000000000007, 0, 5, 2.6732899999999996E-08, -3.66064E-10, -2.5215099999999997E-08, 2.6732899999999996E-08, 0.000163501987755501, 2.6076757821077142E-08, 2.5215099999999997E-08
DataValue, -0.65, 0, 5, 2.44488E-08, -4.1397200000000004E-10, -2.3099199999999998E-08, 2.44488E-08, 0.00015636112048715946, 1.6558527596808556E-08, 2.3099199999999998E-08
DataValue, -0.6, 0, 5, 2.26906E-08, -4.6579700000000006E-10, -2.19376E-08, 2.26906E-08, 0.00015063399350744174, 8.8594968131519646E-09, 2.19376E-08
DataValue, -0.55, 0, 5, 2.15939E-08, -5.259E-10, -2.0478699999999998E-08, 2.15939E-08, 0.00014694863048017834, 6.1351706387196427E-09, 2.0478699999999998E-08
DataValue, -0.5, 0, 5, 2.03922E-08, -5.86806E-10, -1.93983E-08, 2.03922E-08, 0.00014280126049863847, 5.9809941733926319E-09, 1.93983E-08
DataValue, -0.45, 0, 5, 1.93808E-08, -6.68004E-10, -1.8398799999999997E-08, 1.93808E-08, 0.0001392149417268132, 2.2521489903390578E-09, 1.8398799999999997E-08
DataValue, -0.4, 0, 5, 2.1770099999999998E-08, -7.58018E-10, -1.97887E-08, 2.1770099999999998E-08, 0.00014754694168297761, 2.038807757896531E-10, 1.97887E-08
DataValue, -0.35000000000000003, 0, 5, 1.9780399999999998E-08, -8.53359E-10, -1.8215899999999997E-08, 1.9780399999999998E-08, 0.00014064280998330486, 1.5218590569625207E-08, 1.8215899999999997E-08
DataValue, -0.3, 0, 5, 1.82819E-08, -8.71741E-10, -1.66351E-08, 1.82819E-08, 0.00013521057650938404, 9.6929075341388058E-09, 1.66351E-08
DataValue, -0.25, 0, 5, 1.7107999999999997E-08, -9.719E-10, -1.56491E-08, 1.7107999999999997E-08, 0.00013079755349393963, 4.9731844847390481E-09, 1.56491E-08
DataValue, -0.2, 0, 5, 1.6424599999999998E-08, -1.2083E-09, -1.50615E-08, 1.6424599999999998E-08, 0.00012815849562163251, 7.8859552828976612E-09, 1.50615E-08
DataValue, -0.15, 0, 5, 1.95099E-08, -1.46725E-09, -1.9876399999999997E-08, 1.95099E-08, 0.00013967784362596666, 1.6808745684069446E-08, 1.9876399999999997E-08
DataValue, -0.1, 0, 5, 1.9915799999999997E-08, -1.73473E-09, -1.8618099999999997E-08, 1.9915799999999997E-08, 0.00014112335030036665, 1.0608805414133824E-13, 1.8618099999999997E-08
DataValue, -0.05, 0, 5, 1.9518999999999998E-08, -2.072E-09, -1.70282E-08, 1.9518999999999998E-08, 0.00013971041478715894, 3.7664579435424359E-10, 1.70282E-08
DataValue, 0, 0, 5, 1.93718E-08, -2.49051E-09, -1.65046E-08, 1.93718E-08, 0.00013918261385676014, 3.0204832957165968E-10, 1.65046E-08
DataValue, 0.05, 0, 5, 1.9036399999999998E-08, -2.95646E-09, -1.56523E-08, 1.9036399999999998E-08, 0.0001379724610203065, 8.7616114288348411E-10, 1.56523E-08
DataValue, 0.1, 0, 5, 1.8556599999999997E-08, -3.53727E-09, -1.4698099999999999E-08, 1.8556599999999997E-08, 0.00013622261192621434, 6.7504618085280336E-10, 1.4698099999999999E-08
DataValue, 0.15, 0, 5, 1.83262E-08, -4.1673E-09, -1.38994E-08, 1.83262E-08, 0.00013537429593538059, 2.4927493317139625E-13, 1.38994E-08
DataValue, 0.2, 0, 5, 1.8543E-08, -4.95345E-09, -1.4018099999999999E-08, 1.8543E-08, 0.00013617268448554577, 7.5460532704825188E-09, 1.4018099999999999E-08
DataValue, 0.25, 0, 5, 2.0753599999999997E-08, -5.85352E-09, -1.4382199999999999E-08, 2.0753599999999997E-08, 0.00014406109814936159, 6.1855246291579484E-09, 1.4382199999999999E-08
DataValue, 0.3, 0, 5, 2.07468E-08, -6.93178E-09, -1.3504099999999999E-08, 2.07468E-08, 0.00014403749511845865, 3.0735954791478167E-10, 1.3504099999999999E-08
DataValue, 0.35000000000000003, 0, 5, 2.1261799999999998E-08, -8.07074E-09, -1.2882499999999998E-08, 2.1261799999999998E-08, 0.00014581426542008844, 2.1839714513540437E-09, 1.2882499999999998E-08
DataValue, 0.4, 0, 5, 2.2114899999999998E-08, -8.80927E-09, -1.2416799999999999E-08, 2.2114899999999998E-08, 0.00014871079315234654, 3.54420196404598E-09, 1.2416799999999999E-08
DataValue, 0.45, 0, 5, 2.3033399999999997E-08, -9.9914999999999988E-09, -1.2188199999999999E-08, 2.3033399999999997E-08, 0.00015176758547199727, 4.4463538845448251E-09, 1.2188199999999999E-08
DataValue, 0.5, 0, 5, 2.4142599999999998E-08, -1.2062699999999999E-08, -1.16528E-08, 2.4142599999999998E-08, 0.00015537889174530752, 8.774913946799131E-09, 1.16528E-08
DataValue, 0.55, 0, 5, 2.5964499999999997E-08, -1.4325E-08, -1.1195999999999998E-08, 2.5964499999999997E-08, 0.00016113503653768165, 1.6434727929345813E-08, 1.1195999999999998E-08
DataValue, 0.6, 0, 5, 2.8290799999999997E-08, -1.6988399999999998E-08, -1.08284E-08, 2.8290799999999997E-08, 0.00016819869202820811, 2.3573835472862585E-08, 1.08284E-08
DataValue, 0.65, 0, 5, 3.11483E-08, -2.01032E-08, -1.0566799999999999E-08, 3.11483E-08, 0.00017648880984357052, 3.2333782848504442E-08, 1.0566799999999999E-08
DataValue, 0.70000000000000007, 0, 5, 3.4663099999999996E-08, -2.3887099999999996E-08, -1.01965E-08, 3.4663099999999996E-08, 0.00018618028896744143, 4.1797461885290724E-08, 1.01965E-08
DataValue, 0.75, 0, 5, 3.8782699999999994E-08, -2.8231799999999997E-08, -9.80515E-09, 3.8782699999999994E-08, 0.00019693323741816666, 4.051158866288504E-08, 9.80515E-09
DataValue, 0.8, 0, 5, 4.2562899999999997E-08, -3.2504E-08, -9.42958E-09, 4.2562899999999997E-08, 0.0002063077797854458, 5.1437475277310549E-08, 9.42958E-09
DataValue, 0.85000000000000009, 0, 5, 4.82299E-08, -3.8305799999999995E-08, -9.1241E-09, 4.82299E-08, 0.00021961306882788191, 8.1215369708985759E-08, 9.1241E-09
DataValue, 0.9, 0, 5, 5.51339E-08, -4.5418299999999993E-08, -8.84704E-09, 5.51339E-08, 0.00023480609021062464, 9.6991053652350939E-08, 8.84704E-09
DataValue, 0.95000000000000007, 0, 5, 6.2878799999999993E-08, -5.3451299999999996E-08, -8.49194E-09, 6.2878799999999993E-08, 0.00025075645555000173, 1.1819523220839703E-07, 8.49194E-09
DataValue, 1, 0, 5, 7.24609E-08, -6.28395E-08, -8.29958E-09, 7.24609E-08, 0.0002691856236874473, 1.3419258090680661E-07, 8.29958E-09
DataValue, 1.05, 0, 5, 8.2592299999999992E-08, -7.3226099999999989E-08, -7.9727E-09, 8.2592299999999992E-08, 0.00028738876108852968, 1.4303458739316895E-07, 7.9727E-09
DataValue, 1.1, 0, 5, 9.4252399999999984E-08, -8.47898E-08, -7.66687E-09, 9.4252399999999984E-08, 0.00030700553740934376, 1.1762064987769995E-07, 7.66687E-09
DataValue, 1.1500000000000001, 0, 5, 1.03481E-07, -9.45512E-08, -7.35735E-09, 1.03481E-07, 0.00032168462816864593, 1.2250217346676983E-07, 7.35735E-09
DataValue, 1.2, 0, 5, 1.1696799999999999E-07, -1.06166E-07, -7.03525E-09, 1.1696799999999999E-07, 0.00034200584790321931, 1.7187008742081183E-07, 7.03525E-09
DataValue, 1.25, 0, 5, 1.31872E-07, -1.22807E-07, -6.73475E-09, 1.31872E-07, 0.00036314184556451216, 1.8572167311664775E-07, 6.73475E-09
DataValue, 1.3, 0, 5, 1.48303E-07, -1.3962799999999999E-07, -6.45437E-09, 1.48303E-07, 0.00038510128537827553, 2.0048936084224152E-07, 6.45437E-09
DataValue, 1.35, 0, 5, 1.66397E-07, -1.57413E-07, -6.17297E-09, 1.66397E-07, 0.000407917883893315, 1.9476114958301526E-07, 6.17297E-09
DataValue, 1.4000000000000001, 0, 5, 1.84241E-07, -1.75402E-07, -6.01128E-09, 1.84241E-07, 0.00042923303693914331, 1.8753142964039024E-07, 6.01128E-09
DataValue, 1.4500000000000002, 0, 5, 2.03602E-07, -1.94503E-07, -5.74205E-09, 2.03602E-07, 0.00045122278311273247, 1.9785604133028317E-07, 5.74205E-09
DataValue, 1.5, 0, 5, 2.24405E-07, -2.15189E-07, -5.47317E-09, 2.24405E-07, 0.00047371404876781945, 2.0044575255685081E-07, 5.47317E-09
DataValue, 1.55, 0, 5, 2.4601E-07, -2.37001E-07, -5.19845E-09, 2.4601E-07, 0.00049599395157602481, 1.99506232998717E-07, 5.19845E-09
DataValue, 1.6, 0, 5, 2.68718E-07, -2.5879E-07, -4.94228E-09, 2.68718E-07, 0.00051838016937379074, 2.0064520278535169E-07, 4.94228E-09
DataValue, 1.6500000000000001, 0, 5, 2.92451E-07, -2.82819E-07, -4.70833E-09, 2.92451E-07, 0.00054078738890621326, 2.0124603475423376E-07, 4.70833E-09
DataValue, 1.7000000000000002, 0, 5, 3.1724E-07, -3.08048E-07, -4.52996E-09, 3.1724E-07, 0.00056324062353491511, 2.0906366743637344E-07, 4.52996E-09
DataValue, 1.75, 0, 5, 3.43995E-07, -3.34337E-07, -4.3394E-09, 3.43995E-07, 0.00058651086946449676, 2.2744745222529749E-07, 4.3394E-09
DataValue, 1.8, 0, 5, 3.7323799999999997E-07, -3.6270699999999997E-07, -4.12695E-09, 3.7323799999999997E-07, 0.0006109320747840957, 2.4065493674353361E-07, 4.12695E-09
DataValue, 1.85, 0, 5, 4.03946E-07, -3.94166E-07, -3.94225E-09, 4.03946E-07, 0.00063556746298091757, 2.4259823791497179E-07, 3.94225E-09
DataValue, 1.9000000000000001, 0, 5, 4.3584599999999997E-07, -4.24401E-07, -3.75494E-09, 4.3584599999999997E-07, 0.00066018633733212013, 2.592472807119489E-07, 3.75494E-09
DataValue, 1.9500000000000002, 0, 5, 4.7126E-07, -4.58779E-07, -3.56232E-09, 4.7126E-07, 0.00068648379441906709, 2.6659109085805681E-07, 3.56232E-09
DataValue, 2, 0, 5, 5.06686E-07, -4.94447E-07, -3.33218E-09, 5.06686E-07, 0.00071181879716680709, 2.6287059417178522E-07, 3.33218E-09
DataValue, 2.05, 0, 5, 5.44282E-07, -5.31936E-07, -3.18932E-09, 5.44282E-07, 0.00073775470178101879, 2.9550132022506125E-07, 3.18932E-09
DataValue, 2.1, 0, 5, 5.8703E-07, -5.7403899999999994E-07, -3.17014E-09, 5.8703E-07, 0.00076617883030008081, 3.1073802074386492E-07, 3.17014E-09
DataValue, 2.15, 0, 5, 6.2964E-07, -6.1682E-07, -3.03617E-09, 6.2964E-07, 0.00079349858222935729, 3.108333677563636E-07, 3.03617E-09
DataValue, 2.2, 0, 5, 6.75571E-07, -6.60781E-07, -2.88069E-09, 6.75571E-07, 0.000821931262332806, 3.2097814694315769E-07, 2.88069E-09
DataValue, 2.25, 0, 5, 7.22761E-07, -7.08635E-07, -2.73354E-09, 7.22761E-07, 0.00085015351554880957, 3.5296545598335532E-07, 2.73354E-09
DataValue, 2.3000000000000003, 0, 5, 7.76764E-07, -7.61486E-07, -2.59078E-09, 7.76764E-07, 0.00088134215830175736, 3.7461632485690221E-07, 2.59078E-09
DataValue, 2.35, 0, 5, 8.30576E-07, -8.14112E-07, -2.4808E-09, 8.30576E-07, 0.00091135942415712147, 3.8011663815114675E-07, 2.4808E-09
DataValue, 2.4, 0, 5, 8.89241E-07, -8.71357E-07, -2.337E-09, 8.89241E-07, 0.00094299575820891153, 4.032386994054734E-07, 2.337E-09
DataValue, 2.45, 0, 5, 9.50353E-07, -9.33149E-07, -2.20709E-09, 9.50353E-07, 0.000974860502841304, 2.9387608376084228E-07, 2.20709E-09
