
SetupTitle, Transfer stab
PrimitiveTest, I/V Sweep
TestParameter, Context.MainFrame, 4155C
TestParameter, Channel.UnitType, SMU, SMU, SMU
TestParameter, Channel.Unit, SMU3:MP, SMU4:MP, SMU1:MP
TestParameter, Channel.IName, ID, IS, IG
TestParameter, Channel.VName, VD, VS, VG
TestParameter, Channel.Mode, V, COMMON, V
TestParameter, Channel.Func, CONST, CONST, VAR1
TestParameter, Channel.Index, 
TestParameter, Channel.Time, 
TestParameter, Measurement.Port.Unit, SMU3:MP, SMU4:MP, SMU1:MP
TestParameter, Measurement.Port.SeriesResistor, NONE, NONE, NONE
TestParameter, Measurement.Port.Filter, ON, ON, ON
TestParameter, Measurement.Primary.Locus, Single
TestParameter, Measurement.Primary.Scale, LINEAR
TestParameter, Measurement.Primary.Start, -2
TestParameter, Measurement.Primary.Stop, 3
TestParameter, Measurement.Primary.Step, 0.05
TestParameter, Measurement.Primary.Compliance, 0.1
TestParameter, Measurement.Primary.PowerCompliance, 0
TestParameter, Measurement.Aborting.Condition, CONTINUE AT ANY
TestParameter, Measurement.PostOutput.Value, START
TestParameter, Measurement.PostOutput.Retention, OFF
TestParameter, Measurement.Bias.Source, 3, 0, -2
TestParameter, Measurement.Bias.Compliance, 0.1, 0.1, 0.1
TestParameter, Measurement.Monitor.Unit, SMU3:MP, SMU4:MP, SMU1:MP
TestParameter, Measurement.Monitor.Adc, HR ADC, HR ADC, HR ADC
TestParameter, Measurement.Monitor.RangingMode, AUTO, AUTO, AUTO
TestParameter, Measurement.Monitor.RangeBoundary, , , 
TestParameter, Measurement.Monitor.RangeRating, BY FULL RANGE, BY FULL RANGE, BY FULL RANGE
TestParameter, Measurement.Monitor.RangeRatingCoeff, 50, 50, 50
TestParameter, Measurement.Timing.Hold, 0.5
TestParameter, Measurement.Timing.Delay, 0.05
TestParameter, Measurement.Adc.HighResolution.AutoZero, OFF
TestParameter, Measurement.Adc.HighResolution.Mode, AUTO
TestParameter, Measurement.Adc.HighResolution.Coeff, 1
TestParameter, Measurement.Ag16440ASelector.SemiconductorRelay.Channel1, DEFAULT
TestParameter, Measurement.Ag16440ASelector.SemiconductorRelay.Channel3, DEFAULT
TestParameter, Function.User.Name, absID, sqrtID, gm2, absIG
TestParameter, Function.User.Unit, A, A, A/V, A
TestParameter, Function.User.Definition, abs(ID), sqrt(abs(ID)), (delta(sqrtID)/delta(VG))^2, abs(IG)
TestParameter, Output.Graph.Enabled, true
TestParameter, Output.Graph.XAxis.Data, VG
TestParameter, Output.Graph.XAxis.Scale, Linear
TestParameter, Output.Graph.XAxis.Left, -5
TestParameter, Output.Graph.XAxis.Right, 7
TestParameter, Output.Graph.YAxis.Data, ID, absIG, gm2
TestParameter, Output.Graph.YAxis.Scale, Log, Log, Linear
TestParameter, Output.Graph.YAxis.Bottom, 1E-14, 1E-14, 0
TestParameter, Output.Graph.YAxis.Top, 0.01, 0.01, 1E-05
TestParameter, Output.Graph.YAxis.Group, , , 
TestParameter, Output.List.Data, VG, IG, VD, ID, VS, IS, sqrtID, gm2, absIG
TestParameter, AutoAnalysis.Interpolation, false
TestParameter, AutoAnalysis.Line1.Enabled, false
TestParameter, AutoAnalysis.Line1.Type, 1
TestParameter, AutoAnalysis.Line1.Fix, True
TestParameter, AutoAnalysis.Line1.YAxis, 0
TestParameter, AutoAnalysis.Line1.Point1.Type, 0
TestParameter, AutoAnalysis.Line1.Point1.XY.X, 
TestParameter, AutoAnalysis.Line1.Point1.XY.Y, 
TestParameter, AutoAnalysis.Line1.Point1.Data.Var, 
TestParameter, AutoAnalysis.Line1.Point1.Data.Condition, 
TestParameter, AutoAnalysis.Line1.Point1.Data.Start, false
TestParameter, AutoAnalysis.Line1.Point1.Data.StartVar, 
TestParameter, AutoAnalysis.Line1.Point1.Data.StartCondition, 
TestParameter, AutoAnalysis.Line1.Point2.Type, 0
TestParameter, AutoAnalysis.Line1.Point2.XY.X, 
TestParameter, AutoAnalysis.Line1.Point2.XY.Y, 
TestParameter, AutoAnalysis.Line1.Point2.Data.Var, 
TestParameter, AutoAnalysis.Line1.Point2.Data.Condition, 
TestParameter, AutoAnalysis.Line1.Point2.Data.Start, false
TestParameter, AutoAnalysis.Line1.Point2.Data.StartVar, 
TestParameter, AutoAnalysis.Line1.Point2.Data.StartCondition, 
TestParameter, AutoAnalysis.Line1.GradientExpr, 0
TestParameter, AutoAnalysis.Line2.Enabled, false
TestParameter, AutoAnalysis.Line2.Type, 1
TestParameter, AutoAnalysis.Line2.Fix, True
TestParameter, AutoAnalysis.Line2.YAxis, 0
TestParameter, AutoAnalysis.Line2.Point1.Type, 0
TestParameter, AutoAnalysis.Line2.Point1.XY.X, 
TestParameter, AutoAnalysis.Line2.Point1.XY.Y, 
TestParameter, AutoAnalysis.Line2.Point1.Data.Var, 
TestParameter, AutoAnalysis.Line2.Point1.Data.Condition, 
TestParameter, AutoAnalysis.Line2.Point1.Data.Start, false
TestParameter, AutoAnalysis.Line2.Point1.Data.StartVar, 
TestParameter, AutoAnalysis.Line2.Point1.Data.StartCondition, 
TestParameter, AutoAnalysis.Line2.Point2.Type, 0
TestParameter, AutoAnalysis.Line2.Point2.XY.X, 
TestParameter, AutoAnalysis.Line2.Point2.XY.Y, 
TestParameter, AutoAnalysis.Line2.Point2.Data.Var, 
TestParameter, AutoAnalysis.Line2.Point2.Data.Condition, 
TestParameter, AutoAnalysis.Line2.Point2.Data.Start, false
TestParameter, AutoAnalysis.Line2.Point2.Data.StartVar, 
TestParameter, AutoAnalysis.Line2.Point2.Data.StartCondition, 
TestParameter, AutoAnalysis.Line2.GradientExpr, 0
TestParameter, AutoAnalysis.Marker.Enabled, false
TestParameter, AutoAnalysis.Marker.Data.Var, 
TestParameter, AutoAnalysis.Marker.Data.Condition, 
TestParameter, AutoAnalysis.Marker.Data.Start, false
TestParameter, AutoAnalysis.Marker.Data.StartVar, 
TestParameter, AutoAnalysis.Marker.Data.StartCondition, 
MetaData, TestRecord.EntryPoint, true
MetaData, TestRecord.RecordTime, 06/18/2019 14:39:35
MetaData, TestRecord.TestTarget, 5-14
MetaData, TestRecord.IterationIndex, 3
MetaData, TestRecord.Preservation, true
MetaData, TestRecord.Flag, 
MetaData, TestRecord.Remarks, some leak
MetaData, TestRecord.LinkKey, a49c792c-9295-4938-96e8-43b514adb518
Dimension1, 101, 101, 101, 101, 101, 101, 101, 101, 101, 101
Dimension2, 1, 1, 1, 1, 1, 1, 1, 1, 1, 1
DataName, VG, VD, VS, ID, IS, IG, absID, sqrtID, gm2, absIG
DataValue, -2, 3, 0, 9.5798E-11, 3.23732E-07, -2.31282E-07, 9.5798E-11, 9.7876452735068E-06, 1.2469080503694981E-11, 2.31282E-07
DataValue, -1.9500000000000002, 3, 0, 9.2373000000000013E-11, 2.55832E-07, -2.2944E-07, 9.2373000000000013E-11, 9.611087347433692E-06, 1.4691499170747707E-12, 2.2944E-07
DataValue, -1.9000000000000001, 3, 0, 9.344E-11, 2.1792099999999998E-07, -2.0645E-07, 9.344E-11, 9.6664367788756581E-06, 2.5923570489128657E-12, 2.0645E-07
DataValue, -1.85, 3, 0, 8.9304000000000013E-11, 1.78829E-07, -1.91844E-07, 8.9304000000000013E-11, 9.4500793647460976E-06, 3.302465275179205E-14, 1.91844E-07
DataValue, -1.8, 3, 0, 9.3089E-11, 2.13569E-07, -1.95211E-07, 9.3089E-11, 9.6482640925712638E-06, 4.3424934461976587E-11, 1.95211E-07
DataValue, -1.75, 3, 0, 1.0219300000000001E-10, 1.86026E-07, -1.8120399999999999E-07, 1.0219300000000001E-10, 1.0109055346569234E-05, 2.05304754545091E-10, 1.8120399999999999E-07
DataValue, -1.7000000000000002, 3, 0, 1.22791E-10, 1.78959E-07, -1.8249E-07, 1.22791E-10, 1.1081110052697789E-05, 6.4089649958939463E-10, 1.8249E-07
DataValue, -1.6500000000000001, 3, 0, 1.5978600000000002E-10, 1.67296E-07, -1.63212E-07, 1.5978600000000002E-10, 1.2640648717530283E-05, 1.7394270914244978E-09, 1.63212E-07
DataValue, -1.6, 3, 0, 2.32616E-10, 1.53633E-07, -1.53342E-07, 2.32616E-10, 1.5251753997491567E-05, 3.7923193638665888E-09, 1.53342E-07
DataValue, -1.55, 3, 0, 3.53396E-10, 1.36391E-07, -1.43734E-07, 3.53396E-10, 1.8798829750811617E-05, 7.2346352335928034E-09, 1.43734E-07
DataValue, -1.5, 3, 0, 5.6441500000000006E-10, 1.37077E-07, -1.26798E-07, 5.6441500000000006E-10, 2.3757419893582723E-05, 1.24365539131487E-08, 1.26798E-07
DataValue, -1.4500000000000002, 3, 0, 8.9704800000000011E-10, 1.0557699999999999E-07, -1.05582E-07, 8.9704800000000011E-10, 2.9950759589699892E-05, 1.6881686025102127E-08, 1.05582E-07
DataValue, -1.4000000000000001, 3, 0, 1.35059E-09, 9.6880899999999987E-08, -9.0768299999999986E-08, 1.35059E-09, 3.6750374147755284E-05, 3.0947328758725009E-08, 9.0768299999999986E-08
DataValue, -1.35, 3, 0, 2.2603E-09, 8.0437699999999992E-08, -8.38086E-08, 2.2603E-09, 4.7542612465029728E-05, 5.2705056077367936E-08, 8.38086E-08
DataValue, -1.3, 3, 0, 3.56504E-09, 7.61401E-08, -8.5598799999999987E-08, 3.56504E-09, 5.970795591878858E-05, 7.042772143705302E-08, 8.5598799999999987E-08
DataValue, -1.25, 3, 0, 5.48797E-09, 7.2924599999999991E-08, -7.75638E-08, 5.48797E-09, 7.408083422856414E-05, 9.566720480792556E-08, 7.75638E-08
DataValue, -1.2, 3, 0, 8.21526E-09, 5.0808999999999995E-08, -5.7093599999999993E-08, 8.21526E-09, 9.0638071471098715E-05, 9.7840711171326025E-08, 5.7093599999999993E-08
DataValue, -1.1500000000000001, 3, 0, 1.1100799999999999E-08, 3.90827E-08, -4.95357E-08, 1.1100799999999999E-08, 0.00010536033409210508, 1.4562320522608115E-07, 4.95357E-08
DataValue, -1.1, 3, 0, 1.65891E-08, 2.61208E-08, -4.3359199999999996E-08, 1.65891E-08, 0.00012879868011746084, 2.3717258657438242E-07, 4.3359199999999996E-08
DataValue, -1.05, 3, 0, 2.3734699999999997E-08, 1.57387E-08, -3.8044899999999995E-08, 2.3734699999999997E-08, 0.00015406070232216909, 2.7722478113818545E-07, 3.8044899999999995E-08
DataValue, -1, 3, 0, 3.29244E-08, 1.43896E-09, -3.3081E-08, 3.29244E-08, 0.00018145081978321288, 2.918425550462164E-07, 3.3081E-08
DataValue, -0.95000000000000007, 3, 0, 4.3298599999999994E-08, -1.3067999999999998E-08, -2.8270699999999996E-08, 4.3298599999999994E-08, 0.00020808315645433678, 3.5140869801352387E-07, 2.8270699999999996E-08
DataValue, -0.9, 3, 0, 5.7951199999999992E-08, -3.2224199999999995E-08, -2.5067099999999998E-08, 5.7951199999999992E-08, 0.00024073055477026589, 4.86223527596969E-07, 2.5067099999999998E-08
DataValue, -0.85000000000000009, 3, 0, 7.718E-08, -5.4468699999999993E-08, -2.16311E-08, 7.718E-08, 0.00027781288667014708, 5.8727311700531743E-07, 2.16311E-08
DataValue, -0.8, 3, 0, 1.007201E-07, -8.0237499999999993E-08, -1.9872499999999998E-08, 1.007201E-07, 0.0003173643017101955, 5.2386457538879311E-07, 1.9872499999999998E-08
DataValue, -0.75, 3, 0, 1.2263399999999999E-07, -1.044595E-07, -1.6514599999999998E-08, 1.2263399999999999E-07, 0.00035019137625018695, 6.2691962081575414E-07, 1.6514599999999998E-08
DataValue, -0.70000000000000007, 3, 0, 1.57246E-07, -1.37454E-07, -1.4781999999999998E-08, 1.57246E-07, 0.00039654255761519469, 8.6465668153824681E-07, 1.4781999999999998E-08
DataValue, -0.65, 3, 0, 1.96407E-07, -1.83255E-07, -1.0575699999999999E-08, 1.96407E-07, 0.00044317829369227912, 9.7207348830109114E-07, 1.0575699999999999E-08
DataValue, -0.6, 3, 0, 2.4516E-07, -2.32338E-07, -9.56491E-09, 2.4516E-07, 0.00049513634485866622, 9.5965864895046967E-07, 9.56491E-09
DataValue, -0.55, 3, 0, 2.92833E-07, -2.81697E-07, -7.48112E-09, 2.92833E-07, 0.00054114046235704833, 1.0059005088706833E-06, 7.48112E-09
DataValue, -0.5, 3, 0, 3.54538E-07, -3.4354199999999997E-07, -7.52801E-09, 3.54538E-07, 0.00059543093638137411, 1.2290517214081383E-06, 7.52801E-09
DataValue, -0.45, 3, 0, 4.2510799999999997E-07, -4.1490299999999997E-07, -5.70172E-09, 4.2510799999999997E-07, 0.00065200306747744676, 1.3254456048377525E-06, 5.70172E-09
DataValue, -0.4, 3, 0, 5.04894E-07, -4.96407E-07, -3.47675E-09, 5.04894E-07, 0.00071055893492376831, 1.4268947355473585E-06, 3.47675E-09
DataValue, -0.35000000000000003, 3, 0, 5.95144E-07, -5.86664E-07, -2.69232E-09, 5.95144E-07, 0.00077145576671640737, 1.5002840251139493E-06, 2.69232E-09
DataValue, -0.3, 3, 0, 6.93964E-07, -6.85957E-07, -1.95376E-09, 6.93964E-07, 0.00083304501679080944, 1.5959229089741469E-06, 1.95376E-09
DataValue, -0.25, 3, 0, 8.06019E-07, -7.98548E-07, -1.2217E-09, 8.06019E-07, 0.00089778560915176181, 1.734721796174972E-06, 1.2217E-09
DataValue, -0.2, 3, 0, 9.3074999999999994E-07, -9.22541E-07, -7.7533100000000006E-10, 9.3074999999999994E-07, 0.00096475385461785017, 1.6441679357615677E-06, 7.7533100000000006E-10
DataValue, -0.15, 3, 0, 1.052698E-06, -1.045166E-06, -4.7885100000000007E-10, 1.052698E-06, 0.0010260107211915478, 1.3434659741916236E-06, 4.7885100000000007E-10
DataValue, -0.1, 3, 0, 1.16783E-06, -1.1549300000000001E-06, -2.8476400000000004E-10, 1.16783E-06, 0.0010806618342478836, 1.4273489472749965E-06, 2.8476400000000004E-10
DataValue, -0.05, 3, 0, 1.31213E-06, -1.3051600000000002E-06, -1.0892200000000001E-10, 1.31213E-06, 0.0011454824311179985, 1.99737013111293E-06, 1.0892200000000001E-10
DataValue, 0, 3, 0, 1.4932600000000001E-06, -1.4859900000000002E-06, 4.9020000000000007E-12, 1.4932600000000001E-06, 0.0012219901799932764, 2.2916818942353923E-06, 4.9020000000000007E-12
DataValue, 0.05, 3, 0, 1.6818600000000001E-06, -1.67418E-06, 1.12424E-10, 1.6818600000000001E-06, 0.0012968654517720795, 2.281947601256883E-06, 1.12424E-10
DataValue, 0.1, 3, 0, 1.8852700000000002E-06, -1.8768400000000002E-06, 3.13393E-10, 1.8852700000000002E-06, 0.0013730513464543124, 2.3542151068353212E-06, 3.13393E-10
DataValue, 0.15, 3, 0, 2.10337E-06, -2.09444E-06, 8.1854700000000011E-10, 2.10337E-06, 0.0014502999689719365, 2.3317573111563095E-06, 8.1854700000000011E-10
DataValue, 0.2, 3, 0, 2.3279200000000003E-06, -2.31886E-06, 1.22132E-09, 2.3279200000000003E-06, 0.0015257522734703692, 2.2995478675807722E-06, 1.22132E-09
DataValue, 0.25, 3, 0, 2.5662200000000002E-06, -2.55836E-06, 1.65786E-09, 2.5662200000000002E-06, 0.0016019425707558934, 2.5906375912245238E-06, 1.65786E-09
DataValue, 0.3, 3, 0, 2.84498E-06, -2.8361200000000004E-06, 2.01496E-09, 2.84498E-06, 0.0016867068506412133, 2.8685410604720455E-06, 2.01496E-09
DataValue, 0.35000000000000003, 3, 0, 3.1375400000000003E-06, -3.12784E-06, 2.963E-09, 3.1375400000000003E-06, 0.0017713102495045864, 2.8524772115862652E-06, 2.963E-09
DataValue, 0.4, 3, 0, 3.4432500000000004E-06, -3.4330400000000003E-06, 3.78082E-09, 3.4432500000000004E-06, 0.0018555996335416756, 2.8691448295826156E-06, 3.78082E-09
DataValue, 0.45, 3, 0, 3.7663000000000003E-06, -3.7575500000000006E-06, 5.18341E-09, 3.7663000000000003E-06, 0.0019406957515283019, 2.8991219674497754E-06, 5.18341E-09
DataValue, 0.5, 3, 0, 4.1041400000000005E-06, -4.09628E-06, 6.58645E-09, 4.1041400000000005E-06, 0.0020258677153259541, 2.9201418574355921E-06, 6.58645E-09
DataValue, 0.55, 3, 0, 4.4587700000000008E-06, -4.45141E-06, 7.86361E-09, 4.4587700000000008E-06, 0.0021115799771734911, 2.7313080165888716E-06, 7.86361E-09
DataValue, 0.6, 3, 0, 4.80107E-06, -4.81766E-06, 1.113697E-08, 4.80107E-06, 0.0021911344093870646, 2.9417945525365463E-06, 1.113697E-08
DataValue, 0.65, 3, 0, 5.2125300000000009E-06, -5.2070300000000007E-06, 1.27227E-08, 5.2125300000000009E-06, 0.00228309658139992, 3.1475609975676951E-06, 1.27227E-08
DataValue, 0.70000000000000007, 3, 0, 5.61002E-06, -5.6070600000000007E-06, 1.63491E-08, 5.61002E-06, 0.0023685480784649488, 3.1246655712062941E-06, 1.63491E-08
DataValue, 0.75, 3, 0, 6.05093E-06, -6.0503200000000009E-06, 2.0814199999999998E-08, 6.05093E-06, 0.0024598638173687582, 3.3045158181145009E-06, 2.0814199999999998E-08
DataValue, 0.8, 3, 0, 6.5041900000000005E-06, -6.5048200000000005E-06, 2.0743499999999996E-08, 6.5041900000000005E-06, 0.0025503313510208828, 3.2944117979970451E-06, 2.0743499999999996E-08
DataValue, 0.85000000000000009, 3, 0, 6.9768300000000011E-06, -6.9752400000000008E-06, 2.4053599999999996E-08, 6.9768300000000011E-06, 0.0026413689632461424, 3.3012542134720551E-06, 2.4053599999999996E-08
DataValue, 0.9, 3, 0, 7.4639600000000006E-06, -7.4674900000000011E-06, 2.7365199999999998E-08, 7.4639600000000006E-06, 0.0027320248900769553, 3.2762502934509911E-06, 2.7365199999999998E-08
DataValue, 0.95000000000000007, 3, 0, 7.96579E-06, -7.96884E-06, 3.07683E-08, 7.96579E-06, 0.0028223731149513171, 3.2827888317206692E-06, 3.07683E-08
DataValue, 1, 3, 0, 8.48679E-06, -8.49245E-06, 3.48061E-08, 8.48679E-06, 0.0029132095702163277, 3.269232702713739E-06, 3.48061E-08
DataValue, 1.05, 3, 0, 9.01911E-06, -9.03146E-06, 3.9203699999999995E-08, 9.01911E-06, 0.0030031833110884193, 3.2559896421177187E-06, 3.9203699999999995E-08
DataValue, 1.1, 3, 0, 9.57069E-06, -9.5864100000000009E-06, 4.5505299999999993E-08, 9.57069E-06, 0.0030936531803031834, 3.2769336103989822E-06, 4.5505299999999993E-08
DataValue, 1.1500000000000001, 3, 0, 1.013917E-05, -1.016227E-05, 5.3886E-08, 1.013917E-05, 0.003184206337535305, 3.2880855084054114E-06, 5.3886E-08
DataValue, 1.2, 3, 0, 1.072552E-05, -1.0753450000000001E-05, 5.8893199999999994E-08, 1.072552E-05, 0.0032749839694264154, 3.2746818474327445E-06, 5.8893199999999994E-08
DataValue, 1.25, 3, 0, 1.1324350000000001E-05, -1.1346690000000002E-05, 5.6605099999999995E-08, 1.1324350000000001E-05, 0.0033651671578095494, 2.7964074839943186E-06, 5.6605099999999995E-08
DataValue, 1.3, 3, 0, 1.18488E-05, -1.18517E-05, 5.2307099999999992E-08, 1.18488E-05, 0.0034422085933307413, 2.8135141482335714E-06, 5.2307099999999992E-08
DataValue, 1.35, 3, 0, 1.24814E-05, -1.25022E-05, 5.1370099999999995E-08, 1.24814E-05, 0.0035329024894553769, 3.2999173487479561E-06, 5.1370099999999995E-08
DataValue, 1.4000000000000001, 3, 0, 1.31324E-05, -1.3152300000000001E-05, 5.0507799999999994E-08, 1.31324E-05, 0.0036238653396615055, 3.3428386742293942E-06, 5.0507799999999994E-08
DataValue, 1.4500000000000002, 3, 0, 1.3806700000000001E-05, -1.38241E-05, 5.0999999999999993E-08, 1.3806700000000001E-05, 0.0037157368044574957, 3.3531136578890615E-06, 5.0999999999999993E-08
DataValue, 1.5, 3, 0, 1.44931E-05, -1.4508E-05, 5.1353799999999994E-08, 1.44931E-05, 0.0038069804307350992, 3.3191636260023352E-06, 5.1353799999999994E-08
DataValue, 1.55, 3, 0, 1.51938E-05, -1.5208900000000001E-05, 5.2326799999999992E-08, 1.51938E-05, 0.0038979225236015144, 3.2738858834174757E-06, 5.2326799999999992E-08
DataValue, 1.6, 3, 0, 1.59035E-05, -1.59233E-05, 5.7347499999999991E-08, 1.59035E-05, 0.0039879192569559378, 3.2441852958179059E-06, 5.7347499999999991E-08
DataValue, 1.6500000000000001, 3, 0, 1.66304E-05, -1.66522E-05, 6.01212E-08, 1.66304E-05, 0.0040780387442985386, 3.2358944513751705E-06, 6.01212E-08
DataValue, 1.7000000000000002, 3, 0, 1.73706E-05, -1.73926E-05, 6.1210299999999993E-08, 1.73706E-05, 0.0041678051777884247, 3.2311540479184708E-06, 6.1210299999999993E-08
DataValue, 1.75, 3, 0, 1.81288E-05, -1.81498E-05, 6.6767899999999987E-08, 1.81288E-05, 0.00425779285545927, 3.1925169340743713E-06, 6.6767899999999987E-08
DataValue, 1.8, 3, 0, 1.88919E-05, -1.8921500000000002E-05, 6.73878E-08, 1.88919E-05, 0.0043464813355172712, 3.1353443656991408E-06, 6.73878E-08
DataValue, 1.85, 3, 0, 1.9668000000000002E-05, -1.97015E-05, 7.2283099999999992E-08, 1.9668000000000002E-05, 0.004434861891874425, 3.1341389749879186E-06, 7.2283099999999992E-08
DataValue, 1.9000000000000001, 3, 0, 2.0462200000000002E-05, -2.04928E-05, 6.85086E-08, 2.0462200000000002E-05, 0.0045235163313510872, 3.1422324204359082E-06, 6.85086E-08
DataValue, 1.9500000000000002, 3, 0, 2.12717E-05, -2.12974E-05, 6.7389199999999993E-08, 2.12717E-05, 0.0046121253235357779, 3.1030185860976896E-06, 6.7389199999999993E-08
DataValue, 2, 3, 0, 2.20869E-05, -2.2111100000000002E-05, 7.77222E-08, 2.20869E-05, 0.0046996702011949734, 3.0648076265519137E-06, 7.77222E-08
DataValue, 2.05, 3, 0, 2.29172E-05, -2.29428E-05, 7.0525199999999989E-08, 2.29172E-05, 0.0047871912433075, 3.0280954567869511E-06, 7.0525199999999989E-08
DataValue, 2.1, 3, 0, 2.37528E-05, -2.37758E-05, 6.62467E-08, 2.37528E-05, 0.0048736844378765437, 3.0110728107696511E-06, 6.62467E-08
DataValue, 2.15, 3, 0, 2.46087E-05, -2.463E-05, 6.428439999999999E-08, 2.46087E-05, 0.0049607156741744429, 2.9952183892731438E-06, 6.428439999999999E-08
DataValue, 2.2, 3, 0, 2.54697E-05, -2.54925E-05, 7.1401399999999987E-08, 2.54697E-05, 0.0050467514303757822, 2.9662122874465946E-06, 7.1401399999999987E-08
DataValue, 2.25, 3, 0, 2.63471E-05, -2.63826E-05, 8.74564E-08, 2.63471E-05, 0.0051329426258239046, 2.9548860571883293E-06, 8.74564E-08
DataValue, 2.3000000000000003, 3, 0, 2.72343E-05, -2.72752E-05, 8.3192599999999988E-08, 2.72343E-05, 0.0052186492505245071, 2.9131245417293526E-06, 8.3192599999999988E-08
