
SetupTitle, Transfer sat
PrimitiveTest, I/V Sweep
TestParameter, Context.MainFrame, 4155C
TestParameter, Channel.UnitType, SMU, SMU, SMU
TestParameter, Channel.Unit, SMU3:MP, SMU4:MP, SMU1:MP
TestParameter, Channel.IName, IS, ID, IG
TestParameter, Channel.VName, VS, VD, VG
TestParameter, Channel.Mode, COMMON, V, V
TestParameter, Channel.Func, CONST, CONST, VAR1
TestParameter, Channel.Index, 
TestParameter, Channel.Time, 
TestParameter, Measurement.Port.Unit, SMU3:MP, SMU4:MP, SMU1:MP
TestParameter, Measurement.Port.SeriesResistor, NONE, NONE, NONE
TestParameter, Measurement.Port.Filter, ON, ON, ON
TestParameter, Measurement.Primary.Locus, Double
TestParameter, Measurement.Primary.Scale, LINEAR
TestParameter, Measurement.Primary.Start, -2
TestParameter, Measurement.Primary.Stop, 3
TestParameter, Measurement.Primary.Step, 0.05
TestParameter, Measurement.Primary.Compliance, 0.001
TestParameter, Measurement.Primary.PowerCompliance, 0
TestParameter, Measurement.Aborting.Condition, CONTINUE AT ANY
TestParameter, Measurement.PostOutput.Value, START
TestParameter, Measurement.PostOutput.Retention, OFF
TestParameter, Measurement.Bias.Source, 0, 5, -2
TestParameter, Measurement.Bias.Compliance, 0.1, 0.001, 0.001
TestParameter, Measurement.Monitor.Unit, SMU4:MP, SMU3:MP, SMU1:MP
TestParameter, Measurement.Monitor.Adc, HR ADC, HR ADC, HR ADC
TestParameter, Measurement.Monitor.RangingMode, AUTO, AUTO, AUTO
TestParameter, Measurement.Monitor.RangeBoundary, , , 
TestParameter, Measurement.Monitor.RangeRating, BY FULL RANGE, BY FULL RANGE, BY FULL RANGE
TestParameter, Measurement.Monitor.RangeRatingCoeff, 50, 50, 50
TestParameter, Measurement.Timing.Hold, 0.5
TestParameter, Measurement.Timing.Delay, 0.05
TestParameter, Measurement.Adc.HighResolution.AutoZero, OFF
TestParameter, Measurement.Adc.HighResolution.Mode, AUTO
TestParameter, Measurement.Adc.HighResolution.Coeff, 1
TestParameter, Measurement.Ag16440ASelector.SemiconductorRelay.Channel1, DEFAULT
TestParameter, Measurement.Ag16440ASelector.SemiconductorRelay.Channel3, DEFAULT
TestParameter, Function.User.Name, absID, sqrtID, gm2, absIG
TestParameter, Function.User.Unit, A, A, A/V, A
TestParameter, Function.User.Definition, abs(ID), sqrt(abs(ID)), (delta(sqrtID)/delta(VG))^2, abs(IG)
TestParameter, Output.Graph.Enabled, true
TestParameter, Output.Graph.XAxis.Data, VG
TestParameter, Output.Graph.XAxis.Scale, Linear
TestParameter, Output.Graph.XAxis.Left, -5
TestParameter, Output.Graph.XAxis.Right, 7
TestParameter, Output.Graph.YAxis.Data, ID, absIG, gm2
TestParameter, Output.Graph.YAxis.Scale, Log, Log, Linear
TestParameter, Output.Graph.YAxis.Bottom, 1E-14, 1E-14, 0
TestParameter, Output.Graph.YAxis.Top, 0.01, 0.01, 1E-05
TestParameter, Output.Graph.YAxis.Group, , , 
TestParameter, Output.List.Data, VG, IG, VD, ID, VS, IS, sqrtID, gm2, absIG
TestParameter, AutoAnalysis.Interpolation, false
TestParameter, AutoAnalysis.Line1.Enabled, false
TestParameter, AutoAnalysis.Line1.Type, 1
TestParameter, AutoAnalysis.Line1.Fix, True
TestParameter, AutoAnalysis.Line1.YAxis, 0
TestParameter, AutoAnalysis.Line1.Point1.Type, 0
TestParameter, AutoAnalysis.Line1.Point1.XY.X, 
TestParameter, AutoAnalysis.Line1.Point1.XY.Y, 
TestParameter, AutoAnalysis.Line1.Point1.Data.Var, 
TestParameter, AutoAnalysis.Line1.Point1.Data.Condition, 
TestParameter, AutoAnalysis.Line1.Point1.Data.Start, false
TestParameter, AutoAnalysis.Line1.Point1.Data.StartVar, 
TestParameter, AutoAnalysis.Line1.Point1.Data.StartCondition, 
TestParameter, AutoAnalysis.Line1.Point2.Type, 0
TestParameter, AutoAnalysis.Line1.Point2.XY.X, 
TestParameter, AutoAnalysis.Line1.Point2.XY.Y, 
TestParameter, AutoAnalysis.Line1.Point2.Data.Var, 
TestParameter, AutoAnalysis.Line1.Point2.Data.Condition, 
TestParameter, AutoAnalysis.Line1.Point2.Data.Start, false
TestParameter, AutoAnalysis.Line1.Point2.Data.StartVar, 
TestParameter, AutoAnalysis.Line1.Point2.Data.StartCondition, 
TestParameter, AutoAnalysis.Line1.GradientExpr, 0
TestParameter, AutoAnalysis.Line2.Enabled, false
TestParameter, AutoAnalysis.Line2.Type, 1
TestParameter, AutoAnalysis.Line2.Fix, True
TestParameter, AutoAnalysis.Line2.YAxis, 0
TestParameter, AutoAnalysis.Line2.Point1.Type, 0
TestParameter, AutoAnalysis.Line2.Point1.XY.X, 
TestParameter, AutoAnalysis.Line2.Point1.XY.Y, 
TestParameter, AutoAnalysis.Line2.Point1.Data.Var, 
TestParameter, AutoAnalysis.Line2.Point1.Data.Condition, 
TestParameter, AutoAnalysis.Line2.Point1.Data.Start, false
TestParameter, AutoAnalysis.Line2.Point1.Data.StartVar, 
TestParameter, AutoAnalysis.Line2.Point1.Data.StartCondition, 
TestParameter, AutoAnalysis.Line2.Point2.Type, 0
TestParameter, AutoAnalysis.Line2.Point2.XY.X, 
TestParameter, AutoAnalysis.Line2.Point2.XY.Y, 
TestParameter, AutoAnalysis.Line2.Point2.Data.Var, 
TestParameter, AutoAnalysis.Line2.Point2.Data.Condition, 
TestParameter, AutoAnalysis.Line2.Point2.Data.Start, false
TestParameter, AutoAnalysis.Line2.Point2.Data.StartVar, 
TestParameter, AutoAnalysis.Line2.Point2.Data.StartCondition, 
TestParameter, AutoAnalysis.Line2.GradientExpr, 0
TestParameter, AutoAnalysis.Marker.Enabled, false
TestParameter, AutoAnalysis.Marker.Data.Var, 
TestParameter, AutoAnalysis.Marker.Data.Condition, 
TestParameter, AutoAnalysis.Marker.Data.Start, false
TestParameter, AutoAnalysis.Marker.Data.StartVar, 
TestParameter, AutoAnalysis.Marker.Data.StartCondition, 
MetaData, TestRecord.EntryPoint, true
MetaData, TestRecord.RecordTime, 06/18/2019 15:11:06
MetaData, TestRecord.TestTarget, 4-35
MetaData, TestRecord.IterationIndex, 1
MetaData, TestRecord.Preservation, true
MetaData, TestRecord.Flag, 
MetaData, TestRecord.Remarks, good
MetaData, TestRecord.LinkKey, 6c4465b7-e320-4fc3-ad96-57465a328742
Dimension1, 202, 202, 202, 202, 202, 202, 202, 202, 202, 202
Dimension2, 1, 1, 1, 1, 1, 1, 1, 1, 1, 1
DataName, VG, VS, VD, ID, IS, IG, absID, sqrtID, gm2, absIG
DataValue, -2, 0, 5, 4.5690000000000004E-12, 4.95E-13, -2.8090000000000002E-12, 4.5690000000000004E-12, 2.1375219297120672E-06, 1.4043673000550685E-10, 2.8090000000000002E-12
DataValue, -1.9500000000000002, 0, 5, 2.3870000000000002E-12, 3.6900000000000004E-13, -2.753E-12, 2.3870000000000002E-12, 1.5449919093639294E-06, 6.6488110528449843E-11, 2.753E-12
DataValue, -1.9000000000000001, 0, 5, 1.7480000000000002E-12, 3.4900000000000003E-13, -2.331E-12, 1.7480000000000002E-12, 1.3221195104830729E-06, 5.058067547969867E-14, 2.331E-12
DataValue, -1.85, 0, 5, 2.457E-12, 4.0000000000000006E-14, -2.0500000000000004E-12, 2.457E-12, 1.5674820573135759E-06, 6.6406601300997767E-12, 2.0500000000000004E-12
DataValue, -1.8, 0, 5, 1.1330000000000001E-12, 1.5850000000000002E-12, -2.114E-12, 1.1330000000000001E-12, 1.0644247272588138E-06, 2.9027407227994784E-13, 2.114E-12
DataValue, -1.75, 0, 5, 2.2910000000000002E-12, 3.18E-13, -1.719E-12, 2.2910000000000002E-12, 1.5136049682793725E-06, 1.1768693224489663E-11, 1.719E-12
DataValue, -1.7000000000000002, 0, 5, 1.981E-12, -3.26E-13, -1.471E-12, 1.981E-12, 1.4074800176201436E-06, 2.705312969209478E-11, 1.471E-12
DataValue, -1.6500000000000001, 0, 5, 9.8700000000000014E-13, -1.35E-13, -1.333E-12, 9.8700000000000014E-13, 9.9347873656158353E-07, 2.399769648723605E-11, 1.333E-12
DataValue, -1.6, 0, 5, 8.42E-13, -9.9000000000000007E-14, -1.512E-12, 8.42E-13, 9.17605579756357E-07, 4.54412415959436E-12, 1.512E-12
DataValue, -1.55, 0, 5, 1.456E-12, 1.5930000000000002E-12, -1.381E-12, 1.456E-12, 1.2066482503198686E-06, 5.1902000381523481E-12, 1.381E-12
DataValue, -1.5, 0, 5, 1.312E-12, 4.9E-13, -1.0100000000000001E-12, 1.312E-12, 1.1454256850621082E-06, 2.911304400666503E-11, 1.0100000000000001E-12
DataValue, -1.4500000000000002, 0, 5, 4.45E-13, -2.5100000000000004E-13, -1.1650000000000002E-12, 4.45E-13, 6.6708320320631667E-07, 7.620127722219292E-14, 1.1650000000000002E-12
DataValue, -1.4000000000000001, 0, 5, 1.3760000000000002E-12, 8.7000000000000008E-14, -9.78E-13, 1.3760000000000002E-12, 1.1730302638892146E-06, 8.94859064724542E-16, 9.78E-13
DataValue, -1.35, 0, 5, 4.4900000000000006E-13, -4.4100000000000004E-13, -7.6500000000000007E-13, 4.4900000000000006E-13, 6.7007462271003818E-07, 6.36055052798416E-11, 7.6500000000000007E-13
DataValue, -1.3, 0, 5, 1.41E-13, -8.5E-14, -1.14E-12, 1.41E-13, 3.7549966711037173E-07, 1.0680212440760627E-10, 1.14E-12
DataValue, -1.25, 0, 5, 2.9020000000000004E-12, -1.3400000000000002E-12, -8.4100000000000005E-13, 2.9020000000000004E-12, 1.7035257556021864E-06, 2.7918632895322395E-11, 8.4100000000000005E-13
DataValue, -1.2, 0, 5, 8.1700000000000005E-13, 1.4780000000000002E-12, -7.9000000000000007E-13, 8.1700000000000005E-13, 9.038805230781334E-07, 5.9494080659695663E-11, 7.9000000000000007E-13
DataValue, -1.1500000000000001, 0, 5, 8.69E-13, -5.5600000000000005E-13, -7.9000000000000007E-13, 8.69E-13, 9.3220169491371345E-07, 5.2561787309747753E-11, 7.9000000000000007E-13
DataValue, -1.1, 0, 5, -3.2E-14, 2.7700000000000003E-13, -7.5700000000000011E-13, 3.2E-14, 1.7888543819998319E-07, 1.9426173212962998E-11, 7.5700000000000011E-13
DataValue, -1.05, 0, 5, 1.885E-12, -5.611E-12, -6.0400000000000005E-13, 1.885E-12, 1.3729530217745981E-06, 2.3263181157357512E-10, 6.0400000000000005E-13
DataValue, -1, 0, 5, 2.904E-12, -2.5010000000000003E-12, -6.5000000000000006E-13, 2.904E-12, 1.7041126723312635E-06, 2.4363562270934752E-11, 6.5000000000000006E-13
DataValue, -0.95000000000000007, 0, 5, 3.484E-12, -2.9640000000000003E-12, -4.34E-13, 3.484E-12, 1.8665476152512157E-06, 1.6897898463321176E-11, 4.34E-13
DataValue, -0.9, 0, 5, 4.4740000000000005E-12, -5.2940000000000007E-12, -6.4900000000000006E-13, 4.4740000000000005E-12, 2.1151832071950648E-06, 6.16016366956349E-11, 6.4900000000000006E-13
DataValue, -0.85000000000000009, 0, 5, 7.0300000000000005E-12, -5.774E-12, -6.08E-13, 7.0300000000000005E-12, 2.6514147167125704E-06, 5.3083158887623928E-11, 6.08E-13
DataValue, -0.8, 0, 5, 8.0870000000000014E-12, -5.1970000000000006E-12, -3.9500000000000003E-13, 8.0870000000000014E-12, 2.8437651098499681E-06, 3.0627964337159163E-11, 3.9500000000000003E-13
DataValue, -0.75, 0, 5, 1.0271000000000001E-11, -1.0220000000000001E-11, -4.5400000000000003E-13, 1.0271000000000001E-11, 3.204840089614457E-06, 7.370762930574311E-11, 4.5400000000000003E-13
DataValue, -0.70000000000000007, 0, 5, 1.3707E-11, -1.3503000000000002E-11, -4.0200000000000005E-13, 1.3707E-11, 3.7022965845539714E-06, 9.1632896222010962E-11, 4.0200000000000005E-13
DataValue, -0.65, 0, 5, 1.7323E-11, -1.7243E-11, -4.96E-13, 1.7323E-11, 4.1620908207294085E-06, 1.234130808320857E-10, 4.96E-13
DataValue, -0.6, 0, 5, 2.3167000000000003E-11, -2.1337E-11, -4.3000000000000004E-13, 2.3167000000000003E-11, 4.81321098644138E-06, 1.4798181456386926E-10, 4.3000000000000004E-13
DataValue, -0.55, 0, 5, 2.8929000000000002E-11, -2.7201000000000003E-11, -2.82E-13, 2.8929000000000002E-11, 5.3785685828108581E-06, 1.2508168829556204E-10, 2.82E-13
DataValue, -0.5, 0, 5, 3.5184000000000004E-11, -3.4289E-11, -4.0300000000000005E-13, 3.5184000000000004E-11, 5.9316102366895284E-06, 1.6483052442002381E-10, 4.0300000000000005E-13
DataValue, -0.45, 0, 5, 4.4388000000000004E-11, -4.4182E-11, -3.1200000000000003E-13, 4.4388000000000004E-11, 6.662431988395829E-06, 2.3335991646551552E-10, 3.1200000000000003E-13
DataValue, -0.4, 0, 5, 5.564E-11, -5.3357000000000004E-11, -1.7400000000000002E-13, 5.564E-11, 7.459222479588607E-06, 2.3877893497264854E-10, 1.7400000000000002E-13
DataValue, -0.35000000000000003, 0, 5, 6.7366E-11, -6.6152E-11, -3.19E-13, 6.7366E-11, 8.2076793309680413E-06, 2.8237994889592305E-10, 3.19E-13
DataValue, -0.3, 0, 5, 8.3533000000000008E-11, -8.0901000000000008E-11, -2.0800000000000002E-13, 8.3533000000000008E-11, 9.1396389425403458E-06, 3.6936280013783473E-10, 2.0800000000000002E-13
DataValue, -0.25, 0, 5, 1.02608E-10, -9.9419000000000008E-11, -1.71E-13, 1.02608E-10, 1.0129560701234778E-05, 4.0575211643498919E-10, 1.71E-13
DataValue, -0.2, 0, 5, 1.2441100000000002E-10, -1.1858600000000002E-10, -1.88E-13, 1.2441100000000002E-10, 1.1153967903844802E-05, 4.5652862924833169E-10, 1.88E-13
DataValue, -0.15, 0, 5, 1.5046000000000002E-10, -1.4505800000000002E-10, -3.8100000000000004E-13, 1.5046000000000002E-10, 1.2266213759754883E-05, 5.0995938745662335E-10, 3.8100000000000004E-13
DataValue, -0.1, 0, 5, 1.79887E-10, -1.75825E-10, -3.43E-13, 1.79887E-10, 1.3412195942499498E-05, 5.69831089748118E-10, 3.43E-13
DataValue, -0.05, 0, 5, 2.1472E-10, -2.0753400000000002E-10, -2.24E-13, 2.1472E-10, 1.4653327267211363E-05, 6.46266135173669E-10, 2.24E-13
DataValue, 0, 0, 5, 2.54542E-10, -2.44893E-10, -2.7700000000000003E-13, 2.54542E-10, 1.5954372441434355E-05, 7.11693354221974E-10, 2.7700000000000003E-13
DataValue, 0.05, 0, 5, 3.0002E-10, -2.92644E-10, -6.1E-14, 3.0002E-10, 1.732108541633578E-05, 8.1612745572823108E-10, 6.1E-14
DataValue, 0.1, 0, 5, 3.5386E-10, -3.4120300000000005E-10, -6.5E-14, 3.5386E-10, 1.8811166896287961E-05, 9.5363844034939479E-10, 6.5E-14
DataValue, 0.15, 0, 5, 4.1653500000000005E-10, -4.0268000000000005E-10, -4.1E-14, 4.1653500000000005E-10, 2.0409189106870466E-05, 1.0734261262305171E-09, 4.1E-14
DataValue, 0.2, 0, 5, 4.8785700000000009E-10, -4.70395E-10, -2.9E-14, 4.8785700000000009E-10, 2.20874851443074E-05, 1.249147272188042E-09, 2.9E-14
DataValue, 0.25, 0, 5, 5.73292E-10, -5.51793E-10, -1.8000000000000002E-13, 5.73292E-10, 2.3943516867828754E-05, 1.4399087181780242E-09, 1.8000000000000002E-13
DataValue, 0.3, 0, 5, 6.6988300000000009E-10, -6.4803900000000006E-10, -1.7800000000000002E-13, 6.6988300000000009E-10, 2.5882098060242337E-05, 1.6858885189618411E-09, 1.7800000000000002E-13
DataValue, 0.35000000000000003, 0, 5, 7.8677300000000009E-10, -7.584370000000001E-10, -1.2000000000000002E-13, 7.8677300000000009E-10, 2.8049474148368631E-05, 1.6929810460651144E-09, 1.2000000000000002E-13
DataValue, 0.4, 0, 5, 8.99801E-10, -8.5988900000000011E-10, -7E-15, 8.99801E-10, 2.99966831499751E-05, 1.2533294777554597E-09, 7E-15
DataValue, 0.45, 0, 5, 9.9791E-10, -9.643999999999999E-10, -1.4500000000000001E-13, 9.9791E-10, 3.1589713515636696E-05, 2.3196220551879119E-09, 1.4500000000000001E-13
DataValue, 0.5, 0, 5, 1.21194E-09, -1.19892E-09, 1.09E-13, 1.21194E-09, 3.4812928632908781E-05, 4.45890707699184E-09, 1.09E-13
DataValue, 0.55, 0, 5, 1.46438E-09, -1.44361E-09, -4.4E-14, 1.46438E-09, 3.8267218346778224E-05, 4.80943005598187E-09, 4.4E-14
DataValue, 0.6, 0, 5, 1.74289E-09, -1.70506E-09, -2E-15, 1.74289E-09, 4.174793408062248E-05, 4.9283167656270668E-09, 2E-15
DataValue, 0.65, 0, 5, 2.05095E-09, -2.01413E-09, 1.1400000000000002E-13, 2.05095E-09, 4.528741547052558E-05, 5.1601902807150564E-09, 1.1400000000000002E-13
DataValue, 0.70000000000000007, 0, 5, 2.39428E-09, -2.35229E-09, -5.700000000000001E-14, 2.39428E-09, 4.8931380524158525E-05, 5.6440349158169038E-09, 5.700000000000001E-14
DataValue, 0.75, 0, 5, 2.78785E-09, -2.73978E-09, 1.77E-13, 2.78785E-09, 5.2800094696884777E-05, 6.3356118490587884E-09, 1.77E-13
DataValue, 0.8, 0, 5, 3.23659E-09, -3.18603E-09, 4.0000000000000006E-14, 3.23659E-09, 5.6891036200793531E-05, 7.18799581208468E-09, 4.0000000000000006E-14
DataValue, 0.85000000000000009, 0, 5, 3.75503E-09, -3.68419E-09, -8E-15, 3.75503E-09, 6.1278299584763279E-05, 7.9698939532400165E-09, 8E-15
DataValue, 0.9, 0, 5, 4.33207E-09, -4.26977E-09, 2.3000000000000003E-13, 4.33207E-09, 6.5818462455453949E-05, 8.6801695173128473E-09, 2.3000000000000003E-13
DataValue, 0.95000000000000007, 0, 5, 4.98366E-09, -4.9075E-09, 3.5E-14, 4.98366E-09, 7.0595042318848428E-05, 9.8032809190262976E-09, 3.5E-14
DataValue, 1, 0, 5, 5.73346E-09, -5.63412E-09, 8.2E-14, 5.73346E-09, 7.5719614367744908E-05, 1.0585610472335631E-08, 8.2E-14
DataValue, 1.05, 0, 5, 6.54217E-09, -6.45215E-09, 6.2E-14, 6.54217E-09, 8.0883681914215556E-05, 1.134384951674656E-08, 6.2E-14
DataValue, 1.1, 0, 5, 7.45984E-09, -7.35796E-09, -5.6E-14, 7.45984E-09, 8.6370365288100984E-05, 1.2485502309392209E-08, 5.6E-14
DataValue, 1.1500000000000001, 0, 5, 8.47459E-09, -8.33279E-09, 5E-14, 8.47459E-09, 9.2057536356346181E-05, 1.3435612170332176E-08, 5E-14
DataValue, 1.2, 0, 5, 9.59647E-09, -9.4648E-09, 9.6000000000000007E-14, 9.59647E-09, 9.7961574099235456E-05, 9.91061652387466E-09, 9.6000000000000007E-14
DataValue, 1.25, 0, 5, 1.0406599999999998E-08, -1.01537E-08, 9.1E-14, 1.0406599999999998E-08, 0.00010201274430187632, 1.2049322645990977E-08, 9.1E-14
DataValue, 1.3, 0, 5, 1.1867599999999999E-08, -1.17106E-08, 1.34E-13, 1.1867599999999999E-08, 0.00010893851476865287, 1.8466523680044395E-08, 1.34E-13
DataValue, 1.35, 0, 5, 1.3363799999999999E-08, -1.3184499999999998E-08, 4.7E-14, 1.3363799999999999E-08, 0.00011560190309852169, 1.8441790065783351E-08, 4.7E-14
DataValue, 1.4000000000000001, 0, 5, 1.5010799999999997E-08, -1.4801499999999999E-08, 1.6700000000000002E-13, 1.5010799999999997E-08, 0.00012251857002103803, 1.9466758633495091E-08, 1.6700000000000002E-13
DataValue, 1.4500000000000002, 0, 5, 1.67843E-08, -1.65915E-08, 6.8E-14, 1.67843E-08, 0.00012955423574704148, 2.0027447439408388E-08, 6.8E-14
DataValue, 1.5, 0, 5, 1.8678799999999997E-08, -1.8476099999999998E-08, -3.9000000000000004E-14, 1.8678799999999997E-08, 0.00013667040645289674, 2.2318455869120156E-08, 3.9000000000000004E-14
DataValue, 1.55, 0, 5, 2.08784E-08, -2.0617099999999997E-08, 1.6600000000000003E-13, 2.08784E-08, 0.00014449359847411926, 2.2916978673486083E-08, 1.6600000000000003E-13
DataValue, 1.6, 0, 5, 2.3045899999999998E-08, -2.27735E-08, 1.8000000000000002E-14, 2.3045899999999998E-08, 0.00015180876127549424, 2.333155807784402E-08, 1.8000000000000002E-14
DataValue, 1.6500000000000001, 0, 5, 2.5525899999999998E-08, -2.5261599999999996E-08, 1.9000000000000002E-13, 2.5525899999999998E-08, 0.00015976826969082441, 2.6581066898091368E-08, 1.9000000000000002E-13
DataValue, 1.7000000000000002, 0, 5, 2.8261799999999998E-08, -2.79161E-08, 1.7400000000000002E-13, 2.8261799999999998E-08, 0.00016811246235779191, 2.6855432437070569E-08, 1.7400000000000002E-13
DataValue, 1.75, 0, 5, 3.1030899999999996E-08, -3.0606199999999994E-08, -2.2E-14, 3.1030899999999996E-08, 0.00017615589686411295, 2.8034236307860716E-08, 2.2E-14
DataValue, 1.8, 0, 5, 3.4171699999999994E-08, -3.37501E-08, 1.6600000000000003E-13, 3.4171699999999994E-08, 0.00018485588981690572, 2.8881515873977692E-08, 1.6600000000000003E-13
DataValue, 1.85, 0, 5, 3.7307099999999997E-08, -3.6892599999999996E-08, 3.4E-14, 3.7307099999999997E-08, 0.00019315045948689843, 2.9094842331814317E-08, 3.4E-14
DataValue, 1.9000000000000001, 0, 5, 4.0768899999999994E-08, -4.02393E-08, 8.0000000000000013E-14, 4.0768899999999994E-08, 0.00020191310011982876, 3.2141181999550935E-08, 8.0000000000000013E-14
DataValue, 1.9500000000000002, 0, 5, 4.4554099999999995E-08, -4.40086E-08, 1.16E-13, 4.4554099999999995E-08, 0.00021107842144567975, 3.3604523379674954E-08, 1.16E-13
DataValue, 2, 0, 5, 4.85077E-08, -4.7869599999999996E-08, -5.3E-14, 4.85077E-08, 0.00022024463671108997, 3.3880492332176611E-08, 5.3E-14
DataValue, 2.05, 0, 5, 5.2663399999999995E-08, -5.2098699999999993E-08, 1.25E-13, 5.2663399999999995E-08, 0.00022948507576746685, 3.6487742515382073E-08, 1.25E-13
DataValue, 2.1, 0, 5, 5.7286699999999992E-08, -5.6667399999999996E-08, -8.6000000000000012E-14, 5.7286699999999992E-08, 0.00023934640168592466, 3.8852477250262885E-08, 8.6000000000000012E-14
DataValue, 2.15, 0, 5, 6.2098699999999989E-08, -6.1353E-08, 6.0000000000000009E-14, 6.2098699999999989E-08, 0.00024919610751374105, 3.7659993250607458E-08, 6.0000000000000009E-14
DataValue, 2.2, 0, 5, 6.69529E-08, -6.63209E-08, 1.24E-13, 6.69529E-08, 0.000258752584528155, 3.9577227385673682E-08, 1.24E-13
DataValue, 2.25, 0, 5, 7.24095E-08, -7.16617E-08, -6.7E-14, 7.24095E-08, 0.00026909013359839113, 4.2625960404519716E-08, 6.7E-14
DataValue, 2.3000000000000003, 0, 5, 7.80636E-08, -7.718629999999999E-08, 1.12E-13, 7.80636E-08, 0.00027939863993942419, 4.376840850299823E-08, 1.12E-13
