
SetupTitle, Transfer stab
PrimitiveTest, I/V Sweep
TestParameter, Context.MainFrame, 4155C
TestParameter, Channel.UnitType, SMU, SMU, SMU
TestParameter, Channel.Unit, SMU3:MP, SMU4:MP, SMU1:MP
TestParameter, Channel.IName, ID, IS, IG
TestParameter, Channel.VName, VD, VS, VG
TestParameter, Channel.Mode, V, COMMON, V
TestParameter, Channel.Func, CONST, CONST, VAR1
TestParameter, Channel.Index, 
TestParameter, Channel.Time, 
TestParameter, Measurement.Port.Unit, SMU3:MP, SMU4:MP, SMU1:MP
TestParameter, Measurement.Port.SeriesResistor, NONE, NONE, NONE
TestParameter, Measurement.Port.Filter, ON, ON, ON
TestParameter, Measurement.Primary.Locus, Single
TestParameter, Measurement.Primary.Scale, LINEAR
TestParameter, Measurement.Primary.Start, -2
TestParameter, Measurement.Primary.Stop, 3
TestParameter, Measurement.Primary.Step, 0.05
TestParameter, Measurement.Primary.Compliance, 0.1
TestParameter, Measurement.Primary.PowerCompliance, 0
TestParameter, Measurement.Aborting.Condition, CONTINUE AT ANY
TestParameter, Measurement.PostOutput.Value, START
TestParameter, Measurement.PostOutput.Retention, OFF
TestParameter, Measurement.Bias.Source, 3, 0, -2
TestParameter, Measurement.Bias.Compliance, 0.1, 0.1, 0.1
TestParameter, Measurement.Monitor.Unit, SMU3:MP, SMU4:MP, SMU1:MP
TestParameter, Measurement.Monitor.Adc, HR ADC, HR ADC, HR ADC
TestParameter, Measurement.Monitor.RangingMode, AUTO, AUTO, AUTO
TestParameter, Measurement.Monitor.RangeBoundary, , , 
TestParameter, Measurement.Monitor.RangeRating, BY FULL RANGE, BY FULL RANGE, BY FULL RANGE
TestParameter, Measurement.Monitor.RangeRatingCoeff, 50, 50, 50
TestParameter, Measurement.Timing.Hold, 0.5
TestParameter, Measurement.Timing.Delay, 0.05
TestParameter, Measurement.Adc.HighResolution.AutoZero, OFF
TestParameter, Measurement.Adc.HighResolution.Mode, AUTO
TestParameter, Measurement.Adc.HighResolution.Coeff, 1
TestParameter, Measurement.Ag16440ASelector.SemiconductorRelay.Channel1, DEFAULT
TestParameter, Measurement.Ag16440ASelector.SemiconductorRelay.Channel3, DEFAULT
TestParameter, Function.User.Name, absID, sqrtID, gm2, absIG
TestParameter, Function.User.Unit, A, A, A/V, A
TestParameter, Function.User.Definition, abs(ID), sqrt(abs(ID)), (delta(sqrtID)/delta(VG))^2, abs(IG)
TestParameter, Output.Graph.Enabled, true
TestParameter, Output.Graph.XAxis.Data, VG
TestParameter, Output.Graph.XAxis.Scale, Linear
TestParameter, Output.Graph.XAxis.Left, -5
TestParameter, Output.Graph.XAxis.Right, 7
TestParameter, Output.Graph.YAxis.Data, ID, absIG, gm2
TestParameter, Output.Graph.YAxis.Scale, Log, Log, Linear
TestParameter, Output.Graph.YAxis.Bottom, 1E-14, 1E-14, 0
TestParameter, Output.Graph.YAxis.Top, 0.01, 0.01, 1E-05
TestParameter, Output.Graph.YAxis.Group, , , 
TestParameter, Output.List.Data, VG, IG, VD, ID, VS, IS, sqrtID, gm2, absIG
TestParameter, AutoAnalysis.Interpolation, false
TestParameter, AutoAnalysis.Line1.Enabled, false
TestParameter, AutoAnalysis.Line1.Type, 1
TestParameter, AutoAnalysis.Line1.Fix, True
TestParameter, AutoAnalysis.Line1.YAxis, 0
TestParameter, AutoAnalysis.Line1.Point1.Type, 0
TestParameter, AutoAnalysis.Line1.Point1.XY.X, 
TestParameter, AutoAnalysis.Line1.Point1.XY.Y, 
TestParameter, AutoAnalysis.Line1.Point1.Data.Var, 
TestParameter, AutoAnalysis.Line1.Point1.Data.Condition, 
TestParameter, AutoAnalysis.Line1.Point1.Data.Start, false
TestParameter, AutoAnalysis.Line1.Point1.Data.StartVar, 
TestParameter, AutoAnalysis.Line1.Point1.Data.StartCondition, 
TestParameter, AutoAnalysis.Line1.Point2.Type, 0
TestParameter, AutoAnalysis.Line1.Point2.XY.X, 
TestParameter, AutoAnalysis.Line1.Point2.XY.Y, 
TestParameter, AutoAnalysis.Line1.Point2.Data.Var, 
TestParameter, AutoAnalysis.Line1.Point2.Data.Condition, 
TestParameter, AutoAnalysis.Line1.Point2.Data.Start, false
TestParameter, AutoAnalysis.Line1.Point2.Data.StartVar, 
TestParameter, AutoAnalysis.Line1.Point2.Data.StartCondition, 
TestParameter, AutoAnalysis.Line1.GradientExpr, 0
TestParameter, AutoAnalysis.Line2.Enabled, false
TestParameter, AutoAnalysis.Line2.Type, 1
TestParameter, AutoAnalysis.Line2.Fix, True
TestParameter, AutoAnalysis.Line2.YAxis, 0
TestParameter, AutoAnalysis.Line2.Point1.Type, 0
TestParameter, AutoAnalysis.Line2.Point1.XY.X, 
TestParameter, AutoAnalysis.Line2.Point1.XY.Y, 
TestParameter, AutoAnalysis.Line2.Point1.Data.Var, 
TestParameter, AutoAnalysis.Line2.Point1.Data.Condition, 
TestParameter, AutoAnalysis.Line2.Point1.Data.Start, false
TestParameter, AutoAnalysis.Line2.Point1.Data.StartVar, 
TestParameter, AutoAnalysis.Line2.Point1.Data.StartCondition, 
TestParameter, AutoAnalysis.Line2.Point2.Type, 0
TestParameter, AutoAnalysis.Line2.Point2.XY.X, 
TestParameter, AutoAnalysis.Line2.Point2.XY.Y, 
TestParameter, AutoAnalysis.Line2.Point2.Data.Var, 
TestParameter, AutoAnalysis.Line2.Point2.Data.Condition, 
TestParameter, AutoAnalysis.Line2.Point2.Data.Start, false
TestParameter, AutoAnalysis.Line2.Point2.Data.StartVar, 
TestParameter, AutoAnalysis.Line2.Point2.Data.StartCondition, 
TestParameter, AutoAnalysis.Line2.GradientExpr, 0
TestParameter, AutoAnalysis.Marker.Enabled, false
TestParameter, AutoAnalysis.Marker.Data.Var, 
TestParameter, AutoAnalysis.Marker.Data.Condition, 
TestParameter, AutoAnalysis.Marker.Data.Start, false
TestParameter, AutoAnalysis.Marker.Data.StartVar, 
TestParameter, AutoAnalysis.Marker.Data.StartCondition, 
MetaData, TestRecord.EntryPoint, true
MetaData, TestRecord.RecordTime, 06/18/2019 16:41:39
MetaData, TestRecord.TestTarget, 1-14
MetaData, TestRecord.IterationIndex, 7
MetaData, TestRecord.Preservation, true
MetaData, TestRecord.Flag, 
MetaData, TestRecord.Remarks, 
MetaData, TestRecord.LinkKey, 0655b529-a92a-495a-8e0b-2e5b55adc675
Dimension1, 101, 101, 101, 101, 101, 101, 101, 101, 101, 101
Dimension2, 1, 1, 1, 1, 1, 1, 1, 1, 1, 1
DataName, VG, VD, VS, ID, IS, IG, absID, sqrtID, gm2, absIG
DataValue, -2, 3, 0, 0.0360931, -0.00114364, -0.034949, 0.0360931, 0.1899818412375246, 0.000321800310166714, 0.034949
DataValue, -1.9500000000000002, 3, 0, 0.0357531, -0.00114739, -0.0346047, 0.0357531, 0.18908490156540792, 0.00032726557700807823, 0.0346047
DataValue, -1.9000000000000001, 3, 0, 0.035409, -0.00115119, -0.034257, 0.035409, 0.18817279293245345, 0.00033880882115819549, 0.034257
DataValue, -1.85, 3, 0, 0.035060400000000005, -0.00115502, -0.033904300000000005, 0.035060400000000005, 0.187244225545142, 0.00034223328586741714, 0.033904300000000005
DataValue, -1.8, 3, 0, 0.0347162, -0.00115884, -0.033557500000000004, 0.0347162, 0.18632283810633629, 0.00034057451640509117, 0.033557500000000004
DataValue, -1.75, 3, 0, 0.034372700000000006, -0.00116263, -0.033210500000000004, 0.034372700000000006, 0.18539875943490022, 0.00034167660719041618, 0.033210500000000004
DataValue, -1.7000000000000002, 3, 0, 0.0340308, -0.00116643, -0.0328627, 0.0340308, 0.18447438846625838, 0.00034674707556556867, 0.0328627
DataValue, -1.6500000000000001, 3, 0, 0.033685700000000006, -0.0011702400000000001, -0.0325138, 0.033685700000000006, 0.18353664484238566, 0.00035345101620276478, 0.0325138
DataValue, -1.6, 3, 0, 0.0333407, -0.00117407, -0.0321663, 0.0333407, 0.18259435916807507, 0.000357630044874177, 0.0321663
DataValue, -1.55, 3, 0, 0.0329951, -0.0011779100000000001, -0.031817700000000004, 0.0329951, 0.18164553393904293, 0.00036189584443487396, 0.031817700000000004
DataValue, -1.5, 3, 0, 0.0326496, -0.00118174, -0.031468300000000005, 0.0326496, 0.18069200314347064, 0.00036074315243691716, 0.031468300000000005
DataValue, -1.4500000000000002, 3, 0, 0.0323087, -0.0011855400000000001, -0.031122700000000003, 0.0323087, 0.17974620997395188, 0.00036310763324109166, 0.031122700000000003
DataValue, -1.4000000000000001, 3, 0, 0.0319646, -0.00118936, -0.030775100000000003, 0.0319646, 0.17878646481207688, 0.00037206088513290871, 0.030775100000000003
DataValue, -1.35, 3, 0, 0.031619, -0.0011932, -0.030424500000000004, 0.031619, 0.17781732199085668, 0.00037698787450228153, 0.030424500000000004
DataValue, -1.3, 3, 0, 0.031274100000000006, -0.00119703, -0.030076300000000004, 0.031274100000000006, 0.17684484725317842, 0.00038126516554856047, 0.030076300000000004
DataValue, -1.25, 3, 0, 0.0309284, -0.00120086, -0.0297273, 0.0309284, 0.1758647207372758, 0.00038585397223027683, 0.0297273
DataValue, -1.2, 3, 0, 0.0305832, -0.0012047, -0.0293792, 0.0305832, 0.1748805306487832, 0.00039021582028437874, 0.0293792
DataValue, -1.1500000000000001, 3, 0, 0.030237500000000004, -0.00120855, -0.0290281, 0.030237500000000004, 0.17388933262279202, 0.00039513064287822325, 0.0290281
DataValue, -1.1, 3, 0, 0.029891900000000002, -0.00121238, -0.028678600000000002, 0.029891900000000002, 0.17289274131669033, 0.000401563791961051, 0.028678600000000002
DataValue, -1.05, 3, 0, 0.029544600000000004, -0.00121625, -0.028327400000000003, 0.029544600000000004, 0.17188542695644679, 0.00040720549773289017, 0.028327400000000003
DataValue, -1, 3, 0, 0.029198200000000004, -0.0012201, -0.027977500000000002, 0.029198200000000004, 0.17087480797355709, 0.00041133271696260759, 0.027977500000000002
DataValue, -0.95000000000000007, 3, 0, 0.028851500000000002, -0.00122396, -0.0276272, 0.028851500000000002, 0.16985729304330741, 0.00041325606616460789, 0.0276272
DataValue, -0.9, 3, 0, 0.0285076, -0.00122777, -0.027279900000000003, 0.0285076, 0.16884193791827906, 0.000415848674205111, 0.027279900000000003
DataValue, -0.85000000000000009, 3, 0, 0.0281629, -0.00123163, -0.0269303, 0.0281629, 0.16781805623948812, 0.00042672841267234814, 0.0269303
DataValue, -0.8, 3, 0, 0.027814300000000004, -0.0012355, -0.026578100000000004, 0.027814300000000004, 0.16677619734242655, 0.0004325186333401136, 0.026578100000000004
DataValue, -0.75, 3, 0, 0.027469200000000003, -0.00123932, -0.026229900000000004, 0.027469200000000003, 0.16573834800673018, 0.000433571817209889, 0.026229900000000004
DataValue, -0.70000000000000007, 3, 0, 0.0271241, -0.00124316, -0.025879500000000003, 0.0271241, 0.16469395860200822, 0.00044293860052168905, 0.025879500000000003
DataValue, -0.65, 3, 0, 0.026776, -0.00124702, -0.025528900000000004, 0.026776, 0.1636337373526621, 0.00045073455295435168, 0.025528900000000004
DataValue, -0.6, 3, 0, 0.026429300000000003, -0.00125087, -0.0251776, 0.026429300000000003, 0.16257090760649645, 0.0004558782454978008, 0.0251776
DataValue, -0.55, 3, 0, 0.026081800000000002, -0.00125472, -0.0248271, 0.026081800000000002, 0.16149860680513625, 0.000461268944159664, 0.0248271
DataValue, -0.5, 3, 0, 0.0257356, -0.00125855, -0.0244766, 0.0257356, 0.16042319034354105, 0.00046804099149687866, 0.0244766
DataValue, -0.45, 3, 0, 0.025387700000000003, -0.00126243, -0.024125, 0.025387700000000003, 0.15933518130030167, 0.0004756634265359914, 0.024125
DataValue, -0.4, 3, 0, 0.025040600000000003, -0.0012662700000000001, -0.023774200000000002, 0.025040600000000003, 0.15824221939798494, 0.00048087625765006397, 0.023774200000000002
DataValue, -0.35000000000000003, 3, 0, 0.024693700000000002, -0.00127012, -0.023422400000000003, 0.024693700000000002, 0.15714229220677672, 0.0004810076417743969, 0.023422400000000003
DataValue, -0.3, 3, 0, 0.024351300000000003, -0.00127391, -0.023076700000000002, 0.024351300000000003, 0.15604903075636198, 0.00049014491206091331, 0.023076700000000002
DataValue, -0.25, 3, 0, 0.0240028, -0.00127779, -0.0227245, 0.0240028, 0.15492837054587516, 0.00050616495015746435, 0.0227245
DataValue, -0.2, 3, 0, 0.023654200000000004, -0.00128165, -0.0223717, 0.023654200000000004, 0.1537992197639507, 0.00051199144943565563, 0.0223717
DataValue, -0.15, 3, 0, 0.023306800000000003, -0.0012855100000000001, -0.02202, 0.023306800000000003, 0.15266564774041344, 0.0005191991096541765, 0.02202
DataValue, -0.1, 3, 0, 0.022958500000000003, -0.0012893800000000001, -0.021668000000000003, 0.022958500000000003, 0.15152062565868715, 0.00052781984539512132, 0.021668000000000003
DataValue, -0.05, 3, 0, 0.0226106, -0.00129322, -0.0213167, 0.0226106, 0.15036821472638426, 0.00054326923833162243, 0.0213167
DataValue, 0, 3, 0, 0.022257600000000002, -0.00129714, -0.0209593, 0.022257600000000002, 0.14918981198459902, 0.00055128496865682747, 0.0209593
DataValue, 0.05, 3, 0, 0.021910000000000002, -0.00130097, -0.020608, 0.021910000000000002, 0.14802026888233924, 0.00055229862661292149, 0.020608
DataValue, 0.1, 3, 0, 0.021561900000000002, -0.00130484, -0.020256100000000003, 0.021561900000000002, 0.14683970852599784, 0.00056152863647120966, 0.020256100000000003
DataValue, 0.15, 3, 0, 0.021214100000000003, -0.00130867, -0.019905000000000003, 0.021214100000000003, 0.14565060933617821, 0.00057190230232532255, 0.019905000000000003
DataValue, 0.2, 3, 0, 0.020865300000000003, -0.00131254, -0.0195523, 0.020865300000000003, 0.14444826063334929, 0.00058076316565879818, 0.0195523
DataValue, 0.25, 3, 0, 0.020517900000000002, -0.00131638, -0.0192007, 0.020517900000000002, 0.14324070650482007, 0.00058995345963481452, 0.0192007
DataValue, 0.3, 3, 0, 0.020169500000000003, -0.00132026, -0.018848800000000002, 0.020169500000000003, 0.14201936487676603, 0.00060011608072761213, 0.018848800000000002
DataValue, 0.35000000000000003, 3, 0, 0.019822100000000002, -0.00132409, -0.0184969, 0.019822100000000002, 0.14079097982470326, 0.00061119717048718541, 0.0184969
DataValue, 0.4, 3, 0, 0.019473400000000002, -0.00132795, -0.0181446, 0.019473400000000002, 0.13954712465686994, 0.00062282373662717332, 0.0181446
DataValue, 0.45, 3, 0, 0.019125600000000003, -0.00133179, -0.017793200000000002, 0.019125600000000003, 0.13829533614695763, 0.00063363004593850174, 0.017793200000000002
DataValue, 0.5, 3, 0, 0.0187772, -0.00133565, -0.017440800000000003, 0.0187772, 0.13702992373930595, 0.00064836589740702969, 0.017440800000000003
DataValue, 0.55, 3, 0, 0.0184278, -0.00133952, -0.0170871, 0.0184278, 0.13574903314572814, 0.00066215603115516342, 0.0170871
DataValue, 0.6, 3, 0, 0.0180786, -0.00134338, -0.016734100000000002, 0.0180786, 0.1344566844749639, 0.00067456559671990343, 0.016734100000000002
DataValue, 0.65, 3, 0, 0.017729400000000003, -0.00134724, -0.016381100000000003, 0.017729400000000003, 0.13315179307842612, 0.00068725777349780035, 0.016381100000000003
DataValue, 0.70000000000000007, 3, 0, 0.0173805, -0.00135111, -0.016028200000000003, 0.0173805, 0.13183512430304756, 0.00070066296163014152, 0.016028200000000003
DataValue, 0.75, 3, 0, 0.0170315, -0.00135496, -0.015675400000000003, 0.0170315, 0.13050478918415218, 0.00071481237181575906, 0.015675400000000003
DataValue, 0.8, 3, 0, 0.0166827, -0.00135882, -0.0153223, 0.0166827, 0.1291615267794555, 0.00073061522901573844, 0.0153223
DataValue, 0.85000000000000009, 3, 0, 0.016333300000000002, -0.00136268, -0.014969800000000002, 0.016333300000000002, 0.1278017996743395, 0.00074708537973793248, 0.014969800000000002
DataValue, 0.9, 3, 0, 0.0159841, -0.00136652, -0.014616400000000002, 0.0159841, 0.12642824051611254, 0.00076297816825552354, 0.014616400000000002
DataValue, 0.95000000000000007, 3, 0, 0.0156349, -0.00137041, -0.014263300000000001, 0.0156349, 0.12503959372934639, 0.00078047508464415408, 0.014263300000000001
DataValue, 1, 3, 0, 0.0152855, -0.00137425, -0.013910200000000001, 0.0152855, 0.12363454209888108, 0.000798309666994493, 0.013910200000000001
DataValue, 1.05, 3, 0, 0.014936300000000001, -0.00137811, -0.013556900000000002, 0.014936300000000001, 0.12221415629950568, 0.00081627961523568341, 0.013556900000000002
DataValue, 1.1, 3, 0, 0.014587200000000002, -0.00138199, -0.013203500000000002, 0.014587200000000002, 0.12077748134482687, 0.00083728034811856894, 0.013203500000000002
DataValue, 1.1500000000000001, 3, 0, 0.0142374, -0.0013858100000000001, -0.0128502, 0.0142374, 0.11932057659934435, 0.00085881040897461134, 0.0128502
DataValue, 1.2, 3, 0, 0.013887900000000002, -0.00138971, -0.012497300000000001, 0.013887900000000002, 0.11784693462284032, 0.000878154972594711, 0.012497300000000001
DataValue, 1.25, 3, 0, 0.013539, -0.00139357, -0.012144, 0.013539, 0.11635720862928949, 0.00090135465266162715, 0.012144
DataValue, 1.3, 3, 0, 0.013189300000000001, -0.00139744, -0.0117908, 0.013189300000000001, 0.11484467771734135, 0.00092681725291148009, 0.0117908
DataValue, 1.35, 3, 0, 0.012839800000000002, -0.0014013, -0.011437200000000002, 0.012839800000000002, 0.11331284128464876, 0.00093859008252959784, 0.011437200000000002
DataValue, 1.4000000000000001, 3, 0, 0.012495000000000001, -0.00140511, -0.0110886, 0.012495000000000001, 0.11178103595869919, 0.00096570425949905826, 0.0110886
DataValue, 1.4500000000000002, 3, 0, 0.012145200000000002, -0.00140895, -0.0107352, 0.012145200000000002, 0.11020526303221639, 0.0010062246742803176, 0.0107352
DataValue, 1.5, 3, 0, 0.011795900000000002, -0.00141282, -0.0103815, 0.011795900000000002, 0.10860893149276445, 0.001039992196644575, 0.0103815
DataValue, 1.55, 3, 0, 0.011444800000000002, -0.0014167000000000001, -0.010026700000000001, 0.011444800000000002, 0.10698037203150866, 0.0010711238415584629, 0.010026700000000001
DataValue, 1.6, 3, 0, 0.011095700000000002, -0.00142055, -0.00967407, 0.011095700000000002, 0.1053361286548922, 0.0011008719912262903, 0.00967407
DataValue, 1.6500000000000001, 3, 0, 0.010745900000000001, -0.00142441, -0.00932038, 0.010745900000000001, 0.10366243292533704, 0.0011386380442389376, 0.00932038
DataValue, 1.7000000000000002, 3, 0, 0.010396200000000001, -0.00142826, -0.00896684, 0.010396200000000001, 0.1019617575368334, 0.0011800538027687995, 0.00896684
DataValue, 1.75, 3, 0, 0.0100455, -0.00143214, -0.0086123, 0.0100455, 0.10022724180580847, 0.001225382860161947, 0.0086123
DataValue, 1.8, 3, 0, 0.00969461, -0.001436, -0.00825903, 0.00969461, 0.098461210636473478, 0.0012691491323738018, 0.00825903
DataValue, 1.85, 3, 0, 0.00934407, -0.00143986, -0.00790497, 0.00934407, 0.096664729865654719, 0.0013121781872327668, 0.00790497
DataValue, 1.9000000000000001, 3, 0, 0.0089944, -0.00144373, -0.00755123, 0.0089944, 0.094838810620968883, 0.0013622069531569029, 0.00755123
DataValue, 1.9500000000000002, 3, 0, 0.00864415, -0.0014476, -0.00719693, 0.00864415, 0.092973921074675558, 0.0014176009688651227, 0.00719693
DataValue, 2, 3, 0, 0.00829442, -0.0014514600000000001, -0.0068433700000000005, 0.00829442, 0.09107370641409078, 0.0014785516464145194, 0.0068433700000000005
DataValue, 2.05, 3, 0, 0.00794393, -0.00145534, -0.00648911, 0.00794393, 0.089128727131043445, 0.001543748537016623, 0.00648911
DataValue, 2.1, 3, 0, 0.00759419, -0.00145919, -0.0061354700000000005, 0.00759419, 0.087144649864463852, 0.0016152627911618989, 0.0061354700000000005
DataValue, 2.15, 3, 0, 0.00724366, -0.00146306, -0.00578103, 0.00724366, 0.0851096939249578, 0.0016939309466157421, 0.00578103
DataValue, 2.2, 3, 0, 0.0068938, -0.00146692, -0.00542722, 0.0068938, 0.083028910627563943, 0.0017802796553583243, 0.00542722
DataValue, 2.25, 3, 0, 0.0065432500000000005, -0.00147078, -0.00507318, 0.0065432500000000005, 0.0808903578926438, 0.0018755972619366643, 0.00507318
DataValue, 2.3000000000000003, 3, 0, 0.00619339, -0.00147464, -0.00471918, 0.00619339, 0.0786980940048741, 0.0019790178704274125, 0.00471918
DataValue, 2.35, 3, 0, 0.00584334, -0.00147851, -0.00436526, 0.00584334, 0.076441742523309861, 0.0020986403058914469, 0.00436526
DataValue, 2.4, 3, 0, 0.00549333, -0.00148237, -0.00401151, 0.00549333, 0.074117002098034165, 0.0022345471262283719, 0.00401151
DataValue, 2.45, 3, 0, 0.00514299, -0.00148624, -0.00365732, 0.00514299, 0.071714642856253563, 0.0023863938683517253, 0.00365732
DataValue, 2.5, 3, 0, 0.00479306, -0.0014900900000000001, -0.00330337, 0.00479306, 0.069231929050113869, 0.0025630284633131255, 0.00330337
DataValue, 2.5500000000000003, 3, 0, 0.00444249, -0.00149397, -0.00294896, 0.00444249, 0.066652006721478391, 0.0027663300414033061, 0.00294896
