
SetupTitle, Transfer stab
PrimitiveTest, I/V Sweep
TestParameter, Context.MainFrame, 4155C
TestParameter, Channel.UnitType, SMU, SMU, SMU
TestParameter, Channel.Unit, SMU3:MP, SMU4:MP, SMU1:MP
TestParameter, Channel.IName, ID, IS, IG
TestParameter, Channel.VName, VD, VS, VG
TestParameter, Channel.Mode, V, COMMON, V
TestParameter, Channel.Func, CONST, CONST, VAR1
TestParameter, Channel.Index, 
TestParameter, Channel.Time, 
TestParameter, Measurement.Port.Unit, SMU3:MP, SMU4:MP, SMU1:MP
TestParameter, Measurement.Port.SeriesResistor, NONE, NONE, NONE
TestParameter, Measurement.Port.Filter, ON, ON, ON
TestParameter, Measurement.Primary.Locus, Single
TestParameter, Measurement.Primary.Scale, LINEAR
TestParameter, Measurement.Primary.Start, -2
TestParameter, Measurement.Primary.Stop, 3
TestParameter, Measurement.Primary.Step, 0.05
TestParameter, Measurement.Primary.Compliance, 0.1
TestParameter, Measurement.Primary.PowerCompliance, 0
TestParameter, Measurement.Aborting.Condition, CONTINUE AT ANY
TestParameter, Measurement.PostOutput.Value, START
TestParameter, Measurement.PostOutput.Retention, OFF
TestParameter, Measurement.Bias.Source, 3, 0, -2
TestParameter, Measurement.Bias.Compliance, 0.1, 0.1, 0.1
TestParameter, Measurement.Monitor.Unit, SMU3:MP, SMU4:MP, SMU1:MP
TestParameter, Measurement.Monitor.Adc, HR ADC, HR ADC, HR ADC
TestParameter, Measurement.Monitor.RangingMode, AUTO, AUTO, AUTO
TestParameter, Measurement.Monitor.RangeBoundary, , , 
TestParameter, Measurement.Monitor.RangeRating, BY FULL RANGE, BY FULL RANGE, BY FULL RANGE
TestParameter, Measurement.Monitor.RangeRatingCoeff, 50, 50, 50
TestParameter, Measurement.Timing.Hold, 0.5
TestParameter, Measurement.Timing.Delay, 0.05
TestParameter, Measurement.Adc.HighResolution.AutoZero, OFF
TestParameter, Measurement.Adc.HighResolution.Mode, AUTO
TestParameter, Measurement.Adc.HighResolution.Coeff, 1
TestParameter, Measurement.Ag16440ASelector.SemiconductorRelay.Channel1, DEFAULT
TestParameter, Measurement.Ag16440ASelector.SemiconductorRelay.Channel3, DEFAULT
TestParameter, Function.User.Name, absID, sqrtID, gm2, absIG
TestParameter, Function.User.Unit, A, A, A/V, A
TestParameter, Function.User.Definition, abs(ID), sqrt(abs(ID)), (delta(sqrtID)/delta(VG))^2, abs(IG)
TestParameter, Output.Graph.Enabled, true
TestParameter, Output.Graph.XAxis.Data, VG
TestParameter, Output.Graph.XAxis.Scale, Linear
TestParameter, Output.Graph.XAxis.Left, -5
TestParameter, Output.Graph.XAxis.Right, 7
TestParameter, Output.Graph.YAxis.Data, ID, absIG, gm2
TestParameter, Output.Graph.YAxis.Scale, Log, Log, Linear
TestParameter, Output.Graph.YAxis.Bottom, 1E-14, 1E-14, 0
TestParameter, Output.Graph.YAxis.Top, 0.01, 0.01, 1E-05
TestParameter, Output.Graph.YAxis.Group, , , 
TestParameter, Output.List.Data, VG, IG, VD, ID, VS, IS, sqrtID, gm2, absIG
TestParameter, AutoAnalysis.Interpolation, false
TestParameter, AutoAnalysis.Line1.Enabled, false
TestParameter, AutoAnalysis.Line1.Type, 1
TestParameter, AutoAnalysis.Line1.Fix, True
TestParameter, AutoAnalysis.Line1.YAxis, 0
TestParameter, AutoAnalysis.Line1.Point1.Type, 0
TestParameter, AutoAnalysis.Line1.Point1.XY.X, 
TestParameter, AutoAnalysis.Line1.Point1.XY.Y, 
TestParameter, AutoAnalysis.Line1.Point1.Data.Var, 
TestParameter, AutoAnalysis.Line1.Point1.Data.Condition, 
TestParameter, AutoAnalysis.Line1.Point1.Data.Start, false
TestParameter, AutoAnalysis.Line1.Point1.Data.StartVar, 
TestParameter, AutoAnalysis.Line1.Point1.Data.StartCondition, 
TestParameter, AutoAnalysis.Line1.Point2.Type, 0
TestParameter, AutoAnalysis.Line1.Point2.XY.X, 
TestParameter, AutoAnalysis.Line1.Point2.XY.Y, 
TestParameter, AutoAnalysis.Line1.Point2.Data.Var, 
TestParameter, AutoAnalysis.Line1.Point2.Data.Condition, 
TestParameter, AutoAnalysis.Line1.Point2.Data.Start, false
TestParameter, AutoAnalysis.Line1.Point2.Data.StartVar, 
TestParameter, AutoAnalysis.Line1.Point2.Data.StartCondition, 
TestParameter, AutoAnalysis.Line1.GradientExpr, 0
TestParameter, AutoAnalysis.Line2.Enabled, false
TestParameter, AutoAnalysis.Line2.Type, 1
TestParameter, AutoAnalysis.Line2.Fix, True
TestParameter, AutoAnalysis.Line2.YAxis, 0
TestParameter, AutoAnalysis.Line2.Point1.Type, 0
TestParameter, AutoAnalysis.Line2.Point1.XY.X, 
TestParameter, AutoAnalysis.Line2.Point1.XY.Y, 
TestParameter, AutoAnalysis.Line2.Point1.Data.Var, 
TestParameter, AutoAnalysis.Line2.Point1.Data.Condition, 
TestParameter, AutoAnalysis.Line2.Point1.Data.Start, false
TestParameter, AutoAnalysis.Line2.Point1.Data.StartVar, 
TestParameter, AutoAnalysis.Line2.Point1.Data.StartCondition, 
TestParameter, AutoAnalysis.Line2.Point2.Type, 0
TestParameter, AutoAnalysis.Line2.Point2.XY.X, 
TestParameter, AutoAnalysis.Line2.Point2.XY.Y, 
TestParameter, AutoAnalysis.Line2.Point2.Data.Var, 
TestParameter, AutoAnalysis.Line2.Point2.Data.Condition, 
TestParameter, AutoAnalysis.Line2.Point2.Data.Start, false
TestParameter, AutoAnalysis.Line2.Point2.Data.StartVar, 
TestParameter, AutoAnalysis.Line2.Point2.Data.StartCondition, 
TestParameter, AutoAnalysis.Line2.GradientExpr, 0
TestParameter, AutoAnalysis.Marker.Enabled, false
TestParameter, AutoAnalysis.Marker.Data.Var, 
TestParameter, AutoAnalysis.Marker.Data.Condition, 
TestParameter, AutoAnalysis.Marker.Data.Start, false
TestParameter, AutoAnalysis.Marker.Data.StartVar, 
TestParameter, AutoAnalysis.Marker.Data.StartCondition, 
MetaData, TestRecord.EntryPoint, true
MetaData, TestRecord.RecordTime, 06/18/2019 16:24:28
MetaData, TestRecord.TestTarget, 9-11
MetaData, TestRecord.IterationIndex, 7
MetaData, TestRecord.Preservation, true
MetaData, TestRecord.Flag, 
MetaData, TestRecord.Remarks, leak
MetaData, TestRecord.LinkKey, 756b3794-0696-4249-9ce7-614c1503bef5
Dimension1, 101, 101, 101, 101, 101, 101, 101, 101, 101, 101
Dimension2, 1, 1, 1, 1, 1, 1, 1, 1, 1, 1
DataName, VG, VD, VS, ID, IS, IG, absID, sqrtID, gm2, absIG
DataValue, -2, 3, 0, 3.12211E-09, 0.00111313, -0.00111363, 3.12211E-09, 5.5875844512633547E-05, 3.0089945694157609E-12, 0.00111363
DataValue, -1.9500000000000002, 3, 0, 3.13181E-09, 0.00108417, -0.00108446, 3.13181E-09, 5.5962576781274113E-05, 2.1773487662154016E-09, 0.00108446
DataValue, -1.9000000000000001, 3, 0, 3.66534E-09, 0.00105544, -0.00105549, 3.66534E-09, 6.0542051501415116E-05, 2.471515342076191E-11, 0.00105549
DataValue, -1.85, 3, 0, 3.1877E-09, 0.00102651, -0.00102669, 3.1877E-09, 5.6459720155169028E-05, 1.9127204637457803E-09, 0.00102669
DataValue, -1.8, 3, 0, 3.15491E-09, 0.000997557, -0.00099767300000000014, 3.15491E-09, 5.6168585526074981E-05, 5.5639183273465483E-10, 0.00099767300000000014
DataValue, -1.75, 3, 0, 2.92691E-09, 0.00096872700000000006, -0.000968766, 2.92691E-09, 5.41009242065235E-05, 2.3008948728707918E-10, 0.000968766
DataValue, -1.7000000000000002, 3, 0, 2.98681E-09, 0.00093999200000000006, -0.00094004100000000008, 2.98681E-09, 5.46517154351078E-05, 2.2573414018948678E-10, 0.00094004100000000008
DataValue, -1.6500000000000001, 3, 0, 2.7666E-09, 0.00091152700000000008, -0.000911621, 2.7666E-09, 5.2598479065463481E-05, 2.4765254566347343E-09, 0.000911621
DataValue, -1.6, 3, 0, 2.46763E-09, 0.000882918, -0.00088299200000000009, 2.46763E-09, 4.9675245344134943E-05, 2.5485282901708936E-09, 0.00088299200000000009
DataValue, -1.55, 3, 0, 2.26102E-09, 0.00085428, -0.00085441500000000008, 2.26102E-09, 4.7550184016468327E-05, 2.6293446386830011E-10, 0.00085441500000000008
DataValue, -1.5, 3, 0, 2.30916E-09, 0.000825919, -0.0008259980000000001, 2.30916E-09, 4.8053719939251317E-05, 1.0694978061586806E-10, 0.0008259980000000001
DataValue, -1.4500000000000002, 3, 0, 2.16374E-09, 0.00079809, -0.000798187, 2.16374E-09, 4.6516018746234077E-05, 6.5164352469834638E-10, 0.000798187
DataValue, -1.4000000000000001, 3, 0, 2.07034E-09, 0.000769722, -0.0007698640000000001, 2.07034E-09, 4.5500989000240422E-05, 7.2446908108258423E-10, 0.0007698640000000001
DataValue, -1.35, 3, 0, 1.92058E-09, 0.00074147100000000006, -0.00074149, 1.92058E-09, 4.3824422414904683E-05, 9.732797308613E-10, 0.00074149
DataValue, -1.3, 3, 0, 1.79617E-09, 0.00071321300000000008, -0.00071334300000000007, 1.79617E-09, 4.2381245852381449E-05, 4.8618301493118494E-10, 0.00071334300000000007
DataValue, -1.25, 3, 0, 1.73218E-09, 0.00068510500000000009, -0.000685219, 1.73218E-09, 4.1619466599176881E-05, 2.52844491221349E-10, 0.000685219
DataValue, -1.2, 3, 0, 1.93348E-09, 0.000657082, -0.000657073, 1.93348E-09, 4.3971354311642481E-05, 7.1019853702524572E-10, 0.000657073
DataValue, -1.1500000000000001, 3, 0, 1.96111E-09, 0.000629065, -0.00062902, 1.96111E-09, 4.4284421640120806E-05, 1.165783632789528E-09, 0.00062902
DataValue, -1.1, 3, 0, 1.64487E-09, 0.00060104100000000008, -0.000601098, 1.64487E-09, 4.05569969302462E-05, 2.9975795423396021E-09, 0.000601098
DataValue, -1.05, 3, 0, 1.50617E-09, 0.000573109, -0.000573095, 1.50617E-09, 3.8809406076362464E-05, 2.6998356386627731E-10, 0.000573095
DataValue, -1, 3, 0, 1.51429E-09, 0.000545198, -0.00054528, 1.51429E-09, 3.8913879272054077E-05, 1.3571396223690426E-11, 0.00054528
DataValue, -0.95000000000000007, 3, 0, 1.5349E-09, 0.000517276, -0.000517307, 1.5349E-09, 3.9177799836131688E-05, 3.9631490315619894E-10, 0.000517307
DataValue, -0.9, 3, 0, 1.67319E-09, 0.00048951600000000006, -0.000489559, 1.67319E-09, 4.0904645212982841E-05, 1.3574880545523133E-08, 0.000489559
DataValue, -0.85000000000000009, 3, 0, 2.58358E-09, 0.00046174100000000005, -0.00046177800000000004, 2.58358E-09, 5.0828928770927288E-05, 3.6978472802672952E-08, 0.00046177800000000004
DataValue, -0.8, 3, 0, 3.61615E-09, 0.000434123, -0.00043416200000000004, 3.61615E-09, 6.0134432732004713E-05, 5.1944695180042469E-09, 0.00043416200000000004
DataValue, -0.75, 3, 0, 3.3682E-09, 0.0004066, -0.000406661, 3.3682E-09, 5.8036195602399713E-05, 1.0429298122014636E-08, 0.000406661
DataValue, -0.70000000000000007, 3, 0, 2.49221E-09, 0.000379166, -0.000379118, 2.49221E-09, 4.9922039221169641E-05, 4.7379647794346029E-09, 0.000379118
DataValue, -0.65, 3, 0, 2.61662E-09, 0.000351629, -0.00035168300000000004, 2.61662E-09, 5.1152908030726857E-05, 1.8349898611282893E-09, 0.00035168300000000004
DataValue, -0.6, 3, 0, 2.08286E-09, 0.00032421500000000004, -0.000324264, 2.08286E-09, 4.5638361057338594E-05, 2.3742958431587902E-09, 0.000324264
DataValue, -0.55, 3, 0, 2.14186E-09, 0.00029696000000000003, -0.000297028, 2.14186E-09, 4.6280233361555121E-05, 1.282243309574697E-09, 0.000297028
DataValue, -0.5, 3, 0, 2.42253E-09, 0.00026974400000000004, -0.000269762, 2.42253E-09, 4.9219203569338663E-05, 3.071121126755305E-09, 0.000269762
DataValue, -0.45, 3, 0, 2.68552E-09, 0.00024247800000000002, -0.00024252100000000002, 2.68552E-09, 5.1822003048898061E-05, 3.921897048089646E-09, 0.00024252100000000002
DataValue, -0.4, 3, 0, 3.07822E-09, 0.00021535800000000002, -0.000215395, 3.07822E-09, 5.5481708697551849E-05, 7.8465219428382137E-09, 0.000215395
DataValue, -0.35000000000000003, 3, 0, 3.68207E-09, 0.00018828400000000002, -0.000188325, 3.68207E-09, 6.068006262356689E-05, 1.0911055427367448E-08, 0.000188325
DataValue, -0.3, 3, 0, 4.34641E-09, 0.000161697, -0.000161723, 4.34641E-09, 6.592730845408448E-05, 1.2215613217537945E-08, 0.000161723
DataValue, -0.25, 3, 0, 5.14555E-09, 0.000134695, -0.000134732, 5.14555E-09, 7.1732489152405684E-05, 1.5731417217414274E-08, 0.000134732
DataValue, -0.2, 3, 0, 6.15751E-09, 0.000107743, -0.000107776, 6.15751E-09, 7.8469803109221578E-05, 1.9919518087267741E-08, 0.000107776
DataValue, -0.15, 3, 0, 7.36956E-09, 8.08951E-05, -8.08963E-05, 7.36956E-09, 8.5846141439205065E-05, 2.3157867935595796E-08, 8.08963E-05
DataValue, -0.1, 3, 0, 8.77735E-09, 5.39972E-05, -5.40128E-05, 8.77735E-09, 9.3687512508338055E-05, 2.7666083916364137E-08, 5.40128E-05
DataValue, -0.05, 3, 0, 1.0502E-08, 2.71656E-05, -2.7176200000000002E-05, 1.0502E-08, 0.00010247926619565541, 2.7523866614065646E-08, 2.7176200000000002E-05
DataValue, 0, 3, 0, 1.2161199999999998E-08, -9.7819799999999988E-08, 8.3888199999999987E-08, 1.2161199999999998E-08, 0.00011027783095436725, 3.1050346446992946E-08, 8.3888199999999987E-08
DataValue, 0.05, 3, 0, 1.44241E-08, -2.6868500000000002E-05, 2.68554E-05, 1.44241E-08, 0.00012010037468717573, 4.2945574640844458E-08, 2.68554E-05
DataValue, 0.1, 3, 0, 1.7161299999999997E-08, -5.37025E-05, 5.36832E-05, 1.7161299999999997E-08, 0.00013100114503316373, 5.262999262195603E-08, 5.36832E-05
DataValue, 0.15, 3, 0, 2.0460899999999998E-08, -8.0523300000000009E-05, 8.0492700000000009E-05, 2.0460899999999998E-08, 0.00014304160234001855, 5.99886707439876E-08, 8.0492700000000009E-05
DataValue, 0.2, 3, 0, 2.4178299999999996E-08, -0.0001074313, 0.000107385, 2.4178299999999996E-08, 0.00015549372977711993, 6.114829058016396E-08, 0.000107385
DataValue, 0.25, 3, 0, 2.8146699999999998E-08, -0.000134319, 0.000134239, 2.8146699999999998E-08, 0.00016776978273813195, 6.69313604080915E-08, 0.000134239
DataValue, 0.3, 3, 0, 3.28932E-08, -0.000161279, 0.000161167, 3.28932E-08, 0.0001813648256967155, 7.5685736002022148E-08, 0.000161167
DataValue, 0.35000000000000003, 3, 0, 3.8134599999999995E-08, -0.00018822200000000002, 0.000188147, 3.8134599999999995E-08, 0.00019528082343128316, 7.967455634525703E-08, 0.000188147
DataValue, 0.4, 3, 0, 4.3928599999999994E-08, -0.000215297, 0.000215226, 4.3928599999999994E-08, 0.00020959150746153814, 8.4353756971834918E-08, 0.000215226
DataValue, 0.45, 3, 0, 5.03215E-08, -0.00024236, 0.00024230300000000003, 5.03215E-08, 0.00022432454168012914, 8.8300549896639E-08, 0.00024230300000000003
DataValue, 0.5, 3, 0, 5.7267799999999996E-08, -0.000269566, 0.00026945500000000004, 5.7267799999999996E-08, 0.00023930691590507783, 9.26035486173854E-08, 0.00026945500000000004
DataValue, 0.55, 3, 0, 6.49003E-08, -0.000296784, 0.000296701, 6.49003E-08, 0.00025475537285796348, 9.6685347287181462E-08, 0.000296701
DataValue, 0.6, 3, 0, 7.31168E-08, -0.000324068, 0.00032397700000000003, 7.31168E-08, 0.000270401183429363, 1.0009559720297441E-07, 0.00032397700000000003
DataValue, 0.65, 3, 0, 8.20211E-08, -0.000351526, 0.000351423, 8.20211E-08, 0.00028639326109390211, 1.0246058195818164E-07, 0.000351423
DataValue, 0.70000000000000007, 3, 0, 9.1452199999999988E-08, -0.00037901600000000003, 0.000378864, 9.1452199999999988E-08, 0.00030241064796068275, 1.0586449998659532E-07, 0.000378864
DataValue, 0.75, 3, 0, 1.0171639999999999E-07, -0.000406565, 0.000406475, 1.0171639999999999E-07, 0.00031893008638258006, 9.3469824685755822E-08, 0.000406475
DataValue, 0.8, 3, 0, 1.10878E-07, -0.00043422400000000004, 0.000434098, 1.10878E-07, 0.00033298348307386056, 1.0055720147312655E-07, 0.000434098
DataValue, 0.85000000000000009, 3, 0, 1.22949E-07, -0.000461825, 0.000461697, 1.22949E-07, 0.00035064084188810637, 1.2408497013286121E-07, 0.000461697
DataValue, 0.9, 3, 0, 1.35578E-07, -0.000489566, 0.00048938600000000007, 1.35578E-07, 0.0003682091796791601, 1.2540283897005259E-07, 0.00048938600000000007
DataValue, 0.95000000000000007, 3, 0, 1.4903699999999999E-07, -0.000517372, 0.000517188, 1.4903699999999999E-07, 0.00038605310515523638, 1.2523383001551861E-07, 0.000517188
DataValue, 1, 3, 0, 1.62891E-07, -0.000545284, 0.000545083, 1.62891E-07, 0.00040359757184601597, 1.2206214680606432E-07, 0.000545083
DataValue, 1.05, 3, 0, 1.77233E-07, -0.000573391, 0.00057319400000000007, 1.77233E-07, 0.00042099049870513707, 1.2419046207655736E-07, 0.00057319400000000007
DataValue, 1.1, 3, 0, 1.92579E-07, -0.000601445, 0.00060121300000000007, 1.92579E-07, 0.00043883823899017735, 1.2743171216033403E-07, 0.00060121300000000007
DataValue, 1.1500000000000001, 3, 0, 2.08564E-07, -0.00062958200000000006, 0.000629248, 2.08564E-07, 0.00045668807735696362, 1.3107197979993365E-07, 0.000629248
DataValue, 1.2, 3, 0, 2.25665E-07, -0.000657764, 0.000657439, 2.25665E-07, 0.00047504210339716204, 1.3489887557553985E-07, 0.000657439
DataValue, 1.25, 3, 0, 2.4346E-07, -0.00068583400000000007, 0.000685543, 2.4346E-07, 0.000493416659629567, 1.3440958363767453E-07, 0.000685543
DataValue, 1.3, 3, 0, 2.61841E-07, -0.0007141710000000001, 0.000713864, 2.61841E-07, 0.0005117040160092551, 1.3578717484353083E-07, 0.000713864
DataValue, 1.35, 3, 0, 2.81182E-07, -0.00074246400000000008, 0.00074212700000000009, 2.81182E-07, 0.0005302659709994598, 1.4044034919202571E-07, 0.00074212700000000009
DataValue, 1.4000000000000001, 3, 0, 3.01598E-07, -0.00077018700000000009, 0.000769921, 3.01598E-07, 0.00054917938781421868, 1.438774255714877E-07, 0.000769921
DataValue, 1.4500000000000002, 3, 0, 3.22848E-07, -0.000798442, 0.00079806000000000007, 3.22848E-07, 0.00056819714888408236, 1.4422121853388632E-07, 0.00079806000000000007
DataValue, 1.5, 3, 0, 3.44752E-07, -0.000826894, 0.000826496, 3.44752E-07, 0.0005871558566513665, 1.3829363796551289E-07, 0.000826496
DataValue, 1.55, 3, 0, 3.6649099999999997E-07, -0.0008557450000000001, 0.000855294, 3.6649099999999997E-07, 0.00060538500146600923, 1.3803722785592987E-07, 0.000855294
DataValue, 1.6, 3, 0, 3.8976199999999997E-07, -0.0008841150000000001, 0.0008836950000000001, 3.8976199999999997E-07, 0.00062430921825646626, 1.4600916172974636E-07, 0.0008836950000000001
DataValue, 1.6500000000000001, 3, 0, 4.14216E-07, -0.0009127880000000001, 0.000912199, 4.14216E-07, 0.00064359614666341814, 1.4921949080696261E-07, 0.000912199
DataValue, 1.7000000000000002, 3, 0, 4.39487E-07, -0.000941187, 0.000940712, 4.39487E-07, 0.00066293815699505483, 1.4654662235147505E-07, 0.000940712
DataValue, 1.75, 3, 0, 4.6495699999999997E-07, -0.00097031900000000009, 0.000969745, 4.6495699999999997E-07, 0.00068187755499063028, 1.3786143888506644E-07, 0.000969745
DataValue, 1.8, 3, 0, 4.9009499999999994E-07, -0.000998776, 0.00099835, 4.9009499999999994E-07, 0.00070006785385418177, 1.4450720667890913E-07, 0.00099835
DataValue, 1.85, 3, 0, 5.18244E-07, -0.0010273810000000002, 0.001026585, 5.18244E-07, 0.000719891658515363, 1.45673542783242E-07, 0.001026585
DataValue, 1.9000000000000001, 3, 0, 5.44991E-07, -0.0010557960000000001, 0.0010549140000000001, 5.44991E-07, 0.00073823505741735132, 1.4147721459047138E-07, 0.0010549140000000001
DataValue, 1.9500000000000002, 3, 0, 5.73814E-07, -0.0010854500000000002, 0.001084792, 5.73814E-07, 0.00075750511549427832, 1.4727799107868001E-07, 0.001084792
DataValue, 2, 3, 0, 6.03126E-07, -0.001115291, 0.001114812, 6.03126E-07, 0.00077661187217296641, 1.159423971172714E-07, 0.001114812
DataValue, 2.05, 3, 0, 6.2656E-07, -0.00114608, 0.00114538, 6.2656E-07, 0.00079155543078169828, 9.1839908673154372E-08, 0.00114538
DataValue, 2.1, 3, 0, 6.51115E-07, -0.00117574, 0.00117503, 6.51115E-07, 0.0008069169721848711, 8.8906546676223616E-08, 0.00117503
DataValue, 2.15, 3, 0, 6.7465299999999995E-07, -0.00120689, 0.00120643, 6.7465299999999995E-07, 0.00082137263163560537, 8.8521816618882516E-08, 0.00120643
DataValue, 2.2, 3, 0, 7.00016E-07, -0.0012371700000000001, 0.00123624, 7.00016E-07, 0.00083666958830831185, 8.2465319092299245E-08, 0.00123624
DataValue, 2.25, 3, 0, 7.22652E-07, -0.00126904, 0.00126862, 7.22652E-07, 0.00085008940706257478, 6.3080179210395566E-08, 0.00126862
DataValue, 2.3000000000000003, 3, 0, 7.42674E-07, -0.00129984, 0.001299, 7.42674E-07, 0.000861785356106728, 5.5557836597074121E-08, 0.001299
DataValue, 2.35, 3, 0, 7.63282E-07, -0.00133172, 0.00133116, 7.63282E-07, 0.00087366011697913738, 5.387885426817782E-08, 0.00133116
DataValue, 2.4, 3, 0, 7.8322E-07, -0.00136378, 0.0013628, 7.8322E-07, 0.00088499717513673454, 6.0116153755818874E-08, 0.0013628
DataValue, 2.45, 3, 0, 8.06725E-07, -0.00139516, 0.00139437, 8.06725E-07, 0.00089817871272926527, 6.9288699566615992E-08, 0.00139437
DataValue, 2.5, 3, 0, 8.3050399999999993E-07, -0.00142693, 0.00142592, 8.3050399999999993E-07, 0.00091131992187156753, 5.89937589352569E-08, 0.00142592
