
SetupTitle, Transfer stab
PrimitiveTest, I/V Sweep
TestParameter, Context.MainFrame, 4155C
TestParameter, Channel.UnitType, SMU, SMU, SMU
TestParameter, Channel.Unit, SMU3:MP, SMU4:MP, SMU1:MP
TestParameter, Channel.IName, ID, IS, IG
TestParameter, Channel.VName, VD, VS, VG
TestParameter, Channel.Mode, V, COMMON, V
TestParameter, Channel.Func, CONST, CONST, VAR1
TestParameter, Channel.Index, 
TestParameter, Channel.Time, 
TestParameter, Measurement.Port.Unit, SMU3:MP, SMU4:MP, SMU1:MP
TestParameter, Measurement.Port.SeriesResistor, NONE, NONE, NONE
TestParameter, Measurement.Port.Filter, ON, ON, ON
TestParameter, Measurement.Primary.Locus, Single
TestParameter, Measurement.Primary.Scale, LINEAR
TestParameter, Measurement.Primary.Start, -2
TestParameter, Measurement.Primary.Stop, 3
TestParameter, Measurement.Primary.Step, 0.05
TestParameter, Measurement.Primary.Compliance, 0.1
TestParameter, Measurement.Primary.PowerCompliance, 0
TestParameter, Measurement.Aborting.Condition, CONTINUE AT ANY
TestParameter, Measurement.PostOutput.Value, START
TestParameter, Measurement.PostOutput.Retention, OFF
TestParameter, Measurement.Bias.Source, 3, 0, -2
TestParameter, Measurement.Bias.Compliance, 0.1, 0.1, 0.1
TestParameter, Measurement.Monitor.Unit, SMU3:MP, SMU4:MP, SMU1:MP
TestParameter, Measurement.Monitor.Adc, HR ADC, HR ADC, HR ADC
TestParameter, Measurement.Monitor.RangingMode, AUTO, AUTO, AUTO
TestParameter, Measurement.Monitor.RangeBoundary, , , 
TestParameter, Measurement.Monitor.RangeRating, BY FULL RANGE, BY FULL RANGE, BY FULL RANGE
TestParameter, Measurement.Monitor.RangeRatingCoeff, 50, 50, 50
TestParameter, Measurement.Timing.Hold, 0.5
TestParameter, Measurement.Timing.Delay, 0.05
TestParameter, Measurement.Adc.HighResolution.AutoZero, OFF
TestParameter, Measurement.Adc.HighResolution.Mode, AUTO
TestParameter, Measurement.Adc.HighResolution.Coeff, 1
TestParameter, Measurement.Ag16440ASelector.SemiconductorRelay.Channel1, DEFAULT
TestParameter, Measurement.Ag16440ASelector.SemiconductorRelay.Channel3, DEFAULT
TestParameter, Function.User.Name, absID, sqrtID, gm2, absIG
TestParameter, Function.User.Unit, A, A, A/V, A
TestParameter, Function.User.Definition, abs(ID), sqrt(abs(ID)), (delta(sqrtID)/delta(VG))^2, abs(IG)
TestParameter, Output.Graph.Enabled, true
TestParameter, Output.Graph.XAxis.Data, VG
TestParameter, Output.Graph.XAxis.Scale, Linear
TestParameter, Output.Graph.XAxis.Left, -5
TestParameter, Output.Graph.XAxis.Right, 7
TestParameter, Output.Graph.YAxis.Data, ID, absIG, gm2
TestParameter, Output.Graph.YAxis.Scale, Log, Log, Linear
TestParameter, Output.Graph.YAxis.Bottom, 1E-14, 1E-14, 0
TestParameter, Output.Graph.YAxis.Top, 0.01, 0.01, 1E-05
TestParameter, Output.Graph.YAxis.Group, , , 
TestParameter, Output.List.Data, VG, IG, VD, ID, VS, IS, sqrtID, gm2, absIG
TestParameter, AutoAnalysis.Interpolation, false
TestParameter, AutoAnalysis.Line1.Enabled, false
TestParameter, AutoAnalysis.Line1.Type, 1
TestParameter, AutoAnalysis.Line1.Fix, True
TestParameter, AutoAnalysis.Line1.YAxis, 0
TestParameter, AutoAnalysis.Line1.Point1.Type, 0
TestParameter, AutoAnalysis.Line1.Point1.XY.X, 
TestParameter, AutoAnalysis.Line1.Point1.XY.Y, 
TestParameter, AutoAnalysis.Line1.Point1.Data.Var, 
TestParameter, AutoAnalysis.Line1.Point1.Data.Condition, 
TestParameter, AutoAnalysis.Line1.Point1.Data.Start, false
TestParameter, AutoAnalysis.Line1.Point1.Data.StartVar, 
TestParameter, AutoAnalysis.Line1.Point1.Data.StartCondition, 
TestParameter, AutoAnalysis.Line1.Point2.Type, 0
TestParameter, AutoAnalysis.Line1.Point2.XY.X, 
TestParameter, AutoAnalysis.Line1.Point2.XY.Y, 
TestParameter, AutoAnalysis.Line1.Point2.Data.Var, 
TestParameter, AutoAnalysis.Line1.Point2.Data.Condition, 
TestParameter, AutoAnalysis.Line1.Point2.Data.Start, false
TestParameter, AutoAnalysis.Line1.Point2.Data.StartVar, 
TestParameter, AutoAnalysis.Line1.Point2.Data.StartCondition, 
TestParameter, AutoAnalysis.Line1.GradientExpr, 0
TestParameter, AutoAnalysis.Line2.Enabled, false
TestParameter, AutoAnalysis.Line2.Type, 1
TestParameter, AutoAnalysis.Line2.Fix, True
TestParameter, AutoAnalysis.Line2.YAxis, 0
TestParameter, AutoAnalysis.Line2.Point1.Type, 0
TestParameter, AutoAnalysis.Line2.Point1.XY.X, 
TestParameter, AutoAnalysis.Line2.Point1.XY.Y, 
TestParameter, AutoAnalysis.Line2.Point1.Data.Var, 
TestParameter, AutoAnalysis.Line2.Point1.Data.Condition, 
TestParameter, AutoAnalysis.Line2.Point1.Data.Start, false
TestParameter, AutoAnalysis.Line2.Point1.Data.StartVar, 
TestParameter, AutoAnalysis.Line2.Point1.Data.StartCondition, 
TestParameter, AutoAnalysis.Line2.Point2.Type, 0
TestParameter, AutoAnalysis.Line2.Point2.XY.X, 
TestParameter, AutoAnalysis.Line2.Point2.XY.Y, 
TestParameter, AutoAnalysis.Line2.Point2.Data.Var, 
TestParameter, AutoAnalysis.Line2.Point2.Data.Condition, 
TestParameter, AutoAnalysis.Line2.Point2.Data.Start, false
TestParameter, AutoAnalysis.Line2.Point2.Data.StartVar, 
TestParameter, AutoAnalysis.Line2.Point2.Data.StartCondition, 
TestParameter, AutoAnalysis.Line2.GradientExpr, 0
TestParameter, AutoAnalysis.Marker.Enabled, false
TestParameter, AutoAnalysis.Marker.Data.Var, 
TestParameter, AutoAnalysis.Marker.Data.Condition, 
TestParameter, AutoAnalysis.Marker.Data.Start, false
TestParameter, AutoAnalysis.Marker.Data.StartVar, 
TestParameter, AutoAnalysis.Marker.Data.StartCondition, 
MetaData, TestRecord.EntryPoint, true
MetaData, TestRecord.RecordTime, 06/18/2019 15:35:54
MetaData, TestRecord.TestTarget, 11-47
MetaData, TestRecord.IterationIndex, 4
MetaData, TestRecord.Preservation, true
MetaData, TestRecord.Flag, 
MetaData, TestRecord.Remarks, some leak
MetaData, TestRecord.LinkKey, a436621e-ca7b-464e-af8a-dcac07491da2
Dimension1, 101, 101, 101, 101, 101, 101, 101, 101, 101, 101
Dimension2, 1, 1, 1, 1, 1, 1, 1, 1, 1, 1
DataName, VG, VD, VS, ID, IS, IG, absID, sqrtID, gm2, absIG
DataValue, -2, 3, 0, 1.0127700000000001E-10, 1.0154200000000001E-10, -1.49658E-10, 1.0127700000000001E-10, 1.0063647450104758E-05, 3.2213804232837405E-09, 1.49658E-10
DataValue, -1.9500000000000002, 3, 0, 5.2212000000000004E-11, 7.9988000000000009E-11, -1.29728E-10, 5.2212000000000004E-11, 7.2257871543521126E-06, 1.1890158801004972E-09, 1.29728E-10
DataValue, -1.9000000000000001, 3, 0, 4.3764E-11, 7.4537000000000008E-11, -1.22222E-10, 4.3764E-11, 6.615436493535404E-06, 4.1121417786327803E-11, 1.22222E-10
DataValue, -1.85, 3, 0, 4.3356000000000004E-11, 8.0789E-11, -1.2511900000000002E-10, 4.3356000000000004E-11, 6.5845273178869876E-06, 3.5929710685371317E-12, 1.2511900000000002E-10
DataValue, -1.8, 3, 0, 4.1292000000000005E-11, 7.5606E-11, -1.1423500000000001E-10, 4.1292000000000005E-11, 6.4258851530353395E-06, 3.8087875304378786E-12, 1.1423500000000001E-10
DataValue, -1.75, 3, 0, 4.0824E-11, 6.8722E-11, -1.0802100000000001E-10, 4.0824E-11, 6.3893661657475855E-06, 2.8200557283858909E-12, 1.0802100000000001E-10
DataValue, -1.7000000000000002, 3, 0, 3.9162E-11, 6.225E-11, -1.03036E-10, 3.9162E-11, 6.2579549375175273E-06, 8.8007249295239728E-13, 1.03036E-10
DataValue, -1.6500000000000001, 3, 0, 3.9634000000000005E-11, 5.9913E-11, -1.10411E-10, 3.9634000000000005E-11, 6.2955539867433435E-06, 4.7947417103400331E-11, 1.10411E-10
DataValue, -1.6, 3, 0, 4.8308E-11, 5.4072000000000005E-11, -1.0149E-10, 4.8308E-11, 6.9503956721901809E-06, 2.2686123860467177E-11, 1.0149E-10
DataValue, -1.55, 3, 0, 4.5858000000000006E-11, 4.8307000000000006E-11, -9.4448E-11, 4.5858000000000006E-11, 6.7718535128870005E-06, 4.3693885891077707E-12, 9.4448E-11
DataValue, -1.5, 3, 0, 4.5446000000000006E-11, 4.1072000000000004E-11, -8.9494E-11, 4.5446000000000006E-11, 6.7413648469727556E-06, 5.7901189528497739E-15, 8.9494E-11
DataValue, -1.4500000000000002, 3, 0, 4.5755E-11, 3.6137000000000004E-11, -8.4213000000000012E-11, 4.5755E-11, 6.76424422977172E-06, 1.4499351675005362E-12, 8.4213000000000012E-11
DataValue, -1.4000000000000001, 3, 0, 4.3837E-11, 3.1913E-11, -8.0183E-11, 4.3837E-11, 6.620951593237939E-06, 9.181120016775367E-14, 8.0183E-11
DataValue, -1.35, 3, 0, 4.5346E-11, 2.8281000000000004E-11, -7.5375000000000011E-11, 4.5346E-11, 6.733943866709909E-06, 4.0170440896492453E-14, 7.5375000000000011E-11
DataValue, -1.3, 3, 0, 4.3572E-11, 2.4940000000000003E-11, -7.0151000000000007E-11, 4.3572E-11, 6.6009090283081471E-06, 4.60809615297933E-12, 7.0151000000000007E-11
DataValue, -1.25, 3, 0, 4.2501000000000004E-11, 2.0229000000000002E-11, -6.3594E-11, 4.2501000000000004E-11, 6.5192791012503828E-06, 2.92072380250895E-12, 6.3594E-11
DataValue, -1.2, 3, 0, 4.1345E-11, 1.7367E-11, -5.7332E-11, 4.1345E-11, 6.4300077760450652E-06, 1.4868857439283934E-11, 5.7332E-11
DataValue, -1.1500000000000001, 3, 0, 3.7622000000000006E-11, 1.3985E-11, -5.258E-11, 3.7622000000000006E-11, 6.133677526574087E-06, 4.4376234810031113E-11, 5.258E-11
DataValue, -1.1, 3, 0, 3.3222E-11, 1.1013000000000001E-11, -4.7717000000000004E-11, 3.3222E-11, 5.7638528780668923E-06, 8.294132701707232E-12, 4.7717000000000004E-11
DataValue, -1.05, 3, 0, 3.4172E-11, 8.095E-12, -4.2889000000000004E-11, 3.4172E-11, 5.8456821672068353E-06, 1.6244348285541155E-12, 4.2889000000000004E-11
DataValue, -1, 3, 0, 3.1769E-11, 5.6960000000000008E-12, -3.8816000000000006E-11, 3.1769E-11, 5.6363995600028215E-06, 6.1506022278696024E-12, 3.8816000000000006E-11
DataValue, -0.95000000000000007, 3, 0, 3.1334000000000005E-11, 3.829E-12, -3.5654E-11, 3.1334000000000005E-11, 5.5976780900655592E-06, 3.0493294163871272E-12, 3.5654E-11
DataValue, -0.9, 3, 0, 2.9831000000000004E-11, 4.4000000000000004E-13, -3.1589E-11, 2.9831000000000004E-11, 5.4617762678454714E-06, 3.363987832146914E-12, 3.1589E-11
DataValue, -0.85000000000000009, 3, 0, 3.3421E-11, -1.1350000000000001E-12, -2.8497000000000002E-11, 3.3421E-11, 5.7810898626470081E-06, 2.0937765387295543E-11, 2.8497000000000002E-11
DataValue, -0.8, 3, 0, 2.5042000000000003E-11, -3.95E-12, -2.5232E-11, 2.5042000000000003E-11, 5.0041982374802064E-06, 2.3849451144308091E-11, 2.5232E-11
DataValue, -0.75, 3, 0, 2.8013000000000002E-11, -4.9940000000000007E-12, -2.2428000000000003E-11, 2.8013000000000002E-11, 5.2927308641192024E-06, 2.2916287205254356E-12, 2.2428000000000003E-11
DataValue, -0.70000000000000007, 3, 0, 2.6580000000000003E-11, -7.5190000000000014E-12, -1.9750000000000003E-11, 2.6580000000000003E-11, 5.1555795018600971E-06, 1.5383706699451712E-11, 1.9750000000000003E-11
DataValue, -0.65, 3, 0, 2.4015E-11, -8.353E-12, -1.7759000000000003E-11, 2.4015E-11, 4.9005101775223363E-06, 3.9708688825576829E-12, 1.7759000000000003E-11
DataValue, -0.6, 3, 0, 2.4565E-11, -1.0210000000000001E-11, -1.6039E-11, 2.4565E-11, 4.9563091106185057E-06, 4.286859819696731E-13, 1.6039E-11
DataValue, -0.55, 3, 0, 2.4661E-11, -1.1017000000000001E-11, -1.3562E-11, 2.4661E-11, 4.9659842931688781E-06, 6.11441436346451E-13, 1.3562E-11
DataValue, -0.5, 3, 0, 2.3796000000000002E-11, -1.2311000000000001E-11, -1.1855E-11, 2.3796000000000002E-11, 4.8781143898026827E-06, 2.337947544952515E-15, 1.1855E-11
DataValue, -0.45, 3, 0, 2.4613000000000003E-11, -1.5368E-11, -1.0777E-11, 2.4613000000000003E-11, 4.9611490604496054E-06, 5.86315423765969E-12, 1.0777E-11
DataValue, -0.4, 3, 0, 2.6217E-11, -1.7593E-11, -9.6420000000000011E-12, 2.6217E-11, 5.1202538999545719E-06, 1.8081428603695075E-11, 9.6420000000000011E-12
DataValue, -0.35000000000000003, 3, 0, 2.9013000000000002E-11, -2.0203000000000002E-11, -8.005E-12, 2.9013000000000002E-11, 5.3863716915935165E-06, 4.1522513721720654E-11, 8.005E-12
DataValue, -0.3, 3, 0, 3.3231E-11, -2.633E-11, -7.0450000000000008E-12, 3.3231E-11, 5.7646335529676127E-06, 5.4585821792909163E-11, 7.0450000000000008E-12
DataValue, -0.25, 3, 0, 3.7518000000000006E-11, -3.1950000000000003E-11, -6.234E-12, 3.7518000000000006E-11, 6.1251938744826688E-06, 1.3194816465007876E-10, 6.234E-12
DataValue, -0.2, 3, 0, 4.7794000000000006E-11, -4.1610000000000005E-11, -5.5520000000000006E-12, 4.7794000000000006E-11, 6.91332047571932E-06, 2.5636005713657849E-10, 5.5520000000000006E-12
DataValue, -0.15, 3, 0, 5.9696E-11, -5.4453E-11, -4.4820000000000005E-12, 5.9696E-11, 7.72631865767909E-06, 3.1571830621588247E-10, 4.4820000000000005E-12
DataValue, -0.1, 3, 0, 7.5519E-11, -6.9528E-11, -3.921E-12, 7.5519E-11, 8.6901668568560872E-06, 4.3313038432099907E-10, 3.921E-12
DataValue, -0.05, 3, 0, 9.6187E-11, -8.8561000000000011E-11, -3.2780000000000004E-12, 9.6187E-11, 9.8074971322962929E-06, 5.3286113062259582E-10, 3.2780000000000004E-12
DataValue, 0, 3, 0, 1.20968E-10, -1.1483100000000001E-10, -2.787E-12, 1.20968E-10, 1.0998545358364442E-05, 7.1139411850118317E-10, 2.787E-12
DataValue, 0.05, 3, 0, 1.55618E-10, -1.46916E-10, -2.3090000000000004E-12, 1.55618E-10, 1.2474694385034049E-05, 8.9299704163566132E-10, 2.3090000000000004E-12
DataValue, 0.1, 3, 0, 1.9563200000000002E-10, -1.86995E-10, -1.8910000000000003E-12, 1.9563200000000002E-10, 1.3986850967962733E-05, 1.1760521678934252E-09, 1.8910000000000003E-12
DataValue, 0.15, 3, 0, 2.52939E-10, -2.43075E-10, -1.105E-12, 2.52939E-10, 1.5904056086420219E-05, 1.8091002230296766E-09, 1.105E-12
DataValue, 0.2, 3, 0, 3.3270500000000004E-10, -3.1842300000000005E-10, -3.86E-13, 3.3270500000000004E-10, 1.8240202849749234E-05, 2.4668237486862005E-09, 3.86E-13
DataValue, 0.25, 3, 0, 4.3558900000000004E-10, -4.1818500000000004E-10, 1.6600000000000003E-13, 4.3558900000000004E-10, 2.0870769032309281E-05, 3.8555104374579379E-09, 1.6600000000000003E-13
DataValue, 0.3, 3, 0, 5.9777700000000005E-10, -5.75184E-10, 6.7400000000000006E-13, 5.9777700000000005E-10, 2.4449478522046233E-05, 6.875723623984562E-09, 6.7400000000000006E-13
DataValue, 0.35000000000000003, 3, 0, 8.50467E-10, -7.78714E-10, 1.032E-12, 8.50467E-10, 2.9162767358397249E-05, 1.0485762357641097E-08, 1.032E-12
DataValue, 0.4, 3, 0, 1.20336E-09, -1.15815E-09, 9.8900000000000013E-13, 1.20336E-09, 3.4689479673238114E-05, 2.568842093233025E-08, 9.8900000000000013E-13
DataValue, 0.45, 3, 0, 2.04217E-09, -2.00474E-09, 1.96E-12, 2.04217E-09, 4.519037508142636E-05, 5.6794240318730877E-08, 1.96E-12
DataValue, 0.5, 3, 0, 3.42471E-09, -3.3531E-09, 3.221E-12, 3.42471E-09, 5.8521021863942193E-05, 8.6939221514691156E-08, 3.221E-12
DataValue, 0.55, 3, 0, 5.57648E-09, -5.44455E-09, 4.1870000000000006E-12, 5.57648E-09, 7.4675832770716385E-05, 1.2145644063921202E-07, 4.1870000000000006E-12
DataValue, 0.6, 3, 0, 8.71826E-09, -8.50244E-09, 4.7420000000000006E-12, 8.71826E-09, 9.3371623098241146E-05, 1.2448756803780995E-07, 4.7420000000000006E-12
DataValue, 0.65, 3, 0, 1.2090899999999998E-08, -1.1589299999999998E-08, 4.4710000000000006E-12, 1.2090899999999998E-08, 0.00010995862858366322, 1.6111133214646738E-07, 4.4710000000000006E-12
DataValue, 0.70000000000000007, 3, 0, 1.7825E-08, -1.74498E-08, 5.6890000000000005E-12, 1.7825E-08, 0.00013351029922818689, 2.2852384824452202E-07, 5.6890000000000005E-12
DataValue, 0.75, 3, 0, 2.4889099999999998E-08, -2.4381E-08, 6.5620000000000005E-12, 2.4889099999999998E-08, 0.00015776279662835593, 2.3613032406932443E-07, 6.5620000000000005E-12
DataValue, 0.8, 3, 0, 3.31617E-08, -3.23399E-08, 7.1920000000000009E-12, 3.31617E-08, 0.0001821035419754377, 2.3553684063077371E-07, 7.1920000000000009E-12
DataValue, 0.85000000000000009, 3, 0, 4.2557599999999995E-08, -4.15079E-08, 8.414E-12, 4.2557599999999995E-08, 0.00020629493449912916, 2.3335625059219509E-07, 8.414E-12
DataValue, 0.9, 3, 0, 5.3088999999999993E-08, -5.1791199999999995E-08, 9.101E-12, 5.3088999999999993E-08, 0.00023041050323281706, 2.2754164368888511E-07, 9.101E-12
DataValue, 0.95000000000000007, 3, 0, 6.45141E-08, -6.3093199999999992E-08, 9.886E-12, 6.45141E-08, 0.00025399625981498229, 2.2395006085059575E-07, 9.886E-12
DataValue, 1, 3, 0, 7.7136099999999989E-08, -7.54266E-08, 1.0820000000000001E-11, 7.7136099999999989E-08, 0.00027773386541795725, 1.3742399703083734E-07, 1.0820000000000001E-11
DataValue, 1.05, 3, 0, 8.472E-08, -8.20539E-08, 1.0445000000000001E-11, 8.472E-08, 0.00029106700259562228, 1.0413948951930929E-07, 1.0445000000000001E-11
DataValue, 1.1, 3, 0, 9.6102799999999986E-08, -9.3049499999999989E-08, 1.1024000000000002E-11, 9.6102799999999986E-08, 0.00031000451609613686, 1.5574379000274306E-07, 1.1024000000000002E-11
DataValue, 1.1500000000000001, 3, 0, 1.09251E-07, -1.06368E-07, 1.1133000000000001E-11, 1.09251E-07, 0.00033053139033985865, 2.8303102327809354E-07, 1.1133000000000001E-11
DataValue, 1.2, 3, 0, 1.31918E-07, -1.2928699999999999E-07, 1.1863000000000002E-11, 1.31918E-07, 0.00036320517617456942, 3.8209855126948803E-07, 1.1863000000000002E-11
DataValue, 1.25, 3, 0, 1.53935E-07, -1.50737E-07, 1.2742E-11, 1.53935E-07, 0.00039234551099764096, 3.2541034415159722E-07, 1.2742E-11
DataValue, 1.3, 3, 0, 1.7661E-07, -1.72408E-07, 1.3649E-11, 1.7661E-07, 0.00042024992563949369, 2.9335274141954707E-07, 1.3649E-11
DataValue, 1.35, 3, 0, 1.99369E-07, -1.9537399999999999E-07, 1.3458000000000002E-11, 1.99369E-07, 0.00044650755872661327, 2.9150900652384693E-07, 1.3458000000000002E-11
DataValue, 1.4000000000000001, 3, 0, 2.24905E-07, -2.20242E-07, 1.2023E-11, 2.24905E-07, 0.00047424149966024691, 3.1840994113159933E-07, 1.2023E-11
DataValue, 1.4500000000000002, 3, 0, 2.52944E-07, -2.47436E-07, 1.3525000000000001E-11, 2.52944E-07, 0.0005029353835235696, 3.3888851987655952E-07, 1.3525000000000001E-11
DataValue, 1.5, 3, 0, 2.83509E-07, -2.78163E-07, 1.4810000000000002E-11, 2.83509E-07, 0.000532455631954438, 3.6028520548912651E-07, 1.4810000000000002E-11
DataValue, 1.55, 3, 0, 3.16923E-07, -3.11162E-07, 1.6067000000000003E-11, 3.16923E-07, 0.00056295914594222556, 4.1132571445281681E-07, 1.6067000000000003E-11
DataValue, 1.6, 3, 0, 3.5592E-07, -3.49732E-07, 1.7086E-11, 3.5592E-07, 0.00059659031168801256, 4.5444010958558962E-07, 1.7086E-11
DataValue, 1.6500000000000001, 3, 0, 3.97368E-07, -3.89569E-07, 1.8603000000000002E-11, 3.97368E-07, 0.00063037131914451823, 4.6800912003954146E-07, 1.8603000000000002E-11
DataValue, 1.7000000000000002, 3, 0, 4.42227E-07, -4.34311E-07, 1.8305000000000002E-11, 4.42227E-07, 0.00066500150375769823, 5.0739757484393523E-07, 1.8305000000000002E-11
DataValue, 1.75, 3, 0, 4.92247E-07, -4.83658E-07, 1.8861000000000002E-11, 4.92247E-07, 0.0007016031641889879, 5.537515131929293E-07, 1.8861000000000002E-11
DataValue, 1.8, 3, 0, 5.46736E-07, -5.3595E-07, 1.9807E-11, 5.46736E-07, 0.00073941598576173612, 6.0877931000636208E-07, 1.9807E-11
DataValue, 1.85, 3, 0, 6.07819E-07, -5.95965E-07, 2.0471E-11, 6.07819E-07, 0.00077962747514437943, 6.6850959041033917E-07, 2.0471E-11
DataValue, 1.9000000000000001, 3, 0, 6.74334E-07, -6.6337E-07, 2.1310000000000002E-11, 6.74334E-07, 0.00082117842153821849, 7.2670650293662187E-07, 2.1310000000000002E-11
DataValue, 1.9500000000000002, 3, 0, 7.48008E-07, -7.34278E-07, 2.2312000000000003E-11, 7.48008E-07, 0.00086487455737812061, 7.8574821603708241E-07, 2.2312000000000003E-11
DataValue, 2, 3, 0, 8.27774E-07, -8.14547E-07, 2.3246000000000002E-11, 8.27774E-07, 0.00090982086148867791, 5.2297473145074809E-07, 2.3246000000000002E-11
DataValue, 2.05, 3, 0, 8.78328E-07, -8.6854E-07, 2.2295000000000002E-11, 8.78328E-07, 0.00093719154925767437, 4.3540148615946458E-07, 2.2295000000000002E-11
DataValue, 2.1, 3, 0, 9.52197E-07, -9.32484E-07, 2.2651000000000003E-11, 9.52197E-07, 0.00097580582084757009, 6.8848678497344317E-07, 2.2651000000000003E-11
DataValue, 2.15, 3, 0, 1.04074E-06, -1.0203300000000002E-06, 2.2706000000000003E-11, 1.04074E-06, 0.0010201666530523334, 1.4248098393151906E-06, 2.2706000000000003E-11
DataValue, 2.2, 3, 0, 1.1994000000000001E-06, -1.18437E-06, 2.3709000000000002E-11, 1.1994000000000001E-06, 0.0010951712194903591, 1.9626958757001395E-06, 2.3709000000000002E-11
