
SetupTitle, Transfer lin
PrimitiveTest, I/V Sweep
TestParameter, Context.MainFrame, 4155C
TestParameter, Channel.UnitType, SMU, SMU, SMU
TestParameter, Channel.Unit, SMU3:MP, SMU4:MP, SMU1:MP
TestParameter, Channel.IName, ID, IS, IG
TestParameter, Channel.VName, VD, VS, VG
TestParameter, Channel.Mode, V, COMMON, V
TestParameter, Channel.Func, CONST, CONST, VAR1
TestParameter, Channel.Index, 
TestParameter, Channel.Time, 
TestParameter, Measurement.Port.Unit, SMU3:MP, SMU4:MP, SMU1:MP
TestParameter, Measurement.Port.SeriesResistor, NONE, NONE, NONE
TestParameter, Measurement.Port.Filter, ON, ON, ON
TestParameter, Measurement.Primary.Locus, Double
TestParameter, Measurement.Primary.Scale, LINEAR
TestParameter, Measurement.Primary.Start, -2
TestParameter, Measurement.Primary.Stop, 3
TestParameter, Measurement.Primary.Step, 0.05
TestParameter, Measurement.Primary.Compliance, 0.001
TestParameter, Measurement.Primary.PowerCompliance, 0
TestParameter, Measurement.Aborting.Condition, CONTINUE AT ANY
TestParameter, Measurement.PostOutput.Value, START
TestParameter, Measurement.PostOutput.Retention, OFF
TestParameter, Measurement.Bias.Source, 0.1, 0, -2
TestParameter, Measurement.Bias.Compliance, 0.001, 0.1, 0.001
TestParameter, Measurement.Monitor.Unit, SMU3:MP, SMU4:MP, SMU1:MP
TestParameter, Measurement.Monitor.Adc, HR ADC, HR ADC, HR ADC
TestParameter, Measurement.Monitor.RangingMode, AUTO, AUTO, AUTO
TestParameter, Measurement.Monitor.RangeBoundary, , , 
TestParameter, Measurement.Monitor.RangeRating, BY FULL RANGE, BY FULL RANGE, BY FULL RANGE
TestParameter, Measurement.Monitor.RangeRatingCoeff, 50, 50, 50
TestParameter, Measurement.Timing.Hold, 0.5
TestParameter, Measurement.Timing.Delay, 0.05
TestParameter, Measurement.Adc.HighResolution.AutoZero, OFF
TestParameter, Measurement.Adc.HighResolution.Mode, AUTO
TestParameter, Measurement.Adc.HighResolution.Coeff, 1
TestParameter, Measurement.Ag16440ASelector.SemiconductorRelay.Channel1, DEFAULT
TestParameter, Measurement.Ag16440ASelector.SemiconductorRelay.Channel3, DEFAULT
TestParameter, Function.User.Name, absID, sqrtID, gm2, absIG
TestParameter, Function.User.Unit, A, A, A/V, A
TestParameter, Function.User.Definition, abs(ID), sqrt(abs(ID)), (delta(sqrtID)/delta(VG))^2, abs(IG)
TestParameter, Output.Graph.Enabled, true
TestParameter, Output.Graph.XAxis.Data, VG
TestParameter, Output.Graph.XAxis.Scale, Linear
TestParameter, Output.Graph.XAxis.Left, -5
TestParameter, Output.Graph.XAxis.Right, 7
TestParameter, Output.Graph.YAxis.Data, ID, absIG, gm2
TestParameter, Output.Graph.YAxis.Scale, Log, Log, Linear
TestParameter, Output.Graph.YAxis.Bottom, 1E-14, 1E-14, 0
TestParameter, Output.Graph.YAxis.Top, 0.01, 0.01, 1E-05
TestParameter, Output.Graph.YAxis.Group, , , 
TestParameter, Output.List.Data, VG, IG, VD, ID, VS, IS, sqrtID, gm2, absIG
TestParameter, AutoAnalysis.Interpolation, false
TestParameter, AutoAnalysis.Line1.Enabled, false
TestParameter, AutoAnalysis.Line1.Type, 1
TestParameter, AutoAnalysis.Line1.Fix, True
TestParameter, AutoAnalysis.Line1.YAxis, 0
TestParameter, AutoAnalysis.Line1.Point1.Type, 0
TestParameter, AutoAnalysis.Line1.Point1.XY.X, 
TestParameter, AutoAnalysis.Line1.Point1.XY.Y, 
TestParameter, AutoAnalysis.Line1.Point1.Data.Var, 
TestParameter, AutoAnalysis.Line1.Point1.Data.Condition, 
TestParameter, AutoAnalysis.Line1.Point1.Data.Start, false
TestParameter, AutoAnalysis.Line1.Point1.Data.StartVar, 
TestParameter, AutoAnalysis.Line1.Point1.Data.StartCondition, 
TestParameter, AutoAnalysis.Line1.Point2.Type, 0
TestParameter, AutoAnalysis.Line1.Point2.XY.X, 
TestParameter, AutoAnalysis.Line1.Point2.XY.Y, 
TestParameter, AutoAnalysis.Line1.Point2.Data.Var, 
TestParameter, AutoAnalysis.Line1.Point2.Data.Condition, 
TestParameter, AutoAnalysis.Line1.Point2.Data.Start, false
TestParameter, AutoAnalysis.Line1.Point2.Data.StartVar, 
TestParameter, AutoAnalysis.Line1.Point2.Data.StartCondition, 
TestParameter, AutoAnalysis.Line1.GradientExpr, 0
TestParameter, AutoAnalysis.Line2.Enabled, false
TestParameter, AutoAnalysis.Line2.Type, 1
TestParameter, AutoAnalysis.Line2.Fix, True
TestParameter, AutoAnalysis.Line2.YAxis, 0
TestParameter, AutoAnalysis.Line2.Point1.Type, 0
TestParameter, AutoAnalysis.Line2.Point1.XY.X, 
TestParameter, AutoAnalysis.Line2.Point1.XY.Y, 
TestParameter, AutoAnalysis.Line2.Point1.Data.Var, 
TestParameter, AutoAnalysis.Line2.Point1.Data.Condition, 
TestParameter, AutoAnalysis.Line2.Point1.Data.Start, false
TestParameter, AutoAnalysis.Line2.Point1.Data.StartVar, 
TestParameter, AutoAnalysis.Line2.Point1.Data.StartCondition, 
TestParameter, AutoAnalysis.Line2.Point2.Type, 0
TestParameter, AutoAnalysis.Line2.Point2.XY.X, 
TestParameter, AutoAnalysis.Line2.Point2.XY.Y, 
TestParameter, AutoAnalysis.Line2.Point2.Data.Var, 
TestParameter, AutoAnalysis.Line2.Point2.Data.Condition, 
TestParameter, AutoAnalysis.Line2.Point2.Data.Start, false
TestParameter, AutoAnalysis.Line2.Point2.Data.StartVar, 
TestParameter, AutoAnalysis.Line2.Point2.Data.StartCondition, 
TestParameter, AutoAnalysis.Line2.GradientExpr, 0
TestParameter, AutoAnalysis.Marker.Enabled, false
TestParameter, AutoAnalysis.Marker.Data.Var, 
TestParameter, AutoAnalysis.Marker.Data.Condition, 
TestParameter, AutoAnalysis.Marker.Data.Start, false
TestParameter, AutoAnalysis.Marker.Data.StartVar, 
TestParameter, AutoAnalysis.Marker.Data.StartCondition, 
MetaData, TestRecord.EntryPoint, true
MetaData, TestRecord.RecordTime, 06/18/2019 17:03:13
MetaData, TestRecord.TestTarget, 8-45
MetaData, TestRecord.IterationIndex, 1
MetaData, TestRecord.Preservation, true
MetaData, TestRecord.Flag, 
MetaData, TestRecord.Remarks, some leak
MetaData, TestRecord.LinkKey, edb7d45b-640c-43d4-95be-f39cd021bbb6
Dimension1, 202, 202, 202, 202, 202, 202, 202, 202, 202, 202
Dimension2, 1, 1, 1, 1, 1, 1, 1, 1, 1, 1
DataName, VG, VD, VS, ID, IS, IG, absID, sqrtID, gm2, absIG
DataValue, -2, 0.1, 0, 6.691E-11, 6.8580000000000009E-12, -7.0937E-11, 6.691E-11, 8.179853299418028E-06, 7.6292299305303489E-11, 7.0937E-11
DataValue, -1.9500000000000002, 0.1, 0, 5.995600000000001E-11, 6.1360000000000005E-12, -6.3351E-11, 5.995600000000001E-11, 7.74312598373551E-06, 2.794647373852821E-11, 6.3351E-11
DataValue, -1.9000000000000001, 0.1, 0, 5.8541000000000008E-11, -3.5E-14, -5.7325000000000006E-11, 5.8541000000000008E-11, 7.6512090547834332E-06, 4.4947908440391577E-11, 5.7325000000000006E-11
DataValue, -1.85, 0.1, 0, 5.0023000000000005E-11, 5.429E-12, -5.3121E-11, 5.0023000000000005E-11, 7.0726939704754659E-06, 8.3838172301477642E-11, 5.3121E-11
DataValue, -1.8, 0.1, 0, 4.5368E-11, 2.882E-12, -4.9022000000000007E-11, 4.5368E-11, 6.7355771838796415E-06, 3.6323070690456664E-11, 4.9022000000000007E-11
DataValue, -1.75, 0.1, 0, 4.1861E-11, 1.648E-12, -4.4539000000000006E-11, 4.1861E-11, 6.4700077279706554E-06, 2.9004878356979346E-11, 4.4539000000000006E-11
DataValue, -1.7000000000000002, 0.1, 0, 3.8403000000000004E-11, 1.998E-12, -4.0634E-11, 3.8403000000000004E-11, 6.1970154106634275E-06, 2.6688107671730996E-11, 4.0634E-11
DataValue, -1.6500000000000001, 0.1, 0, 3.5443E-11, 1.295E-12, -3.6609E-11, 3.5443E-11, 5.9534023885506013E-06, 5.9609673995983334E-11, 3.6609E-11
DataValue, -1.6, 0.1, 0, 2.943E-11, 1.6410000000000002E-12, -3.3365000000000006E-11, 2.943E-11, 5.4249423960075373E-06, 4.3648686319450771E-11, 3.3365000000000006E-11
DataValue, -1.55, 0.1, 0, 2.8013000000000002E-11, 8.2E-14, -2.9988E-11, 2.8013000000000002E-11, 5.2927308641192024E-06, 2.0843082703184983E-11, 2.9988E-11
DataValue, -1.5, 0.1, 0, 2.4685000000000003E-11, 2.0160000000000003E-12, -2.704E-11, 2.4685000000000003E-11, 4.9684001449158665E-06, 2.9770825955335817E-11, 2.704E-11
DataValue, -1.4500000000000002, 0.1, 0, 2.2535000000000003E-11, 6.08E-13, -2.4046E-11, 2.2535000000000003E-11, 4.7471043805671691E-06, 3.8064408435296961E-11, 2.4046E-11
DataValue, -1.4000000000000001, 0.1, 0, 1.8935E-11, 1.381E-12, -2.1420000000000002E-11, 1.8935E-11, 4.3514365444069154E-06, 3.97596361115118E-11, 2.1420000000000002E-11
DataValue, -1.35, 0.1, 0, 1.6946E-11, -1.2000000000000001E-14, -1.859E-11, 1.6946E-11, 4.11655195521689E-06, 2.5372370656898427E-11, 1.859E-11
DataValue, -1.3, 0.1, 0, 1.4805E-11, 2.7500000000000004E-13, -1.6199E-11, 1.4805E-11, 3.847726601514198E-06, 2.6382242240390026E-11, 1.6199E-11
DataValue, -1.25, 0.1, 0, 1.2981E-11, 1.6490000000000001E-12, -1.4281000000000002E-11, 1.2981E-11, 3.6029154861028869E-06, 3.0417062266640495E-11, 1.4281000000000002E-11
DataValue, -1.2, 0.1, 0, 1.0865000000000001E-11, -1.3800000000000002E-13, -1.2164E-11, 1.0865000000000001E-11, 3.2962099447699021E-06, 2.4856576486566668E-11, 1.2164E-11
DataValue, -1.1500000000000001, 0.1, 0, 9.637E-12, -3.2500000000000003E-13, -1.0311000000000002E-11, 9.637E-12, 3.1043517841894142E-06, 2.9745230781864893E-11, 1.0311000000000002E-11
DataValue, -1.1, 0.1, 0, 7.5670000000000012E-12, 3.7300000000000003E-13, -8.522000000000001E-12, 7.5670000000000012E-12, 2.7508180601413828E-06, 2.2952712508775579E-11, 8.522000000000001E-12
DataValue, -1.05, 0.1, 0, 6.8920000000000009E-12, -2.031E-12, -7.06E-12, 6.8920000000000009E-12, 2.6252618916976646E-06, 1.1973756874036882E-11, 7.06E-12
DataValue, -1, 0.1, 0, 5.7830000000000007E-12, -9.44E-13, -5.984E-12, 5.7830000000000007E-12, 2.4047868928451853E-06, 1.98339861764198E-11, 5.984E-12
DataValue, -0.95000000000000007, 0.1, 0, 4.7520000000000008E-12, -4.01E-13, -4.556E-12, 4.7520000000000008E-12, 2.1799082549501941E-06, 1.2945100667990172E-11, 4.556E-12
DataValue, -0.9, 0.1, 0, 4.1820000000000006E-12, -1.1120000000000001E-12, -3.547E-12, 4.1820000000000006E-12, 2.0449938875214274E-06, 1.9002751881813594E-12, 3.547E-12
DataValue, -0.85000000000000009, 0.1, 0, 4.17E-12, -3.0310000000000003E-12, -2.6680000000000003E-12, 4.17E-12, 2.0420577856662138E-06, 1.4388997815883748E-12, 2.6680000000000003E-12
DataValue, -0.8, 0.1, 0, 4.6870000000000005E-12, -3.6360000000000003E-12, -1.871E-12, 4.6870000000000005E-12, 2.1649480363278932E-06, 7.80443519653567E-12, 1.871E-12
DataValue, -0.75, 0.1, 0, 5.3890000000000006E-12, -4.882E-12, -1.1460000000000002E-12, 5.3890000000000006E-12, 2.3214219780126147E-06, 3.4665801882710431E-11, 1.1460000000000002E-12
DataValue, -0.70000000000000007, 0.1, 0, 7.5830000000000011E-12, -7.786000000000001E-12, -7.99E-13, 7.5830000000000011E-12, 2.7537247502246846E-06, 7.7244852282026835E-11, 7.99E-13
DataValue, -0.65, 0.1, 0, 1.0242000000000001E-11, -1.0739000000000001E-11, -1.3900000000000001E-13, 1.0242000000000001E-11, 3.200312484742701E-06, 1.1315324443162158E-10, 1.3900000000000001E-13
DataValue, -0.6, 0.1, 0, 1.4573E-11, -1.4266E-11, -5.9E-14, 1.4573E-11, 3.8174598884598648E-06, 1.9013089064384723E-10, 5.9E-14
DataValue, -0.55, 0.1, 0, 2.0969E-11, -2.2283000000000003E-11, 6.7500000000000005E-13, 2.0969E-11, 4.579192068476709E-06, 2.5982368110399665E-10, 6.7500000000000005E-13
DataValue, -0.5, 0.1, 0, 2.9478E-11, -3.0826E-11, 6.7500000000000005E-13, 2.9478E-11, 5.4293646037082463E-06, 3.2654048707762296E-10, 6.7500000000000005E-13
DataValue, -0.45, 0.1, 0, 4.0784E-11, -4.2501000000000004E-11, 1.0580000000000001E-12, 4.0784E-11, 6.386235197673196E-06, 5.7189899675009459E-10, 1.0580000000000001E-12
DataValue, -0.4, 0.1, 0, 6.1165E-11, -6.1300000000000011E-11, 9.96E-13, 6.1165E-11, 7.8208055851043883E-06, 8.2344537312039942E-10, 9.96E-13
DataValue, -0.35000000000000003, 0.1, 0, 8.5670000000000013E-11, -8.4931E-11, 1.224E-12, 8.5670000000000013E-11, 9.2558089867931046E-06, 9.2855553028588023E-10, 1.224E-12
DataValue, -0.3, 0.1, 0, 1.18114E-10, -1.1979100000000002E-10, 1.2520000000000001E-12, 1.18114E-10, 1.0868026499783665E-05, 1.4017814301457904E-09, 1.2520000000000001E-12
DataValue, -0.25, 0.1, 0, 1.68996E-10, -1.6617200000000002E-10, 1.3510000000000002E-12, 1.68996E-10, 1.2999846152935812E-05, 2.0786801877623204E-09, 1.3510000000000002E-12
DataValue, -0.2, 0.1, 0, 2.38001E-10, -2.3200600000000003E-10, 1.5260000000000002E-12, 2.38001E-10, 1.5427281030693647E-05, 2.5658243914679536E-09, 1.5260000000000002E-12
DataValue, -0.15, 0.1, 0, 3.2635300000000004E-10, -3.22982E-10, 1.471E-12, 3.2635300000000004E-10, 1.8065242871326143E-05, 3.4168712636744949E-09, 1.471E-12
DataValue, -0.1, 0.1, 0, 4.52527E-10, -4.4377300000000003E-10, 1.4200000000000002E-12, 4.52527E-10, 2.1272682012383863E-05, 4.3362899893563748E-09, 1.4200000000000002E-12
DataValue, -0.05, 0.1, 0, 6.0763700000000006E-10, -5.96313E-10, 1.688E-12, 6.0763700000000006E-10, 2.465029411589241E-05, 5.0525389252981255E-09, 1.688E-12
DataValue, 0, 0.1, 0, 8.0547E-10, -7.91575E-10, 1.7280000000000001E-12, 8.0547E-10, 2.838080337129307E-05, 5.2032007035798017E-09, 1.7280000000000001E-12
DataValue, 0.05, 0.1, 0, 1.01529E-09, -1.009038E-09, 1.788E-12, 1.01529E-09, 3.1863615614051079E-05, 5.8743732010891496E-09, 1.788E-12
DataValue, 0.1, 0.1, 0, 1.29926E-09, -1.27716E-09, 1.665E-12, 1.29926E-09, 3.6045249340239E-05, 7.2521547985916223E-09, 1.665E-12
DataValue, 0.15, 0.1, 0, 1.63051E-09, -1.62238E-09, 2.194E-12, 1.63051E-09, 4.0379574044311069E-05, 7.7558483330596361E-09, 2.194E-12
DataValue, 0.2, 0.1, 0, 2.0117E-09, -2.00329E-09, 2.277E-12, 2.0117E-09, 4.4851978774631563E-05, 8.4925185784055426E-09, 2.277E-12
DataValue, 0.25, 0.1, 0, 2.45967E-09, -2.45535E-09, 2.365E-12, 2.45967E-09, 4.9595060237890626E-05, 9.0114128710760761E-09, 2.365E-12
DataValue, 0.3, 0.1, 0, 2.95336E-09, -2.9481E-09, 2.5080000000000002E-12, 2.95336E-09, 5.4344824960616075E-05, 9.4823385977392944E-09, 2.5080000000000002E-12
DataValue, 0.35000000000000003, 0.1, 0, 3.5203799999999998E-09, -3.50872E-09, 2.3960000000000003E-12, 3.5203799999999998E-09, 5.9332790259686927E-05, 9.9337860840297458E-09, 2.3960000000000003E-12
DataValue, 0.4, 0.1, 0, 4.13599E-09, -4.12921E-09, 2.6340000000000003E-12, 4.13599E-09, 6.4311663016905417E-05, 9.8164595351118641E-09, 2.6340000000000003E-12
DataValue, 0.45, 0.1, 0, 4.79426E-09, -4.78732E-09, 2.958E-12, 4.79426E-09, 6.9240595029216784E-05, 1.025078989457344E-08, 2.958E-12
DataValue, 0.5, 0.1, 0, 5.54076E-09, -5.52994E-09, 2.9840000000000002E-12, 5.54076E-09, 7.4436281476172628E-05, 1.0990622754880897E-08, 2.9840000000000002E-12
DataValue, 0.55, 0.1, 0, 6.35595E-09, -6.35776E-09, 3.3530000000000004E-12, 6.35595E-09, 7.9724212131572681E-05, 1.0818885244660787E-08, 3.3530000000000004E-12
DataValue, 0.6, 0.1, 0, 7.19743E-09, -7.19202E-09, 3.5570000000000003E-12, 7.19743E-09, 8.4837668520533962E-05, 1.0543544730975939E-08, 3.5570000000000003E-12
DataValue, 0.65, 0.1, 0, 8.09863E-09, -8.10725E-09, 3.4280000000000003E-12, 8.09863E-09, 8.9992388567033816E-05, 1.0920142831878707E-08, 3.4280000000000003E-12
DataValue, 0.70000000000000007, 0.1, 0, 9.07973E-09, -9.08214E-09, 3.9530000000000006E-12, 9.07973E-09, 9.5287617243795109E-05, 1.1082427678109742E-08, 3.9530000000000006E-12
DataValue, 0.75, 0.1, 0, 1.010421E-08, -1.010263E-08, 3.9900000000000006E-12, 1.010421E-08, 0.00010051969956182719, 1.1089999496439395E-08, 3.9900000000000006E-12
DataValue, 0.8, 0.1, 0, 1.119756E-08, -1.119726E-08, 4.4550000000000007E-12, 1.119756E-08, 0.00010581852389822871, 1.0960076932575916E-08, 4.4550000000000007E-12
DataValue, 0.85000000000000009, 0.1, 0, 1.2318499999999999E-08, -1.2326299999999999E-08, 4.502E-12, 1.2318499999999999E-08, 0.00011098873816743751, 1.1007863891896629E-08, 4.502E-12
DataValue, 0.9, 0.1, 0, 1.35281E-08, -1.35311E-08, 4.741E-12, 1.35281E-08, 0.00011631036067350148, 1.1102793225052297E-08, 4.741E-12
DataValue, 0.95000000000000007, 0.1, 0, 1.47685E-08, -1.4766999999999999E-08, 5.4940000000000006E-12, 1.47685E-08, 0.0001215257174428524, 1.06474020855752E-08, 5.4940000000000006E-12
DataValue, 1, 0.1, 0, 1.60349E-08, -1.6063999999999997E-08, 5.855E-12, 1.60349E-08, 0.0001266289856233556, 1.0506718981457831E-08, 5.855E-12
DataValue, 1.05, 0.1, 0, 1.7364899999999998E-08, -1.7373499999999997E-08, 6.534E-12, 1.7364899999999998E-08, 0.00013177594621174231, 1.0582333678265631E-08, 6.534E-12
DataValue, 1.1, 0.1, 0, 1.8745999999999998E-08, -1.87598E-08, 7.391E-12, 1.8745999999999998E-08, 0.00013691603266235842, 1.0273846188730955E-08, 7.391E-12
DataValue, 1.1500000000000001, 0.1, 0, 2.0139E-08, -2.0139999999999997E-08, 7.2640000000000006E-12, 2.0139E-08, 0.00014191194452899304, 1.0004624545920648E-08, 7.2640000000000006E-12
DataValue, 1.2, 0.1, 0, 2.1584999999999998E-08, -2.1594399999999996E-08, 7.904E-12, 2.1584999999999998E-08, 0.00014691834466805021, 1.0035979355465365E-08, 7.904E-12
DataValue, 1.25, 0.1, 0, 2.30827E-08, -2.3078499999999997E-08, 8.6970000000000014E-12, 2.30827E-08, 0.00015192991805434503, 9.91689042127957E-09, 8.6970000000000014E-12
DataValue, 1.3, 0.1, 0, 2.4610299999999996E-08, -2.4638599999999998E-08, 9.227E-12, 2.4610299999999996E-08, 0.00015687670317800535, 9.853539824012804E-09, 9.227E-12
DataValue, 1.35, 0.1, 0, 2.6197499999999997E-08, -2.6209999999999998E-08, 9.9780000000000013E-12, 2.6197499999999997E-08, 0.0001618564178523669, 9.5862313251616479E-09, 9.9780000000000013E-12
DataValue, 1.4000000000000001, 0.1, 0, 2.7778099999999998E-08, -2.78062E-08, 1.0836000000000001E-11, 2.7778099999999998E-08, 0.00016666763333053, 9.4548253796884426E-09, 1.0836000000000001E-11
DataValue, 1.4500000000000002, 0.1, 0, 2.9439699999999998E-08, -2.9440299999999997E-08, 1.1789000000000002E-11, 2.9439699999999998E-08, 0.00017158001049073286, 9.4809463725573E-09, 1.1789000000000002E-11
DataValue, 1.5, 0.1, 0, 3.1118599999999994E-08, -3.1147999999999995E-08, 1.2601000000000001E-11, 3.1118599999999994E-08, 0.00017640464846482927, 9.1974838513449733E-09, 1.2601000000000001E-11
DataValue, 1.55, 0.1, 0, 3.28227E-08, -3.2847599999999996E-08, 1.3432000000000002E-11, 3.28227E-08, 0.00018117036181450872, 9.1967622675259958E-09, 1.3432000000000002E-11
DataValue, 1.6, 0.1, 0, 3.4594E-08, -3.4614499999999995E-08, 1.4645E-11, 3.4594E-08, 0.00018599462357820991, 9.3476286147241552E-09, 1.4645E-11
DataValue, 1.6500000000000001, 0.1, 0, 3.64194E-08, -3.64587E-08, 1.5284E-11, 3.64194E-08, 0.000190838675325522, 9.2535501009121356E-09, 1.5284E-11
DataValue, 1.7000000000000002, 0.1, 0, 3.8264899999999993E-08, -3.8286199999999994E-08, 1.6635000000000003E-11, 3.8264899999999993E-08, 0.00019561416104157693, 9.07920769504445E-09, 1.6635000000000003E-11
DataValue, 1.75, 0.1, 0, 4.0146999999999995E-08, -4.0146499999999995E-08, 1.8025E-11, 4.0146999999999995E-08, 0.00020036716297836828, 8.780118416574378E-09, 1.8025E-11
DataValue, 1.8, 0.1, 0, 4.20186E-08, -4.2051799999999994E-08, 1.9127000000000003E-11, 4.20186E-08, 0.00020498438964955355, 8.8057202489290548E-09, 1.9127000000000003E-11
DataValue, 1.85, 0.1, 0, 4.39955E-08, -4.4031499999999993E-08, 2.0036E-11, 4.39955E-08, 0.00020975104290563135, 8.6594205950639519E-09, 2.0036E-11
DataValue, 1.9000000000000001, 0.1, 0, 4.5920199999999995E-08, -4.5950899999999994E-08, 2.2392E-11, 4.5920199999999995E-08, 0.00021428999043352444, 8.2981440199495736E-09, 2.2392E-11
DataValue, 1.9500000000000002, 0.1, 0, 4.7899899999999993E-08, -4.7974199999999994E-08, 2.2739E-11, 4.7899899999999993E-08, 0.00021886045782644245, 8.6112563102553347E-09, 2.2739E-11
DataValue, 2, 0.1, 0, 4.9983399999999993E-08, -5.0046E-08, 2.5094000000000003E-11, 4.9983399999999993E-08, 0.00022356967594018646, 8.62783917608617E-09, 2.5094000000000003E-11
DataValue, 2.05, 0.1, 0, 5.2051999999999995E-08, -5.2073599999999992E-08, 2.6955000000000002E-11, 5.2051999999999995E-08, 0.00022814907407219516, 8.4264052391448143E-09, 2.6955000000000002E-11
DataValue, 2.1, 0.1, 0, 5.4172199999999995E-08, -5.4220299999999995E-08, 2.8528000000000003E-11, 5.4172199999999995E-08, 0.00023274922126615159, 8.3177724438977363E-09, 2.8528000000000003E-11
DataValue, 2.15, 0.1, 0, 5.6296699999999995E-08, -5.6330999999999997E-08, 3.0351E-11, 5.6296699999999995E-08, 0.00023726925633128283, 8.2207306889589667E-09, 3.0351E-11
