
SetupTitle, Transfer sat
PrimitiveTest, I/V Sweep
TestParameter, Context.MainFrame, 4155C
TestParameter, Channel.UnitType, SMU, SMU, SMU
TestParameter, Channel.Unit, SMU3:MP, SMU4:MP, SMU1:MP
TestParameter, Channel.IName, IS, ID, IG
TestParameter, Channel.VName, VS, VD, VG
TestParameter, Channel.Mode, COMMON, V, V
TestParameter, Channel.Func, CONST, CONST, VAR1
TestParameter, Channel.Index, 
TestParameter, Channel.Time, 
TestParameter, Measurement.Port.Unit, SMU3:MP, SMU4:MP, SMU1:MP
TestParameter, Measurement.Port.SeriesResistor, NONE, NONE, NONE
TestParameter, Measurement.Port.Filter, ON, ON, ON
TestParameter, Measurement.Primary.Locus, Double
TestParameter, Measurement.Primary.Scale, LINEAR
TestParameter, Measurement.Primary.Start, -2
TestParameter, Measurement.Primary.Stop, 3
TestParameter, Measurement.Primary.Step, 0.05
TestParameter, Measurement.Primary.Compliance, 0.001
TestParameter, Measurement.Primary.PowerCompliance, 0
TestParameter, Measurement.Aborting.Condition, CONTINUE AT ANY
TestParameter, Measurement.PostOutput.Value, START
TestParameter, Measurement.PostOutput.Retention, OFF
TestParameter, Measurement.Bias.Source, 0, 5, -2
TestParameter, Measurement.Bias.Compliance, 0.1, 0.001, 0.001
TestParameter, Measurement.Monitor.Unit, SMU4:MP, SMU3:MP, SMU1:MP
TestParameter, Measurement.Monitor.Adc, HR ADC, HR ADC, HR ADC
TestParameter, Measurement.Monitor.RangingMode, AUTO, AUTO, AUTO
TestParameter, Measurement.Monitor.RangeBoundary, , , 
TestParameter, Measurement.Monitor.RangeRating, BY FULL RANGE, BY FULL RANGE, BY FULL RANGE
TestParameter, Measurement.Monitor.RangeRatingCoeff, 50, 50, 50
TestParameter, Measurement.Timing.Hold, 0.5
TestParameter, Measurement.Timing.Delay, 0.05
TestParameter, Measurement.Adc.HighResolution.AutoZero, OFF
TestParameter, Measurement.Adc.HighResolution.Mode, AUTO
TestParameter, Measurement.Adc.HighResolution.Coeff, 1
TestParameter, Measurement.Ag16440ASelector.SemiconductorRelay.Channel1, DEFAULT
TestParameter, Measurement.Ag16440ASelector.SemiconductorRelay.Channel3, DEFAULT
TestParameter, Function.User.Name, absID, sqrtID, gm2, absIG
TestParameter, Function.User.Unit, A, A, A/V, A
TestParameter, Function.User.Definition, abs(ID), sqrt(abs(ID)), (delta(sqrtID)/delta(VG))^2, abs(IG)
TestParameter, Output.Graph.Enabled, true
TestParameter, Output.Graph.XAxis.Data, VG
TestParameter, Output.Graph.XAxis.Scale, Linear
TestParameter, Output.Graph.XAxis.Left, -5
TestParameter, Output.Graph.XAxis.Right, 7
TestParameter, Output.Graph.YAxis.Data, ID, absIG, gm2
TestParameter, Output.Graph.YAxis.Scale, Log, Log, Linear
TestParameter, Output.Graph.YAxis.Bottom, 1E-14, 1E-14, 0
TestParameter, Output.Graph.YAxis.Top, 0.01, 0.01, 1E-05
TestParameter, Output.Graph.YAxis.Group, , , 
TestParameter, Output.List.Data, VG, IG, VD, ID, VS, IS, sqrtID, gm2, absIG
TestParameter, AutoAnalysis.Interpolation, false
TestParameter, AutoAnalysis.Line1.Enabled, false
TestParameter, AutoAnalysis.Line1.Type, 1
TestParameter, AutoAnalysis.Line1.Fix, True
TestParameter, AutoAnalysis.Line1.YAxis, 0
TestParameter, AutoAnalysis.Line1.Point1.Type, 0
TestParameter, AutoAnalysis.Line1.Point1.XY.X, 
TestParameter, AutoAnalysis.Line1.Point1.XY.Y, 
TestParameter, AutoAnalysis.Line1.Point1.Data.Var, 
TestParameter, AutoAnalysis.Line1.Point1.Data.Condition, 
TestParameter, AutoAnalysis.Line1.Point1.Data.Start, false
TestParameter, AutoAnalysis.Line1.Point1.Data.StartVar, 
TestParameter, AutoAnalysis.Line1.Point1.Data.StartCondition, 
TestParameter, AutoAnalysis.Line1.Point2.Type, 0
TestParameter, AutoAnalysis.Line1.Point2.XY.X, 
TestParameter, AutoAnalysis.Line1.Point2.XY.Y, 
TestParameter, AutoAnalysis.Line1.Point2.Data.Var, 
TestParameter, AutoAnalysis.Line1.Point2.Data.Condition, 
TestParameter, AutoAnalysis.Line1.Point2.Data.Start, false
TestParameter, AutoAnalysis.Line1.Point2.Data.StartVar, 
TestParameter, AutoAnalysis.Line1.Point2.Data.StartCondition, 
TestParameter, AutoAnalysis.Line1.GradientExpr, 0
TestParameter, AutoAnalysis.Line2.Enabled, false
TestParameter, AutoAnalysis.Line2.Type, 1
TestParameter, AutoAnalysis.Line2.Fix, True
TestParameter, AutoAnalysis.Line2.YAxis, 0
TestParameter, AutoAnalysis.Line2.Point1.Type, 0
TestParameter, AutoAnalysis.Line2.Point1.XY.X, 
TestParameter, AutoAnalysis.Line2.Point1.XY.Y, 
TestParameter, AutoAnalysis.Line2.Point1.Data.Var, 
TestParameter, AutoAnalysis.Line2.Point1.Data.Condition, 
TestParameter, AutoAnalysis.Line2.Point1.Data.Start, false
TestParameter, AutoAnalysis.Line2.Point1.Data.StartVar, 
TestParameter, AutoAnalysis.Line2.Point1.Data.StartCondition, 
TestParameter, AutoAnalysis.Line2.Point2.Type, 0
TestParameter, AutoAnalysis.Line2.Point2.XY.X, 
TestParameter, AutoAnalysis.Line2.Point2.XY.Y, 
TestParameter, AutoAnalysis.Line2.Point2.Data.Var, 
TestParameter, AutoAnalysis.Line2.Point2.Data.Condition, 
TestParameter, AutoAnalysis.Line2.Point2.Data.Start, false
TestParameter, AutoAnalysis.Line2.Point2.Data.StartVar, 
TestParameter, AutoAnalysis.Line2.Point2.Data.StartCondition, 
TestParameter, AutoAnalysis.Line2.GradientExpr, 0
TestParameter, AutoAnalysis.Marker.Enabled, false
TestParameter, AutoAnalysis.Marker.Data.Var, 
TestParameter, AutoAnalysis.Marker.Data.Condition, 
TestParameter, AutoAnalysis.Marker.Data.Start, false
TestParameter, AutoAnalysis.Marker.Data.StartVar, 
TestParameter, AutoAnalysis.Marker.Data.StartCondition, 
MetaData, TestRecord.EntryPoint, true
MetaData, TestRecord.RecordTime, 06/18/2019 15:06:19
MetaData, TestRecord.TestTarget, 4-34
MetaData, TestRecord.IterationIndex, 1
MetaData, TestRecord.Preservation, true
MetaData, TestRecord.Flag, 
MetaData, TestRecord.Remarks, good
MetaData, TestRecord.LinkKey, 576e06ae-ae3a-480a-a0bd-e06753043173
Dimension1, 202, 202, 202, 202, 202, 202, 202, 202, 202, 202
Dimension2, 1, 1, 1, 1, 1, 1, 1, 1, 1, 1
DataName, VG, VS, VD, ID, IS, IG, absID, sqrtID, gm2, absIG
DataValue, -2, 0, 5, 5.6910000000000007E-12, 2.5590000000000003E-12, -3.775E-12, 5.6910000000000007E-12, 2.385581690070579E-06, 2.7637928809819883E-10, 3.775E-12
DataValue, -1.9500000000000002, 0, 5, 2.4160000000000002E-12, 1.3570000000000002E-12, -4.147E-12, 2.4160000000000002E-12, 1.5543487382180359E-06, 4.744630503805593E-10, 4.147E-12
DataValue, -1.9000000000000001, 0, 5, -4.3000000000000006E-14, 1.7980000000000002E-12, -3.6110000000000003E-12, 4.3000000000000006E-14, 2.0736441353327722E-07, 6.7467232087679913E-12, 3.6110000000000003E-12
DataValue, -1.85, 0, 5, 1.6760000000000001E-12, 1.8950000000000003E-12, -2.3130000000000003E-12, 1.6760000000000001E-12, 1.2946041866145806E-06, 1.4513653015744347E-10, 2.3130000000000003E-12
DataValue, -1.8, 0, 5, 1.994E-12, -2.2900000000000003E-13, -2.3510000000000004E-12, 1.994E-12, 1.4120906486483084E-06, 4.8016560572055575E-11, 2.3510000000000004E-12
DataValue, -1.75, 0, 5, 3.62E-13, 1.2290000000000001E-12, -2.445E-12, 3.62E-13, 6.01664358259653E-07, 5.0403050956400381E-11, 2.445E-12
DataValue, -1.7000000000000002, 0, 5, 4.93E-13, 1E-12, -2.4210000000000003E-12, 4.93E-13, 7.0213958726167839E-07, 2.375313815279671E-11, 2.4210000000000003E-12
DataValue, -1.6500000000000001, 0, 5, 1.186E-12, 1.046E-12, -1.7120000000000002E-12, 1.186E-12, 1.0890362712049585E-06, 1.7141888945501189E-12, 1.7120000000000002E-12
DataValue, -1.6, 0, 5, 6.9400000000000007E-13, 1.3380000000000002E-12, -1.6260000000000001E-12, 6.9400000000000007E-13, 8.3306662398634124E-07, 2.2595621252717863E-12, 1.6260000000000001E-12
DataValue, -1.55, 0, 5, 1.5360000000000001E-12, 1.1790000000000001E-12, -1.425E-12, 1.5360000000000001E-12, 1.2393546707863734E-06, 1.0285073959951502E-14, 1.425E-12
DataValue, -1.5, 0, 5, -7.110000000000001E-13, 7.590000000000001E-13, -1.4800000000000002E-12, 7.110000000000001E-13, 8.4320815935331183E-07, 9.1539724351871E-13, 1.4800000000000002E-12
DataValue, -1.4500000000000002, 0, 5, 1.308E-12, 1.093E-12, -1.333E-12, 1.308E-12, 1.1436782764396638E-06, 4.8521815019764573E-12, 1.333E-12
DataValue, -1.4000000000000001, 0, 5, 1.1310000000000001E-12, 4.98E-13, -9.32E-13, 1.1310000000000001E-12, 1.0634848376916335E-06, 1.899780730329805E-11, 9.32E-13
DataValue, -1.35, 0, 5, 5.0100000000000009E-13, -1.23E-13, -8.65E-13, 5.0100000000000009E-13, 7.0781353476745557E-07, 4.4691429008701663E-11, 8.65E-13
DataValue, -1.3, 0, 5, -1.5600000000000002E-13, 2.8E-13, -8.0900000000000009E-13, 1.5600000000000002E-13, 3.9496835316263E-07, 3.2944297384416983E-12, 8.0900000000000009E-13
DataValue, -1.25, 0, 5, 2.7700000000000003E-13, -1.3000000000000001E-14, -1.078E-12, 2.7700000000000003E-13, 5.2630789467763069E-07, 1.6862275339229773E-11, 1.078E-12
DataValue, -1.2, 0, 5, 6.4900000000000006E-13, 2.69E-13, -5.83E-13, 6.4900000000000006E-13, 8.056053624449133E-07, 1.5024706600489572E-12, 5.83E-13
DataValue, -1.1500000000000001, 0, 5, -1.63E-13, -1.8000000000000002E-14, -7.48E-13, 1.63E-13, 4.03732584763727E-07, 4.9289880444043591E-12, 7.48E-13
DataValue, -1.1, 0, 5, 1.0560000000000002E-12, -1.8000000000000002E-14, -5.83E-13, 1.0560000000000002E-12, 1.0276186062932105E-06, 2.1853145059640333E-11, 5.83E-13
DataValue, -1.05, 0, 5, 7.590000000000001E-13, -3.51E-13, -5.13E-13, 7.590000000000001E-13, 8.712060605849801E-07, 5.7936508511600465E-11, 5.13E-13
DataValue, -1, 0, 5, -7.1E-14, -2.79E-13, -4.0200000000000005E-13, 7.1E-14, 2.6645825188948457E-07, 2.1170117967429269E-11, 4.0200000000000005E-13
DataValue, -0.95000000000000007, 0, 5, -1.69E-13, -8.3000000000000012E-14, -4.6200000000000005E-13, 1.69E-13, 4.1109609582188935E-07, 5.0303077014115575E-11, 4.6200000000000005E-13
DataValue, -0.9, 0, 5, 9.52E-13, 1.16E-13, -3.89E-13, 9.52E-13, 9.7570487341203751E-07, 3.6951615263188275E-12, 3.89E-13
DataValue, -0.85000000000000009, 0, 5, 3.64E-13, -1.0800000000000001E-13, -2.32E-13, 3.64E-13, 6.0332412515993429E-07, 1.1040770948528052E-11, 2.32E-13
DataValue, -0.8, 0, 5, -4.1400000000000005E-13, -8.69E-13, -4.11E-13, 4.1400000000000005E-13, 6.434283176858165E-07, 5.3057655727725034E-12, 4.11E-13
DataValue, -0.75, 0, 5, 6.9500000000000007E-13, -2.96E-13, -2.95E-13, 6.9500000000000007E-13, 8.336666000266534E-07, 9.739518543558079E-12, 2.95E-13
DataValue, -0.70000000000000007, 0, 5, 9.13E-13, -4.031E-12, -1.41E-13, 9.13E-13, 9.555103348473004E-07, 1.5822630757573519E-11, 1.41E-13
DataValue, -0.65, 0, 5, -1.9000000000000002E-13, -2.37E-13, -2.8800000000000004E-13, 1.9000000000000002E-13, 4.358898943540674E-07, 2.4603625077596459E-16, 2.8800000000000004E-13
DataValue, -0.6, 0, 5, 9.1600000000000014E-13, -3.99E-13, -2.0900000000000002E-13, 9.1600000000000014E-13, 9.57078889120432E-07, 3.0474510161044664E-11, 2.0900000000000002E-13
DataValue, -0.55, 0, 5, 9.76E-13, -3.2860000000000003E-12, -8.6000000000000012E-14, 9.76E-13, 9.8792712281827747E-07, 6.51616997361196E-13, 8.6000000000000012E-14
DataValue, -0.5, 0, 5, 7.6800000000000006E-13, -1.322E-12, -2.71E-13, 7.6800000000000006E-13, 8.7635609200826583E-07, 4.5386978631672266E-11, 2.71E-13
DataValue, -0.45, 0, 5, 2.761E-12, -2.193E-12, -6.3000000000000009E-14, 2.761E-12, 1.6616257099599777E-06, 9.5035148282591386E-11, 6.3000000000000009E-14
DataValue, -0.4, 0, 5, 3.4270000000000002E-12, -8.96E-13, -4E-15, 3.4270000000000002E-12, 1.8512158166999331E-06, 5.320231563388009E-11, 4E-15
DataValue, -0.35000000000000003, 0, 5, 5.7170000000000008E-12, -5.7550000000000004E-12, -8.8E-14, 5.7170000000000008E-12, 2.3910248848558647E-06, 1.6940603531072764E-10, 8.8E-14
DataValue, -0.3, 0, 5, 9.94E-12, -9.049E-12, -8.1000000000000008E-14, 9.94E-12, 3.1527765540868895E-06, 2.2534415514685345E-10, 8.1000000000000008E-14
DataValue, -0.25, 0, 5, 1.5149000000000002E-11, -1.4083000000000001E-11, 6.2E-14, 1.5149000000000002E-11, 3.8921716303369772E-06, 2.4543965381437995E-10, 6.2E-14
DataValue, -0.2, 0, 5, 2.2273E-11, -2.4793000000000002E-11, 4.8000000000000004E-14, 2.2273E-11, 4.7194279314340636E-06, 3.8345980452950913E-10, 4.8000000000000004E-14
DataValue, -0.15, 0, 5, 3.4227E-11, -3.4523E-11, -8.8E-14, 3.4227E-11, 5.850384602741943E-06, 5.76834399635751E-10, 8.8E-14
DataValue, -0.1, 0, 5, 5.0711E-11, -4.7781000000000004E-11, -1.7E-14, 5.0711E-11, 7.1211656349224174E-06, 7.0841514956421967E-10, 1.7E-14
DataValue, -0.05, 0, 5, 7.2454E-11, -6.6939000000000008E-11, 6.7E-14, 7.2454E-11, 8.5119915413491814E-06, 9.1605618571902055E-10, 6.7E-14
DataValue, 0, 0, 5, 1.0297800000000001E-10, -9.9309000000000008E-11, 1.5100000000000001E-13, 1.0297800000000001E-10, 1.0147807645003921E-05, 1.1683670001942159E-09, 1.5100000000000001E-13
DataValue, 0.05, 0, 5, 1.4232800000000002E-10, -1.37083E-10, 6.5E-14, 1.4232800000000002E-10, 1.1930129923852465E-05, 1.412486487940505E-09, 6.5E-14
DataValue, 0.1, 0, 5, 1.9338E-10, -1.8616400000000002E-10, -2.5E-14, 1.9338E-10, 1.3906113763377603E-05, 1.6878068841939806E-09, 2.5E-14
DataValue, 0.15, 0, 5, 2.57231E-10, -2.4739E-10, 7.1E-14, 2.57231E-10, 1.603842261570632E-05, 1.9797915319981166E-09, 7.1E-14
DataValue, 0.2, 0, 5, 3.3692800000000003E-10, -3.29265E-10, 1.0700000000000001E-13, 3.3692800000000003E-10, 1.8355598600971857E-05, 2.3149315402678471E-09, 1.0700000000000001E-13
DataValue, 0.25, 0, 5, 4.34714E-10, -4.2241400000000003E-10, 2.34E-13, 4.34714E-10, 2.0849796162073145E-05, 2.6861590072922541E-09, 2.34E-13
DataValue, 0.3, 0, 5, 5.54057E-10, -5.3589700000000006E-10, 3.64E-13, 5.54057E-10, 2.3538415409708447E-05, 3.0163059536838156E-09, 3.64E-13
DataValue, 0.35000000000000003, 0, 5, 6.93895E-10, -6.7582300000000008E-10, 2.46E-13, 6.93895E-10, 2.6341886796507192E-05, 3.3845531833838081E-09, 2.46E-13
DataValue, 0.4, 0, 5, 8.6178100000000011E-10, -8.353120000000001E-10, 2.57E-13, 8.6178100000000011E-10, 2.9356106690090906E-05, 2.9496387402601342E-09, 2.57E-13
DataValue, 0.45, 0, 5, 1.00952E-09, -1.0004400000000001E-09, 3.3600000000000003E-13, 1.00952E-09, 3.1772944465378084E-05, 3.684677875377272E-09, 3.3600000000000003E-13
DataValue, 0.5, 0, 5, 1.25502E-09, -1.20697E-09, 2.58E-13, 1.25502E-09, 3.5426261445430568E-05, 5.105719356432734E-09, 2.58E-13
DataValue, 0.55, 0, 5, 1.51464E-09, -1.49204E-09, 7.3E-14, 1.51464E-09, 3.8918376122340971E-05, 5.4048526541716724E-09, 7.3E-14
DataValue, 0.6, 0, 5, 1.82996E-09, -1.80215E-09, 3.5700000000000004E-13, 1.82996E-09, 4.2778031745277857E-05, 5.97825656213365E-09, 3.5700000000000004E-13
DataValue, 0.65, 0, 5, 2.17625E-09, -2.14728E-09, 4.12E-13, 2.17625E-09, 4.665029474719318E-05, 6.4935782739694919E-09, 4.12E-13
DataValue, 0.70000000000000007, 0, 5, 2.58433E-09, -2.55146E-09, 1.3900000000000001E-13, 2.58433E-09, 5.0836305924014581E-05, 6.8579914392750217E-09, 1.3900000000000001E-13
DataValue, 0.75, 0, 5, 3.01748E-09, -2.97909E-09, 3.6800000000000005E-13, 3.01748E-09, 5.493159382359117E-05, 7.2472587091491065E-09, 3.6800000000000005E-13
DataValue, 0.8, 0, 5, 3.52235E-09, -3.46604E-09, 3.9600000000000003E-13, 3.52235E-09, 5.9349389213369329E-05, 8.1523185123079675E-09, 3.9600000000000003E-13
DataValue, 0.85000000000000009, 0, 5, 4.09096E-09, -4.02827E-09, 2.7600000000000004E-13, 4.09096E-09, 6.3960612880115518E-05, 8.9829797918166049E-09, 2.7600000000000004E-13
DataValue, 0.9, 0, 5, 4.73719E-09, -4.67695E-09, 5.0600000000000007E-13, 4.73719E-09, 6.8827247511432557E-05, 9.633009341516404E-09, 5.0600000000000007E-13
DataValue, 0.95000000000000007, 0, 5, 5.44281E-09, -5.39631E-09, 3.2300000000000004E-13, 5.44281E-09, 7.3775402404866621E-05, 1.0746829577865708E-08, 3.2300000000000004E-13
DataValue, 1, 0, 5, 6.2716799999999996E-09, -6.18036E-09, 3.7200000000000003E-13, 6.2716799999999996E-09, 7.9193939162034354E-05, 1.1574905686815241E-08, 3.7200000000000003E-13
DataValue, 1.05, 0, 5, 7.14601E-09, -7.08213E-09, 4.64E-13, 7.14601E-09, 8.453407596939828E-05, 1.2824582301625387E-08, 4.64E-13
DataValue, 1.1, 0, 5, 8.1936E-09, -8.09383E-09, 2.57E-13, 8.1936E-09, 9.0518506395101324E-05, 1.4006737197850409E-08, 2.57E-13
DataValue, 1.1500000000000001, 0, 5, 9.287E-09, -9.15588E-09, 4.6000000000000006E-13, 9.287E-09, 9.6369082178881415E-05, 1.2707490601861853E-08, 4.6000000000000006E-13
DataValue, 1.2, 0, 5, 1.036146E-08, -1.0129599999999999E-08, 4.3200000000000003E-13, 1.036146E-08, 0.00010179125699194406, 9.4845816902249876E-09, 4.3200000000000003E-13
DataValue, 1.25, 0, 5, 1.12589E-08, -1.1200899999999998E-08, -1.65E-13, 1.12589E-08, 0.00010610796388584601, 1.2811673520601331E-08, 1.65E-13
DataValue, 1.3, 0, 5, 1.2793899999999998E-08, -1.2710699999999999E-08, 1E-15, 1.2793899999999998E-08, 0.00011311012333120319, 2.0543182086919791E-08, 1E-15
DataValue, 1.35, 0, 5, 1.4506E-08, -1.43712E-08, 2.8600000000000004E-13, 1.4506E-08, 0.00012044085685513865, 2.0865695052681934E-08, 2.8600000000000004E-13
DataValue, 1.4000000000000001, 0, 5, 1.62703E-08, -1.6109899999999998E-08, 1.82E-13, 1.62703E-08, 0.00012755508613928338, 2.1250818254595831E-08, 1.82E-13
DataValue, 1.4500000000000002, 0, 5, 1.823E-08, -1.8015699999999998E-08, 3.04E-13, 1.823E-08, 0.00013501851724856114, 2.1631640619558725E-08, 3.04E-13
DataValue, 1.5, 0, 5, 2.0238699999999997E-08, -2.00214E-08, 3.62E-13, 2.0238699999999997E-08, 0.00014226278501421234, 2.0588849737487028E-08, 3.62E-13
DataValue, 1.55, 0, 5, 2.23106E-08, -2.21162E-08, 2.18E-13, 2.23106E-08, 0.00014936733243919168, 2.1324067291685898E-08, 2.18E-13
DataValue, 1.6, 0, 5, 2.46068E-08, -2.4390999999999997E-08, 3.6100000000000003E-13, 2.46068E-08, 0.00015686554752398628, 2.2374951214357517E-08, 3.6100000000000003E-13
DataValue, 1.6500000000000001, 0, 5, 2.7002899999999998E-08, -2.67524E-08, 2.85E-13, 2.7002899999999998E-08, 0.00016432559143359258, 2.2291270861429607E-08, 2.85E-13
DataValue, 1.7000000000000002, 0, 5, 2.9513799999999998E-08, -2.9268299999999997E-08, 3.2500000000000003E-13, 2.9513799999999998E-08, 0.0001717958090292077, 2.3128237854032169E-08, 3.2500000000000003E-13
DataValue, 1.75, 0, 5, 3.22323E-08, -3.20472E-08, 4.4200000000000004E-13, 3.22323E-08, 0.00017953356232192351, 2.4178157066732488E-08, 4.4200000000000004E-13
DataValue, 1.8, 0, 5, 3.50982E-08, -3.47221E-08, 2.81E-13, 3.50982E-08, 0.00018734513604574845, 2.4375130513105527E-08, 2.81E-13
DataValue, 1.85, 0, 5, 3.8081999999999996E-08, -3.7663E-08, 2.9700000000000005E-13, 3.8081999999999996E-08, 0.00019514609911550884, 2.3228488229167607E-08, 2.9700000000000005E-13
DataValue, 1.9000000000000001, 0, 5, 4.1041099999999996E-08, -4.06958E-08, 3.97E-13, 4.1041099999999996E-08, 0.00020258603110777406, 2.3170659764961572E-08, 3.97E-13
DataValue, 1.9500000000000002, 0, 5, 4.42547E-08, -4.3717399999999995E-08, 3.14E-13, 4.42547E-08, 0.0002103680108761786, 2.3417971064713644E-08, 3.14E-13
DataValue, 2, 0, 5, 4.7475599999999993E-08, -4.6999799999999993E-08, 4.22E-13, 4.7475599999999993E-08, 0.00021788896254744064, 2.4711223533114434E-08, 4.22E-13
DataValue, 2.05, 0, 5, 5.1115699999999996E-08, -5.0435599999999994E-08, 2.2500000000000003E-13, 5.1115699999999996E-08, 0.000226087814797702, 2.3566109052317479E-08, 2.2500000000000003E-13
DataValue, 2.1, 0, 5, 5.4400999999999992E-08, -5.4046899999999995E-08, 3.64E-13, 5.4400999999999992E-08, 0.00023324021951627466, 2.2265179256607432E-08, 3.64E-13
DataValue, 2.15, 0, 5, 5.8085499999999994E-08, -5.7459299999999995E-08, 4.5800000000000007E-13, 5.8085499999999994E-08, 0.00024100933591875647, 2.4633028141148421E-08, 4.5800000000000007E-13
DataValue, 2.2, 0, 5, 6.1968699999999988E-08, -6.1429999999999988E-08, 2.9700000000000005E-13, 6.1968699999999988E-08, 0.00024893513211276543, 2.5214776338674986E-08, 2.9700000000000005E-13
DataValue, 2.25, 0, 5, 6.59917E-08, -6.54647E-08, 4.0800000000000003E-13, 6.59917E-08, 0.00025688849721231194, 2.7814086870256487E-08, 4.0800000000000003E-13
DataValue, 2.3000000000000003, 0, 5, 7.05501E-08, -6.9697499999999993E-08, 2.0300000000000002E-13, 7.05501E-08, 0.00026561268794995468, 2.6110524830106087E-08, 2.0300000000000002E-13
DataValue, 2.35, 0, 5, 7.45548E-08, -7.3807599999999987E-08, 1.4900000000000002E-13, 7.45548E-08, 0.0002730472486585426, 2.3093361024156407E-08, 1.4900000000000002E-13
