
SetupTitle, Transfer stab
PrimitiveTest, I/V Sweep
TestParameter, Context.MainFrame, 4155C
TestParameter, Channel.UnitType, SMU, SMU, SMU
TestParameter, Channel.Unit, SMU3:MP, SMU4:MP, SMU1:MP
TestParameter, Channel.IName, ID, IS, IG
TestParameter, Channel.VName, VD, VS, VG
TestParameter, Channel.Mode, V, COMMON, V
TestParameter, Channel.Func, CONST, CONST, VAR1
TestParameter, Channel.Index, 
TestParameter, Channel.Time, 
TestParameter, Measurement.Port.Unit, SMU3:MP, SMU4:MP, SMU1:MP
TestParameter, Measurement.Port.SeriesResistor, NONE, NONE, NONE
TestParameter, Measurement.Port.Filter, ON, ON, ON
TestParameter, Measurement.Primary.Locus, Single
TestParameter, Measurement.Primary.Scale, LINEAR
TestParameter, Measurement.Primary.Start, -2
TestParameter, Measurement.Primary.Stop, 3
TestParameter, Measurement.Primary.Step, 0.05
TestParameter, Measurement.Primary.Compliance, 0.1
TestParameter, Measurement.Primary.PowerCompliance, 0
TestParameter, Measurement.Aborting.Condition, CONTINUE AT ANY
TestParameter, Measurement.PostOutput.Value, START
TestParameter, Measurement.PostOutput.Retention, OFF
TestParameter, Measurement.Bias.Source, 3, 0, -2
TestParameter, Measurement.Bias.Compliance, 0.1, 0.1, 0.1
TestParameter, Measurement.Monitor.Unit, SMU3:MP, SMU4:MP, SMU1:MP
TestParameter, Measurement.Monitor.Adc, HR ADC, HR ADC, HR ADC
TestParameter, Measurement.Monitor.RangingMode, AUTO, AUTO, AUTO
TestParameter, Measurement.Monitor.RangeBoundary, , , 
TestParameter, Measurement.Monitor.RangeRating, BY FULL RANGE, BY FULL RANGE, BY FULL RANGE
TestParameter, Measurement.Monitor.RangeRatingCoeff, 50, 50, 50
TestParameter, Measurement.Timing.Hold, 0.5
TestParameter, Measurement.Timing.Delay, 0.05
TestParameter, Measurement.Adc.HighResolution.AutoZero, OFF
TestParameter, Measurement.Adc.HighResolution.Mode, AUTO
TestParameter, Measurement.Adc.HighResolution.Coeff, 1
TestParameter, Measurement.Ag16440ASelector.SemiconductorRelay.Channel1, DEFAULT
TestParameter, Measurement.Ag16440ASelector.SemiconductorRelay.Channel3, DEFAULT
TestParameter, Function.User.Name, absID, sqrtID, gm2, absIG
TestParameter, Function.User.Unit, A, A, A/V, A
TestParameter, Function.User.Definition, abs(ID), sqrt(abs(ID)), (delta(sqrtID)/delta(VG))^2, abs(IG)
TestParameter, Output.Graph.Enabled, true
TestParameter, Output.Graph.XAxis.Data, VG
TestParameter, Output.Graph.XAxis.Scale, Linear
TestParameter, Output.Graph.XAxis.Left, -5
TestParameter, Output.Graph.XAxis.Right, 7
TestParameter, Output.Graph.YAxis.Data, ID, absIG, gm2
TestParameter, Output.Graph.YAxis.Scale, Log, Log, Linear
TestParameter, Output.Graph.YAxis.Bottom, 1E-14, 1E-14, 0
TestParameter, Output.Graph.YAxis.Top, 0.01, 0.01, 1E-05
TestParameter, Output.Graph.YAxis.Group, , , 
TestParameter, Output.List.Data, VG, IG, VD, ID, VS, IS, sqrtID, gm2, absIG
TestParameter, AutoAnalysis.Interpolation, false
TestParameter, AutoAnalysis.Line1.Enabled, false
TestParameter, AutoAnalysis.Line1.Type, 1
TestParameter, AutoAnalysis.Line1.Fix, True
TestParameter, AutoAnalysis.Line1.YAxis, 0
TestParameter, AutoAnalysis.Line1.Point1.Type, 0
TestParameter, AutoAnalysis.Line1.Point1.XY.X, 
TestParameter, AutoAnalysis.Line1.Point1.XY.Y, 
TestParameter, AutoAnalysis.Line1.Point1.Data.Var, 
TestParameter, AutoAnalysis.Line1.Point1.Data.Condition, 
TestParameter, AutoAnalysis.Line1.Point1.Data.Start, false
TestParameter, AutoAnalysis.Line1.Point1.Data.StartVar, 
TestParameter, AutoAnalysis.Line1.Point1.Data.StartCondition, 
TestParameter, AutoAnalysis.Line1.Point2.Type, 0
TestParameter, AutoAnalysis.Line1.Point2.XY.X, 
TestParameter, AutoAnalysis.Line1.Point2.XY.Y, 
TestParameter, AutoAnalysis.Line1.Point2.Data.Var, 
TestParameter, AutoAnalysis.Line1.Point2.Data.Condition, 
TestParameter, AutoAnalysis.Line1.Point2.Data.Start, false
TestParameter, AutoAnalysis.Line1.Point2.Data.StartVar, 
TestParameter, AutoAnalysis.Line1.Point2.Data.StartCondition, 
TestParameter, AutoAnalysis.Line1.GradientExpr, 0
TestParameter, AutoAnalysis.Line2.Enabled, false
TestParameter, AutoAnalysis.Line2.Type, 1
TestParameter, AutoAnalysis.Line2.Fix, True
TestParameter, AutoAnalysis.Line2.YAxis, 0
TestParameter, AutoAnalysis.Line2.Point1.Type, 0
TestParameter, AutoAnalysis.Line2.Point1.XY.X, 
TestParameter, AutoAnalysis.Line2.Point1.XY.Y, 
TestParameter, AutoAnalysis.Line2.Point1.Data.Var, 
TestParameter, AutoAnalysis.Line2.Point1.Data.Condition, 
TestParameter, AutoAnalysis.Line2.Point1.Data.Start, false
TestParameter, AutoAnalysis.Line2.Point1.Data.StartVar, 
TestParameter, AutoAnalysis.Line2.Point1.Data.StartCondition, 
TestParameter, AutoAnalysis.Line2.Point2.Type, 0
TestParameter, AutoAnalysis.Line2.Point2.XY.X, 
TestParameter, AutoAnalysis.Line2.Point2.XY.Y, 
TestParameter, AutoAnalysis.Line2.Point2.Data.Var, 
TestParameter, AutoAnalysis.Line2.Point2.Data.Condition, 
TestParameter, AutoAnalysis.Line2.Point2.Data.Start, false
TestParameter, AutoAnalysis.Line2.Point2.Data.StartVar, 
TestParameter, AutoAnalysis.Line2.Point2.Data.StartCondition, 
TestParameter, AutoAnalysis.Line2.GradientExpr, 0
TestParameter, AutoAnalysis.Marker.Enabled, false
TestParameter, AutoAnalysis.Marker.Data.Var, 
TestParameter, AutoAnalysis.Marker.Data.Condition, 
TestParameter, AutoAnalysis.Marker.Data.Start, false
TestParameter, AutoAnalysis.Marker.Data.StartVar, 
TestParameter, AutoAnalysis.Marker.Data.StartCondition, 
MetaData, TestRecord.EntryPoint, true
MetaData, TestRecord.RecordTime, 06/18/2019 15:03:45
MetaData, TestRecord.TestTarget, 4-34
MetaData, TestRecord.IterationIndex, 4
MetaData, TestRecord.Preservation, true
MetaData, TestRecord.Flag, 
MetaData, TestRecord.Remarks, weird
MetaData, TestRecord.LinkKey, dca825dd-b31e-4b66-abd2-512ef419bf52
Dimension1, 101, 101, 101, 101, 101, 101, 101, 101, 101, 101
Dimension2, 1, 1, 1, 1, 1, 1, 1, 1, 1, 1
DataName, VG, VD, VS, ID, IS, IG, absID, sqrtID, gm2, absIG
DataValue, -2, 3, 0, 5.1967E-11, 6.3860000000000005E-12, -2.0985200000000002E-10, 5.1967E-11, 7.2088140494813713E-06, 1.5819679513308695E-08, 2.0985200000000002E-10
DataValue, -1.9500000000000002, 3, 0, 1.82186E-10, 9.064000000000001E-12, -1.8119500000000001E-10, 1.82186E-10, 1.3497629421494725E-05, 2.6768987489428E-09, 1.8119500000000001E-10
DataValue, -1.9000000000000001, 3, 0, 1.53331E-10, -5.0050000000000006E-12, -1.45363E-10, 1.53331E-10, 1.2382689530146511E-05, 3.7756628608149943E-10, 1.45363E-10
DataValue, -1.85, 3, 0, 1.33507E-10, 3.409E-12, -1.29477E-10, 1.33507E-10, 1.1554522923946276E-05, 2.1907582499248943E-10, 1.29477E-10
DataValue, -1.8, 3, 0, 1.1886600000000002E-10, 2.2740000000000002E-12, -1.18388E-10, 1.1886600000000002E-10, 1.0902568504714841E-05, 1.1779412585373803E-10, 1.18388E-10
DataValue, -1.75, 3, 0, 1.0960400000000001E-10, -2.1040000000000003E-12, -1.0848200000000001E-10, 1.0960400000000001E-10, 1.0469192901078861E-05, 7.67732154619628E-11, 1.0848200000000001E-10
DataValue, -1.7000000000000002, 3, 0, 1.0052800000000001E-10, -1.5990000000000002E-12, -1.0046200000000001E-10, 1.0052800000000001E-10, 1.0026365243696243E-05, 5.92927225066591E-11, 1.0046200000000001E-10
DataValue, -1.6500000000000001, 3, 0, 9.4074000000000013E-11, 1.2400000000000002E-12, -9.7935000000000009E-11, 9.4074000000000013E-11, 9.699175222667132E-06, 1.6062008181665597E-11, 9.7935000000000009E-11
DataValue, -1.6, 3, 0, 9.2652E-11, 2.0960000000000004E-12, -9.0219E-11, 9.2652E-11, 9.6255908909531361E-06, 9.5592610941438315E-12, 9.0219E-11
DataValue, -1.55, 3, 0, 8.8172000000000008E-11, -1.8000000000000002E-13, -9.0025000000000007E-11, 8.8172000000000008E-11, 9.3899946751848583E-06, 4.7727363290402341E-12, 9.0025000000000007E-11
DataValue, -1.5, 3, 0, 8.8494E-11, -7.1700000000000008E-13, -8.7001E-11, 8.8494E-11, 9.4071249593061115E-06, 6.2897328065946685E-12, 8.7001E-11
DataValue, -1.4500000000000002, 3, 0, 8.3525E-11, -1.1400000000000002E-13, -8.3822E-11, 8.3525E-11, 9.1392012780111159E-06, 1.6897876564350344E-11, 8.3822E-11
DataValue, -1.4000000000000001, 3, 0, 8.0929E-11, 5.64E-13, -8.0453E-11, 8.0929E-11, 8.9960546908075213E-06, 1.4330056981578211E-11, 8.0453E-11
DataValue, -1.35, 3, 0, 7.6749000000000011E-11, 1.1400000000000002E-13, -7.746300000000001E-11, 7.6749000000000011E-11, 8.7606506607671569E-06, 1.4935675132265453E-11, 7.746300000000001E-11
DataValue, -1.3, 3, 0, 7.4125E-11, -2.5430000000000004E-12, -7.4637E-11, 7.4125E-11, 8.6095876788612818E-06, 4.8289653332818009E-12, 7.4637E-11
DataValue, -1.25, 3, 0, 7.2947E-11, 6.38E-13, -7.3161E-11, 7.2947E-11, 8.540901591752478E-06, 7.0420240590620748E-12, 7.3161E-11
DataValue, -1.2, 3, 0, 6.9626E-11, 1.224E-12, -7.1183E-11, 6.9626E-11, 8.3442195560759313E-06, 5.29854186339042E-12, 7.1183E-11
DataValue, -1.1500000000000001, 3, 0, 6.9068000000000009E-11, -2.715E-12, -6.9425000000000008E-11, 6.9068000000000009E-11, 8.3107159739699935E-06, 6.4254195851845269E-12, 6.9425000000000008E-11
DataValue, -1.1, 3, 0, 6.546E-11, 5.13E-13, -6.6345E-11, 6.546E-11, 8.0907354424675138E-06, 2.2245103572389795E-11, 6.6345E-11
DataValue, -1.05, 3, 0, 6.1451E-11, -1.2540000000000001E-12, -6.4376E-11, 6.1451E-11, 7.8390688222517854E-06, 7.9356136048941854E-12, 6.4376E-11
DataValue, -1, 3, 0, 6.0981E-11, 1.8700000000000003E-12, -6.0279E-11, 6.0981E-11, 7.8090332308167318E-06, 1.720328599359378E-13, 6.0279E-11
DataValue, -0.95000000000000007, 3, 0, 6.210300000000001E-11, -1.904E-12, -6.0574E-11, 6.210300000000001E-11, 7.8805456663863068E-06, 2.9838526403917838E-12, 6.0574E-11
DataValue, -0.9, 3, 0, 5.8313E-11, 8.3900000000000006E-13, -5.8671E-11, 5.8313E-11, 7.6362949131106773E-06, 1.3696386423131014E-11, 5.8671E-11
DataValue, -0.85000000000000009, 3, 0, 5.6407E-11, -1.852E-12, -5.6352E-11, 5.6407E-11, 7.5104593734338251E-06, 1.251445493597122E-12, 5.6352E-11
DataValue, -0.8, 3, 0, 5.6617000000000007E-11, 4.0000000000000006E-14, -5.5289E-11, 5.6617000000000007E-11, 7.52442688847463E-06, 7.5316417492179538E-12, 5.5289E-11
DataValue, -0.75, 3, 0, 5.2360000000000007E-11, -4.268E-12, -5.2374000000000004E-11, 5.2360000000000007E-11, 7.2360210060502181E-06, 1.2739960486767512E-11, 5.2374000000000004E-11
DataValue, -0.70000000000000007, 3, 0, 5.1373000000000006E-11, 1.3670000000000001E-12, -5.1730000000000005E-11, 5.1373000000000006E-11, 7.1674960760365962E-06, 1.4345330572078242E-12, 5.1730000000000005E-11
DataValue, -0.65, 3, 0, 5.0641E-11, -6.59E-13, -4.8646000000000006E-11, 5.0641E-11, 7.1162490119444245E-06, 4.2389484201102092E-12, 4.8646000000000006E-11
DataValue, -0.6, 3, 0, 4.8464E-11, 2.5550000000000003E-12, -4.6345E-11, 4.8464E-11, 6.9616090094172911E-06, 1.0855133924118401E-12, 4.6345E-11
DataValue, -0.55, 3, 0, 4.9169E-11, -4.935E-12, -4.497E-11, 4.9169E-11, 7.0120610379545326E-06, 1.7530435150454892E-12, 4.497E-11
DataValue, -0.5, 3, 0, 5.0325000000000005E-11, -9.073E-12, -4.2409E-11, 5.0325000000000005E-11, 7.0940115590545806E-06, 6.0399121478105784E-12, 4.2409E-11
DataValue, -0.45, 3, 0, 5.2676000000000004E-11, -8.9610000000000011E-12, -4.1726000000000005E-11, 5.2676000000000004E-11, 7.2578233651694779E-06, 3.3478036289255154E-11, 4.1726000000000005E-11
DataValue, -0.4, 3, 0, 5.8869E-11, -1.8285E-11, -3.9073E-11, 5.8869E-11, 7.6726136355221226E-06, 6.7654435211403778E-11, 3.9073E-11
DataValue, -0.35000000000000003, 3, 0, 6.5292E-11, -2.4822000000000002E-11, -3.846E-11, 6.5292E-11, 8.0803465272227039E-06, 1.2472686618530315E-10, 3.846E-11
DataValue, -0.3, 3, 0, 7.7254E-11, -4.1037E-11, -3.5933000000000005E-11, 7.7254E-11, 8.7894254647274871E-06, 2.814080370865282E-10, 3.5933000000000005E-11
DataValue, -0.25, 3, 0, 9.5216000000000013E-11, -5.9071E-11, -3.3829000000000005E-11, 9.5216000000000013E-11, 9.7578686197345385E-06, 4.9154109844039963E-10, 3.3829000000000005E-11
DataValue, -0.2, 3, 0, 1.21143E-10, -8.7820000000000013E-11, -3.2165E-11, 1.21143E-10, 1.1006498080679431E-05, 7.3844093261198635E-10, 3.2165E-11
DataValue, -0.15, 3, 0, 1.55633E-10, -1.19766E-10, -3.0806E-11, 1.55633E-10, 1.2475295587680478E-05, 1.0672889034427512E-09, 3.0806E-11
DataValue, -0.1, 3, 0, 2.03731E-10, -1.6763900000000002E-10, -2.9893E-11, 2.03731E-10, 1.4273436867131897E-05, 1.4654887857363776E-09, 2.9893E-11
DataValue, -0.05, 3, 0, 2.6580300000000003E-10, -2.34681E-10, -2.5783000000000004E-11, 2.6580300000000003E-10, 1.6303465889190558E-05, 1.8699613138600212E-09, 2.5783000000000004E-11
DataValue, 0, 3, 0, 3.45876E-10, -3.17388E-10, -2.4442000000000003E-11, 3.45876E-10, 1.8597741798401223E-05, 2.3422589921547852E-09, 2.4442000000000003E-11
DataValue, 0.05, 3, 0, 4.4703300000000003E-10, -4.0650400000000003E-10, -2.4395000000000003E-11, 4.4703300000000003E-10, 2.1143154920682959E-05, 2.831210461679494E-09, 2.4395000000000003E-11
DataValue, 0.1, 3, 0, 5.72102E-10, -5.3543100000000009E-10, -2.2544000000000002E-11, 5.72102E-10, 2.391865380827274E-05, 3.3489531445234463E-09, 2.2544000000000002E-11
DataValue, 0.15, 3, 0, 7.25234E-10, -6.7849600000000005E-10, -2.2225000000000003E-11, 7.25234E-10, 2.6930168956024022E-05, 3.8260599999222251E-09, 2.2225000000000003E-11
DataValue, 0.2, 3, 0, 9.06261E-10, -8.6290800000000006E-10, -2.0731E-11, 9.06261E-10, 3.010416914648202E-05, 3.4386939899746672E-09, 2.0731E-11
DataValue, 0.25, 3, 0, 1.07546E-09, -1.01856E-09, -1.8863E-11, 1.07546E-09, 3.2794206805470994E-05, 4.8529395309611572E-09, 1.8863E-11
DataValue, 0.3, 3, 0, 1.37422E-09, -1.33723E-09, -1.8573E-11, 1.37422E-09, 3.7070473425625413E-05, 7.4661383272664438E-09, 1.8573E-11
DataValue, 0.35000000000000003, 3, 0, 1.71685E-09, -1.67198E-09, -1.7066E-11, 1.71685E-09, 4.1434888680917195E-05, 7.7501336316909233E-09, 1.7066E-11
DataValue, 0.4, 3, 0, 2.10442E-09, -2.05925E-09, -1.5738E-11, 2.10442E-09, 4.5873957753828041E-05, 8.4330998650800416E-09, 1.5738E-11
DataValue, 0.45, 3, 0, 2.56219E-09, -2.51468E-09, -1.4478000000000002E-11, 2.56219E-09, 5.061807977393058E-05, 8.9966218137799138E-09, 1.4478000000000002E-11
DataValue, 0.5, 3, 0, 3.06462E-09, -3.02013E-09, -1.2319E-11, 3.06462E-09, 5.5359010106756784E-05, 9.4434285843253177E-09, 1.2319E-11
DataValue, 0.55, 3, 0, 3.64041E-09, -3.58126E-09, -1.1253000000000001E-11, 3.64041E-09, 6.03358102622315E-05, 1.0572074456671379E-08, 1.1253000000000001E-11
DataValue, 0.6, 3, 0, 4.30875E-09, -4.23335E-09, -1.0718E-11, 4.30875E-09, 6.5641069461123191E-05, 1.1173176794823527E-08, 1.0718E-11
DataValue, 0.65, 3, 0, 5.02768E-09, -4.94893E-09, -1.0606E-11, 5.02768E-09, 7.0906135136531023E-05, 1.1247950193461068E-08, 1.0606E-11
DataValue, 0.70000000000000007, 3, 0, 5.81356E-09, -5.7276E-09, -9.8040000000000014E-12, 5.81356E-09, 7.6246704846832567E-05, 1.1271267165821183E-08, 9.8040000000000014E-12
DataValue, 0.75, 3, 0, 6.64596E-09, -6.55172E-09, -8.844E-12, 6.64596E-09, 8.152275755885592E-05, 1.2027504962680975E-08, 8.844E-12
DataValue, 0.8, 3, 0, 7.60623E-09, -7.49462E-09, -8.2510000000000011E-12, 7.60623E-09, 8.7213703051756725E-05, 1.2370715518746274E-08, 8.2510000000000011E-12
DataValue, 0.85000000000000009, 3, 0, 8.58312E-09, -8.46551E-09, -8.912E-12, 8.58312E-09, 9.2645129391673907E-05, 1.1925044219746285E-08, 8.912E-12
DataValue, 0.9, 3, 0, 9.63026E-09, -9.48264E-09, -8.9940000000000015E-12, 9.63026E-09, 9.8133888132489688E-05, 1.0271477394669079E-08, 8.9940000000000015E-12
DataValue, 0.95000000000000007, 3, 0, 1.056372E-08, -1.0221899999999998E-08, -8.6190000000000011E-12, 1.056372E-08, 0.00010277995913601055, 6.3105761756752883E-09, 8.6190000000000011E-12
DataValue, 1, 3, 0, 1.12525E-08, -1.11364E-08, -8.979E-12, 1.12525E-08, 0.00010607780163634614, 1.0147511313458499E-08, 8.979E-12
DataValue, 1.05, 3, 0, 1.2735899999999999E-08, -1.26035E-08, -8.305E-12, 1.2735899999999999E-08, 0.00011285344478570425, 1.664623416623378E-08, 8.305E-12
DataValue, 1.1, 3, 0, 1.4156199999999999E-08, -1.3948699999999998E-08, -8.197E-12, 1.4156199999999999E-08, 0.00011897983022344585, 1.4037982307267638E-08, 8.197E-12
DataValue, 1.1500000000000001, 3, 0, 1.5550499999999998E-08, -1.53327E-08, -7.745E-12, 1.5550499999999998E-08, 0.00012470164393463303, 1.2816448868876793E-08, 7.745E-12
DataValue, 1.2, 3, 0, 1.6978299999999998E-08, -1.67187E-08, -7.533E-12, 1.6978299999999998E-08, 0.000130300805830202, 1.3275807694214997E-08, 7.533E-12
DataValue, 1.25, 3, 0, 1.8556899999999997E-08, -1.8264199999999998E-08, -6.2910000000000006E-12, 1.8556899999999997E-08, 0.00013622371306053874, 1.2202822068983086E-08, 6.2910000000000006E-12
DataValue, 1.3, 3, 0, 1.99791E-08, -1.9787799999999997E-08, -6.4150000000000004E-12, 1.99791E-08, 0.00014134744426412527, 1.2111795214825241E-08, 6.4150000000000004E-12
DataValue, 1.35, 3, 0, 2.1676399999999997E-08, -2.13454E-08, -5.269E-12, 2.1676399999999997E-08, 0.00014722907321585636, 1.2053515278280448E-08, 5.269E-12
DataValue, 1.4000000000000001, 3, 0, 2.32033E-08, -2.3014699999999998E-08, -4.8600000000000007E-12, 2.32033E-08, 0.00015232629451279907, 1.2364534200128134E-08, 4.8600000000000007E-12
DataValue, 1.4500000000000002, 3, 0, 2.5074299999999996E-08, -2.4825999999999997E-08, -4.322E-12, 2.5074299999999996E-08, 0.0001583486659242824, 1.3786703056283362E-08, 4.322E-12
DataValue, 1.5, 3, 0, 2.6918299999999996E-08, -2.6604399999999996E-08, -2.74E-12, 2.6918299999999996E-08, 0.00016406797371821229, 1.3491863073267002E-08, 2.74E-12
DataValue, 1.55, 3, 0, 2.8887799999999996E-08, -2.8494899999999996E-08, -2.28E-12, 2.8887799999999996E-08, 0.00016996411385936737, 1.322491225721576E-08, 2.28E-12
DataValue, 1.6, 3, 0, 3.08241E-08, -3.0417399999999995E-08, -2.3870000000000002E-12, 3.08241E-08, 0.0001755679355691124, 1.3697694206473795E-08, 2.3870000000000002E-12
DataValue, 1.6500000000000001, 3, 0, 3.30032E-08, -3.2576499999999994E-08, -1.8060000000000002E-12, 3.30032E-08, 0.00018166782874246061, 1.3773593415528256E-08, 1.8060000000000002E-12
DataValue, 1.7000000000000002, 3, 0, 3.50828E-08, -3.4718399999999995E-08, -2.6200000000000004E-13, 3.50828E-08, 0.00018730403092298895, 1.4347823724549067E-08, 2.6200000000000004E-13
DataValue, 1.75, 3, 0, 3.74988E-08, -3.7025199999999993E-08, -3.4700000000000004E-13, 3.74988E-08, 0.00019364606889890639, 1.4878140045912929E-08, 3.4700000000000004E-13
DataValue, 1.8, 3, 0, 3.9800899999999995E-08, -3.9247999999999995E-08, -1.7E-14, 3.9800899999999995E-08, 0.00019950162906603043, 1.3746558040634813E-08, 1.7E-14
DataValue, 1.85, 3, 0, 4.2177099999999993E-08, -4.17135E-08, -2.5300000000000003E-13, 4.2177099999999993E-08, 0.00020537064055020131, 1.4815038221502146E-08, 2.5300000000000003E-13
DataValue, 1.9000000000000001, 3, 0, 4.4805599999999996E-08, -4.42186E-08, -2.4200000000000003E-13, 4.4805599999999996E-08, 0.00021167333322834976, 1.675896926565643E-08, 2.4200000000000003E-13
DataValue, 1.9500000000000002, 3, 0, 4.7661999999999994E-08, -4.70147E-08, 1.65E-13, 4.7661999999999994E-08, 0.00021831628432162359, 1.5477657370807196E-08, 1.65E-13
DataValue, 2, 3, 0, 5.0227199999999995E-08, -4.97337E-08, 1.22E-13, 5.0227199999999995E-08, 0.00022411425657463204, 1.521300341621316E-08, 1.22E-13
DataValue, 2.05, 3, 0, 5.31996E-08, -5.2701299999999993E-08, -2.44E-13, 5.31996E-08, 0.00023065038478181649, 1.8575789343138827E-08, 2.44E-13
DataValue, 2.1, 3, 0, 5.6521999999999995E-08, -5.5600999999999996E-08, -3.8E-14, 5.6521999999999995E-08, 0.0002377435593239068, 1.772123348484317E-08, 3.8E-14
DataValue, 2.15, 3, 0, 5.9517699999999994E-08, -5.8802799999999996E-08, 1.1000000000000001E-13, 5.9517699999999994E-08, 0.00024396249711789719, 1.6477746727801376E-08, 1.1000000000000001E-13
DataValue, 2.2, 3, 0, 6.279039999999999E-08, -6.1986099999999989E-08, 2.4000000000000002E-14, 6.279039999999999E-08, 0.00025058012690554692, 1.7053494153932567E-08, 2.4000000000000002E-14
DataValue, 2.25, 3, 0, 6.606E-08, -6.54616E-08, 2.2500000000000003E-13, 6.606E-08, 0.00025702139988724676, 1.7315294147857453E-08, 2.2500000000000003E-13
DataValue, 2.3000000000000003, 3, 0, 6.9558199999999991E-08, -6.8601899999999989E-08, 1.36E-13, 6.9558199999999991E-08, 0.00026373888602176205, 1.8006907020950623E-08, 1.36E-13
