
SetupTitle, Transfer stab
PrimitiveTest, I/V Sweep
TestParameter, Context.MainFrame, 4155C
TestParameter, Channel.UnitType, SMU, SMU, SMU
TestParameter, Channel.Unit, SMU3:MP, SMU4:MP, SMU1:MP
TestParameter, Channel.IName, ID, IS, IG
TestParameter, Channel.VName, VD, VS, VG
TestParameter, Channel.Mode, V, COMMON, V
TestParameter, Channel.Func, CONST, CONST, VAR1
TestParameter, Channel.Index, 
TestParameter, Channel.Time, 
TestParameter, Measurement.Port.Unit, SMU3:MP, SMU4:MP, SMU1:MP
TestParameter, Measurement.Port.SeriesResistor, NONE, NONE, NONE
TestParameter, Measurement.Port.Filter, ON, ON, ON
TestParameter, Measurement.Primary.Locus, Single
TestParameter, Measurement.Primary.Scale, LINEAR
TestParameter, Measurement.Primary.Start, -2
TestParameter, Measurement.Primary.Stop, 3
TestParameter, Measurement.Primary.Step, 0.05
TestParameter, Measurement.Primary.Compliance, 0.1
TestParameter, Measurement.Primary.PowerCompliance, 0
TestParameter, Measurement.Aborting.Condition, CONTINUE AT ANY
TestParameter, Measurement.PostOutput.Value, START
TestParameter, Measurement.PostOutput.Retention, OFF
TestParameter, Measurement.Bias.Source, 3, 0, -2
TestParameter, Measurement.Bias.Compliance, 0.1, 0.1, 0.1
TestParameter, Measurement.Monitor.Unit, SMU3:MP, SMU4:MP, SMU1:MP
TestParameter, Measurement.Monitor.Adc, HR ADC, HR ADC, HR ADC
TestParameter, Measurement.Monitor.RangingMode, AUTO, AUTO, AUTO
TestParameter, Measurement.Monitor.RangeBoundary, , , 
TestParameter, Measurement.Monitor.RangeRating, BY FULL RANGE, BY FULL RANGE, BY FULL RANGE
TestParameter, Measurement.Monitor.RangeRatingCoeff, 50, 50, 50
TestParameter, Measurement.Timing.Hold, 0.5
TestParameter, Measurement.Timing.Delay, 0.05
TestParameter, Measurement.Adc.HighResolution.AutoZero, OFF
TestParameter, Measurement.Adc.HighResolution.Mode, AUTO
TestParameter, Measurement.Adc.HighResolution.Coeff, 1
TestParameter, Measurement.Ag16440ASelector.SemiconductorRelay.Channel1, DEFAULT
TestParameter, Measurement.Ag16440ASelector.SemiconductorRelay.Channel3, DEFAULT
TestParameter, Function.User.Name, absID, sqrtID, gm2, absIG
TestParameter, Function.User.Unit, A, A, A/V, A
TestParameter, Function.User.Definition, abs(ID), sqrt(abs(ID)), (delta(sqrtID)/delta(VG))^2, abs(IG)
TestParameter, Output.Graph.Enabled, true
TestParameter, Output.Graph.XAxis.Data, VG
TestParameter, Output.Graph.XAxis.Scale, Linear
TestParameter, Output.Graph.XAxis.Left, -5
TestParameter, Output.Graph.XAxis.Right, 7
TestParameter, Output.Graph.YAxis.Data, ID, absIG, gm2
TestParameter, Output.Graph.YAxis.Scale, Log, Log, Linear
TestParameter, Output.Graph.YAxis.Bottom, 1E-14, 1E-14, 0
TestParameter, Output.Graph.YAxis.Top, 0.01, 0.01, 1E-05
TestParameter, Output.Graph.YAxis.Group, , , 
TestParameter, Output.List.Data, VG, IG, VD, ID, VS, IS, sqrtID, gm2, absIG
TestParameter, AutoAnalysis.Interpolation, false
TestParameter, AutoAnalysis.Line1.Enabled, false
TestParameter, AutoAnalysis.Line1.Type, 1
TestParameter, AutoAnalysis.Line1.Fix, True
TestParameter, AutoAnalysis.Line1.YAxis, 0
TestParameter, AutoAnalysis.Line1.Point1.Type, 0
TestParameter, AutoAnalysis.Line1.Point1.XY.X, 
TestParameter, AutoAnalysis.Line1.Point1.XY.Y, 
TestParameter, AutoAnalysis.Line1.Point1.Data.Var, 
TestParameter, AutoAnalysis.Line1.Point1.Data.Condition, 
TestParameter, AutoAnalysis.Line1.Point1.Data.Start, false
TestParameter, AutoAnalysis.Line1.Point1.Data.StartVar, 
TestParameter, AutoAnalysis.Line1.Point1.Data.StartCondition, 
TestParameter, AutoAnalysis.Line1.Point2.Type, 0
TestParameter, AutoAnalysis.Line1.Point2.XY.X, 
TestParameter, AutoAnalysis.Line1.Point2.XY.Y, 
TestParameter, AutoAnalysis.Line1.Point2.Data.Var, 
TestParameter, AutoAnalysis.Line1.Point2.Data.Condition, 
TestParameter, AutoAnalysis.Line1.Point2.Data.Start, false
TestParameter, AutoAnalysis.Line1.Point2.Data.StartVar, 
TestParameter, AutoAnalysis.Line1.Point2.Data.StartCondition, 
TestParameter, AutoAnalysis.Line1.GradientExpr, 0
TestParameter, AutoAnalysis.Line2.Enabled, false
TestParameter, AutoAnalysis.Line2.Type, 1
TestParameter, AutoAnalysis.Line2.Fix, True
TestParameter, AutoAnalysis.Line2.YAxis, 0
TestParameter, AutoAnalysis.Line2.Point1.Type, 0
TestParameter, AutoAnalysis.Line2.Point1.XY.X, 
TestParameter, AutoAnalysis.Line2.Point1.XY.Y, 
TestParameter, AutoAnalysis.Line2.Point1.Data.Var, 
TestParameter, AutoAnalysis.Line2.Point1.Data.Condition, 
TestParameter, AutoAnalysis.Line2.Point1.Data.Start, false
TestParameter, AutoAnalysis.Line2.Point1.Data.StartVar, 
TestParameter, AutoAnalysis.Line2.Point1.Data.StartCondition, 
TestParameter, AutoAnalysis.Line2.Point2.Type, 0
TestParameter, AutoAnalysis.Line2.Point2.XY.X, 
TestParameter, AutoAnalysis.Line2.Point2.XY.Y, 
TestParameter, AutoAnalysis.Line2.Point2.Data.Var, 
TestParameter, AutoAnalysis.Line2.Point2.Data.Condition, 
TestParameter, AutoAnalysis.Line2.Point2.Data.Start, false
TestParameter, AutoAnalysis.Line2.Point2.Data.StartVar, 
TestParameter, AutoAnalysis.Line2.Point2.Data.StartCondition, 
TestParameter, AutoAnalysis.Line2.GradientExpr, 0
TestParameter, AutoAnalysis.Marker.Enabled, false
TestParameter, AutoAnalysis.Marker.Data.Var, 
TestParameter, AutoAnalysis.Marker.Data.Condition, 
TestParameter, AutoAnalysis.Marker.Data.Start, false
TestParameter, AutoAnalysis.Marker.Data.StartVar, 
TestParameter, AutoAnalysis.Marker.Data.StartCondition, 
MetaData, TestRecord.EntryPoint, true
MetaData, TestRecord.RecordTime, 06/18/2019 17:17:35
MetaData, TestRecord.TestTarget, 8-41
MetaData, TestRecord.IterationIndex, 5
MetaData, TestRecord.Preservation, true
MetaData, TestRecord.Flag, 
MetaData, TestRecord.Remarks, small
MetaData, TestRecord.LinkKey, e0a3ae22-8e21-40f2-a6c0-19df7911605b
Dimension1, 101, 101, 101, 101, 101, 101, 101, 101, 101, 101
Dimension2, 1, 1, 1, 1, 1, 1, 1, 1, 1, 1
DataName, VG, VD, VS, ID, IS, IG, absID, sqrtID, gm2, absIG
DataValue, -2, 3, 0, 5.545E-12, 2.52E-12, -6.647E-12, 5.545E-12, 2.3547823678633235E-06, 4.4390525558720832E-13, 6.647E-12
DataValue, -1.9500000000000002, 3, 0, 5.703E-12, -7.340000000000001E-13, -6.881E-12, 5.703E-12, 2.3880954754783151E-06, 1.1148351721942158E-11, 6.881E-12
DataValue, -1.9000000000000001, 3, 0, 4.084E-12, 9.8300000000000015E-13, -6.3730000000000004E-12, 4.084E-12, 2.0208908926510604E-06, 4.2466453733185951E-13, 6.3730000000000004E-12
DataValue, -1.85, 3, 0, 5.396E-12, 4.5400000000000003E-13, -6.021E-12, 5.396E-12, 2.322929185317538E-06, 2.2021045295611938E-16, 6.021E-12
DataValue, -1.8, 3, 0, 4.0900000000000005E-12, -4.6600000000000007E-12, -6.192E-12, 4.0900000000000005E-12, 2.0223748416156684E-06, 8.2980057083156629E-14, 6.192E-12
DataValue, -1.75, 3, 0, 5.2630000000000005E-12, 3.65E-12, -5.635E-12, 5.2630000000000005E-12, 2.2941229260874406E-06, 1.7220471163329921E-12, 5.635E-12
DataValue, -1.7000000000000002, 3, 0, 4.638E-12, 6.3000000000000009E-14, -4.867E-12, 4.638E-12, 2.1536016344718907E-06, 1.1903919275053552E-11, 4.867E-12
DataValue, -1.6500000000000001, 3, 0, 3.799E-12, -2.043E-12, -4.191E-12, 3.799E-12, 1.9491023574969069E-06, 3.0881604829725224E-14, 4.191E-12
DataValue, -1.6, 3, 0, 4.714E-12, 1.441E-12, -5.148E-12, 4.714E-12, 2.171174797200815E-06, 6.9717229625540812E-12, 5.148E-12
DataValue, -1.55, 3, 0, 4.898E-12, 2.5400000000000003E-13, -5.082E-12, 4.898E-12, 2.2131425620596608E-06, 2.358541481946129E-11, 5.082E-12
DataValue, -1.5, 3, 0, 2.841E-12, 5.3E-14, -4.609E-12, 2.841E-12, 1.6855266239368632E-06, 2.0318260693150222E-11, 4.609E-12
DataValue, -1.4500000000000002, 3, 0, 3.1060000000000003E-12, -1.3000000000000001E-14, -3.7980000000000006E-12, 3.1060000000000003E-12, 1.7623847480048164E-06, 5.1881042517476617E-13, 3.7980000000000006E-12
DataValue, -1.4000000000000001, 3, 0, 3.0890000000000003E-12, -1.7790000000000002E-12, -3.689E-12, 3.0890000000000003E-12, 1.7575551200460258E-06, 4.2503548773556776E-11, 3.689E-12
DataValue, -1.35, 3, 0, 5.829E-12, -4.3000000000000004E-13, -4.013E-12, 5.829E-12, 2.4143322058076431E-06, 3.0750828210756409E-13, 4.013E-12
DataValue, -1.3, 3, 0, 3.2870000000000004E-12, -1.32E-12, -3.847E-12, 3.2870000000000004E-12, 1.8130085493455349E-06, 1.2089001964604023E-11, 3.847E-12
DataValue, -1.25, 3, 0, 4.2710000000000007E-12, -3.7100000000000003E-13, -3.4040000000000004E-12, 4.2710000000000007E-12, 2.0666397847714053E-06, 2.8378178146195554E-13, 3.4040000000000004E-12
DataValue, -1.2, 3, 0, 3.4830000000000004E-12, -1.1290000000000001E-12, -3.1820000000000004E-12, 3.4830000000000004E-12, 1.866279721799495E-06, 4.6424953916348556E-12, 3.1820000000000004E-12
DataValue, -1.1500000000000001, 3, 0, 5.2080000000000004E-12, -1.0730000000000002E-12, -3.1140000000000003E-12, 5.2080000000000004E-12, 2.2821042920953459E-06, 2.682434756787532E-13, 3.1140000000000003E-12
DataValue, -1.1, 3, 0, 3.679E-12, 3.2400000000000003E-13, -3.201E-12, 3.679E-12, 1.9180719485983837E-06, 1.6805061454428478E-11, 3.201E-12
DataValue, -1.05, 3, 0, 3.505E-12, -2.7340000000000003E-12, -2.715E-12, 3.505E-12, 1.8721645226849054E-06, 8.84904526697519E-14, 2.715E-12
DataValue, -1, 3, 0, 3.794E-12, 3.3600000000000003E-13, -2.8130000000000002E-12, 3.794E-12, 1.9478192934664138E-06, 3.4344859945574451E-13, 2.8130000000000002E-12
DataValue, -0.95000000000000007, 3, 0, 3.2890000000000002E-12, -1.2800000000000002E-12, -3E-12, 3.2890000000000002E-12, 1.8135600348485849E-06, 1.5714404329180289E-13, 3E-12
DataValue, -0.9, 3, 0, 3.95E-12, -9.3500000000000016E-13, -2.774E-12, 3.95E-12, 1.9874606914351791E-06, 2.345285699009014E-13, 2.774E-12
DataValue, -0.85000000000000009, 3, 0, 3.467E-12, -1.5180000000000002E-12, -3.0780000000000004E-12, 3.467E-12, 1.8619881847100964E-06, 9.2062444270935771E-12, 3.0780000000000004E-12
DataValue, -0.8, 3, 0, 2.836E-12, -2.6560000000000004E-12, -2.402E-12, 2.836E-12, 1.6840427548016707E-06, 5.9419057869365693E-13, 2.402E-12
DataValue, -0.75, 3, 0, 3.76E-12, -1.2480000000000001E-12, -2.0830000000000003E-12, 3.76E-12, 1.9390719429665318E-06, 1.1555068852175012E-10, 2.0830000000000003E-12
DataValue, -0.70000000000000007, 3, 0, 3.7100000000000003E-13, -9.97E-13, -2.134E-12, 3.7100000000000003E-13, 6.0909769331364245E-07, 3.4136550348836692E-13, 2.134E-12
DataValue, -0.65, 3, 0, 3.9900000000000006E-12, -2.084E-12, -2.184E-12, 3.9900000000000006E-12, 1.9974984355438179E-06, 1.2902577766812816E-10, 2.184E-12
DataValue, -0.6, 3, 0, 3.045E-12, -1.6770000000000002E-12, -1.6110000000000001E-12, 3.045E-12, 1.7449928366615148E-06, 1.6480214211605397E-11, 1.6110000000000001E-12
DataValue, -0.55, 3, 0, 2.5330000000000002E-12, -1.717E-12, -2.1880000000000004E-12, 2.5330000000000002E-12, 1.5915401345866212E-06, 5.77537769120233E-13, 2.1880000000000004E-12
DataValue, -0.5, 3, 0, 3.3160000000000004E-12, -9.8100000000000016E-13, -1.7960000000000002E-12, 3.3160000000000004E-12, 1.820988742414406E-06, 4.2119517933924353E-11, 1.7960000000000002E-12
DataValue, -0.45, 3, 0, 5.02E-12, -4.6530000000000005E-12, -2.0960000000000004E-12, 5.02E-12, 2.240535650240808E-06, 3.5328606808201385E-11, 2.0960000000000004E-12
DataValue, -0.4, 3, 0, 5.834E-12, -2.491E-12, -1.972E-12, 5.834E-12, 2.4153674668671018E-06, 2.9639744222597464E-11, 1.972E-12
DataValue, -0.35000000000000003, 3, 0, 7.756E-12, -5.295E-12, -1.5510000000000002E-12, 7.756E-12, 2.7849596047339719E-06, 1.1544963890622841E-10, 1.5510000000000002E-12
DataValue, -0.3, 3, 0, 1.2179000000000001E-11, -1.2377E-11, -1.416E-12, 1.2179000000000001E-11, 3.4898424033185227E-06, 1.8852518148404722E-10, 1.416E-12
DataValue, -0.25, 3, 0, 1.7289E-11, -1.6580000000000002E-11, -1.8170000000000002E-12, 1.7289E-11, 4.1580043290020758E-06, 4.5499330378189392E-10, 1.8170000000000002E-12
DataValue, -0.2, 3, 0, 3.1617E-11, -2.6677000000000002E-11, -1.7910000000000001E-12, 3.1617E-11, 5.6228996078535855E-06, 6.5659569220199286E-10, 1.7910000000000001E-12
DataValue, -0.15, 3, 0, 4.5164000000000004E-11, -4.3196E-11, -1.2190000000000002E-12, 4.5164000000000004E-11, 6.7204166537499742E-06, 7.0645472714067408E-10, 1.2190000000000002E-12
DataValue, -0.1, 3, 0, 6.8572E-11, -6.2411E-11, -1.2250000000000001E-12, 6.8572E-11, 8.2808212153143364E-06, 7.6137283878419925E-10, 1.2250000000000001E-12
DataValue, -0.05, 3, 0, 8.9865E-11, -8.5122E-11, -1.45E-12, 8.9865E-11, 9.4797151855949775E-06, 5.7209663973735934E-10, 1.45E-12
DataValue, 0, 3, 0, 1.1390600000000002E-10, -1.0944900000000001E-10, -1.1350000000000001E-12, 1.1390600000000002E-10, 1.0672675390922372E-05, 5.5077755492259482E-10, 1.1350000000000001E-12
DataValue, 0.05, 3, 0, 1.39868E-10, -1.33473E-10, -1.0160000000000001E-12, 1.39868E-10, 1.1826580232679268E-05, 5.6873324826087868E-10, 1.0160000000000001E-12
DataValue, 0.1, 3, 0, 1.7049800000000001E-10, -1.60707E-10, -9.1200000000000015E-13, 1.7049800000000001E-10, 1.3057488273017901E-05, 5.7647943716882871E-10, 9.1200000000000015E-13
DataValue, 0.15, 3, 0, 2.0242400000000002E-10, -1.92111E-10, -1.0390000000000001E-12, 2.0242400000000002E-10, 1.4227578852355732E-05, 6.0931246895685388E-10, 1.0390000000000001E-12
DataValue, 0.2, 3, 0, 2.41054E-10, -2.2773800000000002E-10, -6.4700000000000007E-13, 2.41054E-10, 1.5525913821736869E-05, 7.055085632848289E-10, 6.4700000000000007E-13
DataValue, 0.25, 3, 0, 2.8506000000000005E-10, -2.65933E-10, -1.099E-12, 2.8506000000000005E-10, 1.6883719969248486E-05, 5.65659348888882E-10, 1.099E-12
DataValue, 0.3, 3, 0, 3.20563E-10, -2.9651400000000003E-10, -9.54E-13, 3.20563E-10, 1.7904273232946373E-05, 2.92700474684301E-10, 9.54E-13
DataValue, 0.35000000000000003, 3, 0, 3.4575800000000004E-10, -3.2976500000000005E-10, -1.18E-12, 3.4575800000000004E-10, 1.85945690996054E-05, 2.6594179626764374E-10, 1.18E-12
DataValue, 0.4, 3, 0, 3.81618E-10, -3.66807E-10, -7.9300000000000005E-13, 3.81618E-10, 1.9535045431224367E-05, 3.382573867785912E-10, 7.9300000000000005E-13
DataValue, 0.45, 3, 0, 4.17538E-10, -3.8558800000000004E-10, -6.82E-13, 4.17538E-10, 2.0433746597234684E-05, 2.0962764758871876E-10, 6.82E-13
DataValue, 0.5, 3, 0, 4.40282E-10, -4.3097500000000005E-10, -6.7000000000000007E-13, 4.40282E-10, 2.0982897797968707E-05, 2.5514387653717223E-10, 6.7000000000000007E-13
DataValue, 0.55, 3, 0, 4.85368E-10, -4.68494E-10, -4.92E-13, 4.85368E-10, 2.2031068970887456E-05, 2.6126587712919758E-10, 4.92E-13
DataValue, 0.6, 3, 0, 5.10727E-10, -4.8338E-10, -5.0300000000000008E-13, 5.10727E-10, 2.2599269899711364E-05, 1.7172506896424703E-10, 5.0300000000000008E-13
DataValue, 0.65, 3, 0, 5.44826E-10, -5.13254E-10, -5.9600000000000009E-13, 5.44826E-10, 2.334150809180932E-05, 2.4846447535534404E-10, 5.9600000000000009E-13
DataValue, 0.70000000000000007, 3, 0, 5.84457E-10, -5.52092E-10, -4.98E-13, 5.84457E-10, 2.417554549539679E-05, 3.175548198436162E-10, 4.98E-13
DataValue, 0.75, 3, 0, 6.3119100000000008E-10, -5.6714000000000007E-10, -2.8E-13, 6.3119100000000008E-10, 2.5123514881481055E-05, 9.6311059057611448E-11, 2.8E-13
DataValue, 0.8, 3, 0, 6.32871E-10, -5.9375100000000005E-10, -2.67E-13, 6.32871E-10, 2.5156927475349608E-05, 3.0785080290251523E-13, 2.67E-13
DataValue, 0.85000000000000009, 3, 0, 6.33982E-10, -5.94099E-10, -4E-15, 6.33982E-10, 2.5178999185829448E-05, 1.2959438651308708E-10, 4E-15
DataValue, 0.9, 3, 0, 6.9144400000000008E-10, -6.6843200000000006E-10, -4.3000000000000006E-14, 6.9144400000000008E-10, 2.6295322778015106E-05, 3.6115819057233032E-12, 4.3000000000000006E-14
DataValue, 0.95000000000000007, 3, 0, 6.24448E-10, -6.37799E-10, 3.4E-14, 6.24448E-10, 2.4988957561290946E-05, 2.0316895045702327E-10, 3.4E-14
DataValue, 1, 3, 0, 7.6843700000000006E-10, -7.3129300000000009E-10, -5.5000000000000005E-14, 7.6843700000000006E-10, 2.7720696239452575E-05, 7.448310254753255E-10, 5.5000000000000005E-14
DataValue, 1.05, 3, 0, 7.6829400000000008E-10, -7.4805500000000006E-10, -4.5000000000000004E-14, 7.6829400000000008E-10, 2.771811681914917E-05, 1.0166609957824919E-10, 4.5000000000000004E-14
DataValue, 1.1, 3, 0, 8.2535500000000009E-10, -7.62987E-10, -2.06E-13, 8.2535500000000009E-10, 2.8728992324827547E-05, 2.7929126757828973E-10, 2.06E-13
DataValue, 1.1500000000000001, 3, 0, 8.6373200000000009E-10, -7.48967E-10, 3.53E-13, 8.6373200000000009E-10, 2.9389317787250524E-05, 2.0964599787399855E-11, 3.53E-13
DataValue, 1.2, 3, 0, 8.518730000000001E-10, -7.6644900000000007E-10, 1.12E-13, 8.518730000000001E-10, 2.9186863483423498E-05, 8.47112881831744E-11, 1.12E-13
DataValue, 1.25, 3, 0, 8.1048000000000008E-10, -7.6992500000000011E-10, 4.13E-13, 8.1048000000000008E-10, 2.8468930433017676E-05, 1.1635818226205558E-10, 4.13E-13
DataValue, 1.3, 3, 0, 9.1600400000000008E-10, -8.474490000000001E-10, -7E-15, 9.1600400000000008E-10, 3.0265557982631016E-05, 1.5338229286230934E-10, 7E-15
DataValue, 1.35, 3, 0, 8.8253E-10, -7.8060100000000008E-10, -1.03E-13, 8.8253E-10, 2.970740648390566E-05, 5.10026760155306E-13, 1.03E-13
DataValue, 1.4000000000000001, 3, 0, 9.2033200000000008E-10, -8.3047400000000006E-10, 1.059E-12, 9.2033200000000008E-10, 3.0336974140477494E-05, 3.7962573808251739E-10, 1.059E-12
DataValue, 1.4500000000000002, 3, 0, 1.00209E-09, -9.3046E-10, 3.7000000000000004E-13, 1.00209E-09, 3.1655805154821132E-05, 1.0308935181897352E-09, 3.7000000000000004E-13
DataValue, 1.5, 3, 0, 1.12545E-09, -1.12629E-09, 1.3100000000000002E-13, 1.12545E-09, 3.3547727195743085E-05, 9.6639424842215621E-10, 1.3100000000000002E-13
DataValue, 1.55, 3, 0, 1.20857E-09, -1.1914E-09, 4.48E-13, 1.20857E-09, 3.4764493380459326E-05, 1.652236106433481E-09, 4.48E-13
DataValue, 1.6, 3, 0, 1.4147E-09, -1.3783E-09, 1.0020000000000002E-12, 1.4147E-09, 3.7612497922897919E-05, 2.4678394521450732E-09, 1.0020000000000002E-12
DataValue, 1.6500000000000001, 3, 0, 1.57865E-09, -1.5964E-09, 1.084E-12, 1.57865E-09, 3.9732228731849411E-05, 1.3432062092082662E-09, 1.084E-12
DataValue, 1.7000000000000002, 3, 0, 1.7038299999999999E-09, -1.67028E-09, 1.3300000000000002E-12, 1.7038299999999999E-09, 4.1277475698012344E-05, 2.2754147430861361E-09, 1.3300000000000002E-12
DataValue, 1.75, 3, 0, 1.98046E-09, -1.87452E-09, 1.2880000000000002E-12, 1.98046E-09, 4.4502359488009173E-05, 1.2285797536618825E-09, 1.2880000000000002E-12
DataValue, 1.8, 3, 0, 2.00548E-09, -1.96635E-09, 1.4510000000000002E-12, 2.00548E-09, 4.4782585901218342E-05, 1.1854428783959891E-09, 1.4510000000000002E-12
DataValue, 1.85, 3, 0, 2.29876E-09, -2.22289E-09, 1.523E-12, 2.29876E-09, 4.7945385596530558E-05, 2.2368490222511253E-09, 1.523E-12
DataValue, 1.9000000000000001, 3, 0, 2.45145E-09, -2.48335E-09, 1.627E-12, 2.45145E-09, 4.951211972840589E-05, 3.02737512525606E-09, 1.627E-12
DataValue, 1.9500000000000002, 3, 0, 2.85664E-09, -2.77943E-09, 1.6200000000000002E-12, 2.85664E-09, 5.34475443776419E-05, 1.2558477146373467E-09, 1.6200000000000002E-12
DataValue, 2, 3, 0, 2.81493E-09, -2.85884E-09, 2.301E-12, 2.81493E-09, 5.305591390222206E-05, 1.0227333971946812E-09, 2.301E-12
DataValue, 2.05, 3, 0, 3.20872E-09, -3.07697E-09, 2.6040000000000002E-12, 3.20872E-09, 5.6645564698394528E-05, 2.4947563743813515E-09, 2.6040000000000002E-12
DataValue, 2.1, 3, 0, 3.36988E-09, -3.21039E-09, 2.949E-12, 3.36988E-09, 5.8050667524155134E-05, 8.1185619504696942E-10, 2.949E-12
DataValue, 2.15, 3, 0, 3.53964E-09, -3.58153E-09, 3.13E-12, 3.53964E-09, 5.9494873728750784E-05, 1.5591653034917687E-11, 3.13E-12
DataValue, 2.2, 3, 0, 3.41588E-09, -3.40447E-09, 3.678E-12, 3.41588E-09, 5.8445530196927805E-05, 2.00469843569591E-09, 3.678E-12
DataValue, 2.25, 3, 0, 4.09245E-09, -4.07103E-09, 4.3870000000000006E-12, 4.09245E-09, 6.3972259613054162E-05, 8.5539981624848424E-09, 4.3870000000000006E-12
DataValue, 2.3000000000000003, 3, 0, 4.58252E-09, -4.26506E-09, 4.751E-12, 4.58252E-09, 6.76943129073632E-05, 1.7838470673854372E-09, 4.751E-12
DataValue, 2.35, 3, 0, 4.65067E-09, -4.82737E-09, 6.21E-12, 4.65067E-09, 6.8195820986333163E-05, 7.7055850740652652E-10, 6.21E-12
