
SetupTitle, Transfer sat
PrimitiveTest, I/V Sweep
TestParameter, Context.MainFrame, 4155C
TestParameter, Channel.UnitType, SMU, SMU, SMU
TestParameter, Channel.Unit, SMU3:MP, SMU4:MP, SMU1:MP
TestParameter, Channel.IName, IS, ID, IG
TestParameter, Channel.VName, VS, VD, VG
TestParameter, Channel.Mode, COMMON, V, V
TestParameter, Channel.Func, CONST, CONST, VAR1
TestParameter, Channel.Index, 
TestParameter, Channel.Time, 
TestParameter, Measurement.Port.Unit, SMU3:MP, SMU4:MP, SMU1:MP
TestParameter, Measurement.Port.SeriesResistor, NONE, NONE, NONE
TestParameter, Measurement.Port.Filter, ON, ON, ON
TestParameter, Measurement.Primary.Locus, Double
TestParameter, Measurement.Primary.Scale, LINEAR
TestParameter, Measurement.Primary.Start, -2
TestParameter, Measurement.Primary.Stop, 3
TestParameter, Measurement.Primary.Step, 0.05
TestParameter, Measurement.Primary.Compliance, 0.001
TestParameter, Measurement.Primary.PowerCompliance, 0
TestParameter, Measurement.Aborting.Condition, CONTINUE AT ANY
TestParameter, Measurement.PostOutput.Value, START
TestParameter, Measurement.PostOutput.Retention, OFF
TestParameter, Measurement.Bias.Source, 0, 5, -2
TestParameter, Measurement.Bias.Compliance, 0.1, 0.001, 0.001
TestParameter, Measurement.Monitor.Unit, SMU4:MP, SMU3:MP, SMU1:MP
TestParameter, Measurement.Monitor.Adc, HR ADC, HR ADC, HR ADC
TestParameter, Measurement.Monitor.RangingMode, AUTO, AUTO, AUTO
TestParameter, Measurement.Monitor.RangeBoundary, , , 
TestParameter, Measurement.Monitor.RangeRating, BY FULL RANGE, BY FULL RANGE, BY FULL RANGE
TestParameter, Measurement.Monitor.RangeRatingCoeff, 50, 50, 50
TestParameter, Measurement.Timing.Hold, 0.5
TestParameter, Measurement.Timing.Delay, 0.05
TestParameter, Measurement.Adc.HighResolution.AutoZero, OFF
TestParameter, Measurement.Adc.HighResolution.Mode, AUTO
TestParameter, Measurement.Adc.HighResolution.Coeff, 1
TestParameter, Measurement.Ag16440ASelector.SemiconductorRelay.Channel1, DEFAULT
TestParameter, Measurement.Ag16440ASelector.SemiconductorRelay.Channel3, DEFAULT
TestParameter, Function.User.Name, absID, sqrtID, gm2, absIG
TestParameter, Function.User.Unit, A, A, A/V, A
TestParameter, Function.User.Definition, abs(ID), sqrt(abs(ID)), (delta(sqrtID)/delta(VG))^2, abs(IG)
TestParameter, Output.Graph.Enabled, true
TestParameter, Output.Graph.XAxis.Data, VG
TestParameter, Output.Graph.XAxis.Scale, Linear
TestParameter, Output.Graph.XAxis.Left, -5
TestParameter, Output.Graph.XAxis.Right, 7
TestParameter, Output.Graph.YAxis.Data, ID, absIG, gm2
TestParameter, Output.Graph.YAxis.Scale, Log, Log, Linear
TestParameter, Output.Graph.YAxis.Bottom, 1E-14, 1E-14, 0
TestParameter, Output.Graph.YAxis.Top, 0.01, 0.01, 1E-05
TestParameter, Output.Graph.YAxis.Group, , , 
TestParameter, Output.List.Data, VG, IG, VD, ID, VS, IS, sqrtID, gm2, absIG
TestParameter, AutoAnalysis.Interpolation, false
TestParameter, AutoAnalysis.Line1.Enabled, false
TestParameter, AutoAnalysis.Line1.Type, 1
TestParameter, AutoAnalysis.Line1.Fix, True
TestParameter, AutoAnalysis.Line1.YAxis, 0
TestParameter, AutoAnalysis.Line1.Point1.Type, 0
TestParameter, AutoAnalysis.Line1.Point1.XY.X, 
TestParameter, AutoAnalysis.Line1.Point1.XY.Y, 
TestParameter, AutoAnalysis.Line1.Point1.Data.Var, 
TestParameter, AutoAnalysis.Line1.Point1.Data.Condition, 
TestParameter, AutoAnalysis.Line1.Point1.Data.Start, false
TestParameter, AutoAnalysis.Line1.Point1.Data.StartVar, 
TestParameter, AutoAnalysis.Line1.Point1.Data.StartCondition, 
TestParameter, AutoAnalysis.Line1.Point2.Type, 0
TestParameter, AutoAnalysis.Line1.Point2.XY.X, 
TestParameter, AutoAnalysis.Line1.Point2.XY.Y, 
TestParameter, AutoAnalysis.Line1.Point2.Data.Var, 
TestParameter, AutoAnalysis.Line1.Point2.Data.Condition, 
TestParameter, AutoAnalysis.Line1.Point2.Data.Start, false
TestParameter, AutoAnalysis.Line1.Point2.Data.StartVar, 
TestParameter, AutoAnalysis.Line1.Point2.Data.StartCondition, 
TestParameter, AutoAnalysis.Line1.GradientExpr, 0
TestParameter, AutoAnalysis.Line2.Enabled, false
TestParameter, AutoAnalysis.Line2.Type, 1
TestParameter, AutoAnalysis.Line2.Fix, True
TestParameter, AutoAnalysis.Line2.YAxis, 0
TestParameter, AutoAnalysis.Line2.Point1.Type, 0
TestParameter, AutoAnalysis.Line2.Point1.XY.X, 
TestParameter, AutoAnalysis.Line2.Point1.XY.Y, 
TestParameter, AutoAnalysis.Line2.Point1.Data.Var, 
TestParameter, AutoAnalysis.Line2.Point1.Data.Condition, 
TestParameter, AutoAnalysis.Line2.Point1.Data.Start, false
TestParameter, AutoAnalysis.Line2.Point1.Data.StartVar, 
TestParameter, AutoAnalysis.Line2.Point1.Data.StartCondition, 
TestParameter, AutoAnalysis.Line2.Point2.Type, 0
TestParameter, AutoAnalysis.Line2.Point2.XY.X, 
TestParameter, AutoAnalysis.Line2.Point2.XY.Y, 
TestParameter, AutoAnalysis.Line2.Point2.Data.Var, 
TestParameter, AutoAnalysis.Line2.Point2.Data.Condition, 
TestParameter, AutoAnalysis.Line2.Point2.Data.Start, false
TestParameter, AutoAnalysis.Line2.Point2.Data.StartVar, 
TestParameter, AutoAnalysis.Line2.Point2.Data.StartCondition, 
TestParameter, AutoAnalysis.Line2.GradientExpr, 0
TestParameter, AutoAnalysis.Marker.Enabled, false
TestParameter, AutoAnalysis.Marker.Data.Var, 
TestParameter, AutoAnalysis.Marker.Data.Condition, 
TestParameter, AutoAnalysis.Marker.Data.Start, false
TestParameter, AutoAnalysis.Marker.Data.StartVar, 
TestParameter, AutoAnalysis.Marker.Data.StartCondition, 
MetaData, TestRecord.EntryPoint, true
MetaData, TestRecord.RecordTime, 06/18/2019 15:53:15
MetaData, TestRecord.TestTarget, 11-15
MetaData, TestRecord.IterationIndex, 1
MetaData, TestRecord.Preservation, true
MetaData, TestRecord.Flag, 
MetaData, TestRecord.Remarks, high start
MetaData, TestRecord.LinkKey, 02c98e94-b4db-4ac9-aba1-a48dafb0ddfb
Dimension1, 202, 202, 202, 202, 202, 202, 202, 202, 202, 202
Dimension2, 1, 1, 1, 1, 1, 1, 1, 1, 1, 1
DataName, VG, VS, VD, ID, IS, IG, absID, sqrtID, gm2, absIG
DataValue, -2, 0, 5, 3.53354E-10, -2.0332E-11, -1.1496E-11, 3.53354E-10, 1.8797712626806486E-05, 1.1967774229251492E-10, 1.1496E-11
DataValue, -1.9500000000000002, 0, 5, 3.3308900000000003E-10, -2.1668E-11, -9.867E-12, 3.3308900000000003E-10, 1.8250726012956306E-05, 8.5794820616822921E-11, 9.867E-12
DataValue, -1.9000000000000001, 0, 5, 3.19389E-10, -2.1942000000000002E-11, -8.5000000000000013E-12, 3.19389E-10, 1.7871457690966343E-05, 6.49426517544137E-11, 8.5000000000000013E-12
DataValue, -1.85, 0, 5, 3.04323E-10, -2.5379000000000002E-11, -8.298E-12, 3.04323E-10, 1.7444855975329806E-05, 5.1435731584071465E-11, 8.298E-12
DataValue, -1.8, 0, 5, 2.94269E-10, -2.1997000000000002E-11, -8.149E-12, 2.94269E-10, 1.715427060530409E-05, 3.1162525620020016E-11, 8.149E-12
DataValue, -1.75, 0, 5, 2.85158E-10, -2.2571E-11, -7.1750000000000004E-12, 2.85158E-10, 1.6886621923878086E-05, 3.0199680875714226E-11, 7.1750000000000004E-12
DataValue, -1.7000000000000002, 0, 5, 2.7571700000000003E-10, -2.1806E-11, -6.9950000000000008E-12, 2.7571700000000003E-10, 1.6604728242280873E-05, 3.3967762144583824E-11, 6.9950000000000008E-12
DataValue, -1.6500000000000001, 0, 5, 2.65814E-10, -2.2649000000000002E-11, -7.1080000000000008E-12, 2.65814E-10, 1.6303803237281785E-05, 3.0780983532751013E-11, 7.1080000000000008E-12
DataValue, -1.6, 0, 5, 2.576E-10, -2.1832E-11, -6.1830000000000006E-12, 2.576E-10, 1.6049922118191105E-05, 2.0989351525902228E-11, 6.1830000000000006E-12
DataValue, -1.55, 0, 5, 2.51085E-10, -2.2350000000000002E-11, -6.581E-12, 2.51085E-10, 1.5845661866895937E-05, 2.8154863449779859E-11, 6.581E-12
DataValue, -1.5, 0, 5, 2.4084900000000004E-10, -2.4242000000000003E-11, -6.184E-12, 2.4084900000000004E-10, 1.5519310551696556E-05, 2.3452878487624433E-11, 6.184E-12
DataValue, -1.4500000000000002, 0, 5, 2.3597200000000003E-10, -2.2891000000000003E-11, -5.5780000000000007E-12, 2.3597200000000003E-10, 1.5361380146327998E-05, 2.5480714121107698E-11, 5.5780000000000007E-12
DataValue, -1.4000000000000001, 0, 5, 2.2543600000000002E-10, -2.3603E-11, -6.0560000000000009E-12, 2.2543600000000002E-10, 1.5014526299554043E-05, 1.7766278002949568E-11, 6.0560000000000009E-12
DataValue, -1.35, 0, 5, 2.2320000000000002E-10, -2.2702E-11, -6E-12, 2.2320000000000002E-10, 1.4939879517586479E-05, 1.6628557416843086E-11, 6E-12
DataValue, -1.3, 0, 5, 2.1335700000000003E-10, -2.6313E-11, -3.5980000000000002E-12, 2.1335700000000003E-10, 1.4606745017285679E-05, 1.6808232778158096E-12, 3.5980000000000002E-12
DataValue, -1.25, 0, 5, 2.1934300000000002E-10, -2.4031000000000002E-11, -5.061E-12, 2.1934300000000002E-10, 1.4810232948876936E-05, 2.224507577483951E-11, 5.061E-12
DataValue, -1.2, 0, 5, 1.99801E-10, -2.3583E-11, -5.4600000000000006E-12, 1.99801E-10, 1.4135098160253434E-05, 3.5990375753031916E-11, 5.4600000000000006E-12
DataValue, -1.1500000000000001, 0, 5, 2.0193300000000002E-10, -2.3925E-11, -4.041E-12, 2.0193300000000002E-10, 1.421031315629603E-05, 9.1391954289959192E-12, 4.041E-12
DataValue, -1.1, 0, 5, 1.91346E-10, -2.3297000000000003E-11, -4.5420000000000006E-12, 1.91346E-10, 1.3832787137811382E-05, 4.309850366558109E-11, 4.5420000000000006E-12
DataValue, -1.05, 0, 5, 1.8370600000000002E-10, -2.3489000000000002E-11, -4.8740000000000004E-12, 1.8370600000000002E-10, 1.3553818650107431E-05, 9.0051609287992184E-12, 4.8740000000000004E-12
DataValue, -1, 0, 5, 1.8313400000000003E-10, -2.3440000000000002E-11, -5.5070000000000007E-12, 1.8313400000000003E-10, 1.3532701134658965E-05, 1.5036551604744198E-12, 5.5070000000000007E-12
DataValue, -0.95000000000000007, 0, 5, 1.8039700000000002E-10, -2.7287000000000004E-11, -4.0580000000000007E-12, 1.8039700000000002E-10, 1.3431195032460812E-05, 9.46945304832833E-12, 4.0580000000000007E-12
DataValue, -0.9, 0, 5, 1.749E-10, -2.3783E-11, -4.002E-12, 1.749E-10, 1.3224976370489288E-05, 2.045305557520932E-11, 4.002E-12
DataValue, -0.85000000000000009, 0, 5, 1.6845300000000002E-10, -2.4171E-11, -3.53E-12, 1.6845300000000002E-10, 1.2978944487129916E-05, 1.8107004239452094E-11, 3.53E-12
DataValue, -0.8, 0, 5, 1.63826E-10, -2.5554000000000004E-11, -3.7800000000000005E-12, 1.63826E-10, 1.2799453113316991E-05, 5.7462677683332969E-12, 3.7800000000000005E-12
DataValue, -0.75, 0, 5, 1.6228800000000002E-10, -2.5496E-11, -4.183E-12, 1.6228800000000002E-10, 1.2739230746006606E-05, 2.1078452772314625E-11, 4.183E-12
DataValue, -0.70000000000000007, 0, 5, 1.5228400000000002E-10, -2.5997E-11, -4.046E-12, 1.5228400000000002E-10, 1.2340340351870365E-05, 4.8581412951115759E-13, 4.046E-12
DataValue, -0.65, 0, 5, 1.60517E-10, -2.7053000000000003E-11, -4.005E-12, 1.60517E-10, 1.2669530378036906E-05, 3.8653545536860336E-12, 4.005E-12
DataValue, -0.6, 0, 5, 1.57175E-10, -3.1466E-11, -2.37E-12, 1.57175E-10, 1.2536945401492343E-05, 8.03990438256792E-13, 2.37E-12
DataValue, -0.55, 0, 5, 1.5825300000000002E-10, -3.769E-11, -6.3540000000000006E-12, 1.5825300000000002E-10, 1.2579864864139043E-05, 5.4652595817294226E-11, 6.3540000000000006E-12
DataValue, -0.5, 0, 5, 1.76258E-10, -4.684E-11, -2.954E-12, 1.76258E-10, 1.3276219341363716E-05, 7.238759262994401E-11, 2.954E-12
DataValue, -0.45, 0, 5, 1.80383E-10, -6.8263E-11, -6.4830000000000005E-12, 1.80383E-10, 1.3430673847577418E-05, 7.0163925574457061E-11, 6.4830000000000005E-12
DataValue, -0.4, 0, 5, 1.99201E-10, -9.4285000000000014E-11, -4.205E-12, 1.99201E-10, 1.4113858437719999E-05, 5.9903480060504056E-10, 4.205E-12
DataValue, -0.35000000000000003, 0, 5, 2.5211700000000003E-10, -1.40689E-10, -5.022E-12, 2.5211700000000003E-10, 1.5878192592357609E-05, 1.0482593024991759E-09, 5.022E-12
DataValue, -0.3, 0, 5, 3.0107600000000003E-10, -2.0161000000000002E-10, -3.53E-12, 3.0107600000000003E-10, 1.7351541718245098E-05, 1.3846154210086241E-09, 3.53E-12
DataValue, -0.25, 0, 5, 3.8413000000000005E-10, -2.79657E-10, -3.0570000000000004E-12, 3.8413000000000005E-10, 1.959923467893581E-05, 2.1434967216382037E-09, 3.0570000000000004E-12
DataValue, -0.2, 0, 5, 4.8317900000000007E-10, -3.8183200000000003E-10, -3.024E-12, 4.8317900000000007E-10, 2.1981332989607342E-05, 2.4248177663097923E-09, 3.024E-12
DataValue, -0.15, 0, 5, 6.01401E-10, -4.90341E-10, -3.1810000000000003E-12, 6.01401E-10, 2.4523478546079061E-05, 2.5546798901546752E-09, 3.1810000000000003E-12
DataValue, -0.1, 0, 5, 7.3093000000000008E-10, -6.2084900000000008E-10, -7.189E-12, 7.3093000000000008E-10, 2.7035717116436916E-05, 2.7197960013438215E-09, 7.189E-12
DataValue, -0.05, 0, 5, 8.8438700000000006E-10, -7.84799E-10, -3.4980000000000002E-12, 8.8438700000000006E-10, 2.9738644891790213E-05, 2.6392964190724083E-09, 3.4980000000000002E-12
DataValue, 0, 0, 5, 1.03511E-09, -9.3454500000000011E-10, -4.2480000000000005E-12, 1.03511E-09, 3.217312543101773E-05, 3.1507547861559123E-09, 4.2480000000000005E-12
DataValue, 0.05, 0, 5, 1.24975E-09, -1.11898E-09, -4.233E-12, 1.24975E-09, 3.5351803348627069E-05, 4.2934568437279725E-09, 4.233E-12
DataValue, 0.1, 0, 5, 1.49967E-09, -1.3999E-09, -4.815E-12, 1.49967E-09, 3.8725572946052072E-05, 4.7560220950093548E-09, 4.815E-12
DataValue, 0.15, 0, 5, 1.78491E-09, -1.68277E-09, -4.9920000000000005E-12, 1.78491E-09, 4.224819522772541E-05, 5.1840274290913821E-09, 4.9920000000000005E-12
DataValue, 0.2, 0, 5, 2.10916E-09, -1.99655E-09, -4.172E-12, 2.10916E-09, 4.5925591994007E-05, 5.85807882292852E-09, 4.172E-12
DataValue, 0.25, 0, 5, 2.49021E-09, -2.36723E-09, -4.0400000000000006E-12, 2.49021E-09, 4.990200396777668E-05, 6.8089187016769835E-09, 4.0400000000000006E-12
DataValue, 0.3, 0, 5, 2.93517E-09, -2.78977E-09, -4.286E-12, 2.93517E-09, 5.41772092304504E-05, 7.7626692667002681E-09, 4.286E-12
DataValue, 0.35000000000000003, 0, 5, 3.4471699999999998E-09, -3.30205E-09, -4.975E-12, 3.4471699999999998E-09, 5.8712605120195437E-05, 9.301176081024925E-09, 4.975E-12
DataValue, 0.4, 0, 5, 4.07318E-09, -3.93827E-09, -4.606E-12, 4.07318E-09, 6.3821469741772631E-05, 1.1938448570384629E-08, 4.606E-12
DataValue, 0.45, 0, 5, 4.84958E-09, -4.64453E-09, -5.224E-12, 4.84958E-09, 6.9638925896369191E-05, 1.4297829453328151E-08, 5.224E-12
DataValue, 0.5, 0, 5, 5.74243E-09, -5.5554E-09, -5.8470000000000004E-12, 5.74243E-09, 7.5778822899277073E-05, 1.6295343470826647E-08, 5.8470000000000004E-12
DataValue, 0.55, 0, 5, 6.79046E-09, -6.58231E-09, -4.581E-12, 6.79046E-09, 8.2404247463343781E-05, 2.0184227140829293E-08, 4.581E-12
DataValue, 0.6, 0, 5, 8.09747E-09, -7.85217E-09, -3.7060000000000006E-12, 8.09747E-09, 8.9985943346725E-05, 2.1574119897952531E-08, 3.7060000000000006E-12
DataValue, 0.65, 0, 5, 9.42693E-09, -8.86786E-09, -6.342E-12, 9.42693E-09, 9.7092378691635733E-05, 1.7037778819302732E-08, 6.342E-12
DataValue, 0.70000000000000007, 0, 5, 1.0616999999999998E-08, -1.0257999999999998E-08, -7.411E-12, 1.0616999999999998E-08, 0.00010303882763308208, 3.3584193624411563E-08, 7.411E-12
DataValue, 0.75, 0, 5, 1.3321399999999999E-08, -1.3014499999999999E-08, -5.9680000000000004E-12, 1.3321399999999999E-08, 0.0001154183694218559, 6.8132383056780143E-08, 5.9680000000000004E-12
DataValue, 0.8, 0, 5, 1.66774E-08, -1.6207299999999997E-08, -6.1560000000000008E-12, 1.66774E-08, 0.00012914100820421063, 8.2398785716654086E-08, 6.1560000000000008E-12
DataValue, 0.85000000000000009, 0, 5, 2.0771599999999997E-08, -2.0377799999999998E-08, -8.8740000000000012E-12, 2.0771599999999997E-08, 0.0001441235581020674, 1.07199642500966E-07, 8.8740000000000012E-12
DataValue, 0.9, 0, 5, 2.6205899999999998E-08, -2.56275E-08, -1.107E-11, 2.6205899999999998E-08, 0.00016188236469733198, 1.5049674240599538E-07, 1.107E-11
DataValue, 0.95000000000000007, 0, 5, 3.34588E-08, -3.2788699999999994E-08, -1.2211000000000001E-11, 3.34588E-08, 0.00018291746772793461, 2.0829146249872678E-07, 1.2211000000000001E-11
DataValue, 1, 0, 5, 4.3065099999999994E-08, -4.20707E-08, -1.2775E-11, 4.3065099999999994E-08, 0.00020752132420548977, 2.7452454951935628E-07, 1.2775E-11
DataValue, 1.05, 0, 5, 5.5371999999999994E-08, -5.4279899999999995E-08, -1.3569000000000001E-11, 5.5371999999999994E-08, 0.00023531255810092244, 3.4977698483731342E-07, 1.3569000000000001E-11
DataValue, 1.1, 0, 5, 7.11093E-08, -6.96335E-08, -1.4573E-11, 7.11093E-08, 0.00026666327081171115, 4.1389580711159485E-07, 1.4573E-11
DataValue, 1.1500000000000001, 0, 5, 8.97885E-08, -8.79511E-08, -1.772E-11, 8.97885E-08, 0.00029964729266255684, 3.1567531867228707E-07, 1.772E-11
DataValue, 1.2, 0, 5, 1.04231E-07, -1.0118699999999999E-07, -2.1507000000000002E-11, 1.04231E-07, 0.00032284826157190317, 3.3946133738306385E-07, 2.1507000000000002E-11
DataValue, 1.25, 0, 5, 1.281E-07, -1.26166E-07, -1.4963000000000002E-11, 1.281E-07, 0.0003579106033634656, 5.4243463821293292E-07, 1.4963000000000002E-11
DataValue, 1.3, 0, 5, 1.57211E-07, -1.5398599999999999E-07, -1.1406E-11, 1.57211E-07, 0.00039649842370430679, 5.6056811366612432E-07, 1.1406E-11
DataValue, 1.35, 0, 5, 1.873E-07, -1.8399E-07, -1.0048E-11, 1.873E-07, 0.000432781700167648, 5.0923251562699245E-07, 1.0048E-11
DataValue, 1.4000000000000001, 0, 5, 2.18892E-07, -2.1446799999999999E-07, -8.798E-12, 2.18892E-07, 0.00046785895310445862, 4.7314921479551485E-07, 8.798E-12
DataValue, 1.4500000000000002, 0, 5, 2.5156999999999997E-07, -2.46071E-07, -8.188E-12, 2.5156999999999997E-07, 0.00050156754280954023, 4.5597546206054918E-07, 8.188E-12
DataValue, 1.5, 0, 5, 2.86637E-07, -2.80676E-07, -6.952E-12, 2.86637E-07, 0.00053538490826694025, 4.6630904072732597E-07, 6.952E-12
DataValue, 1.55, 0, 5, 3.24734E-07, -3.16958E-07, -6.0650000000000005E-12, 3.24734E-07, 0.00056985436736064414, 4.2679652883050573E-07, 6.0650000000000005E-12
DataValue, 1.6, 0, 5, 3.60858E-07, -3.5449299999999997E-07, -6.5850000000000007E-12, 3.60858E-07, 0.00060071457448608655, 4.0450166741927269E-07, 6.5850000000000007E-12
DataValue, 1.6500000000000001, 0, 5, 4.01265E-07, -3.92292E-07, -6.5030000000000009E-12, 4.01265E-07, 0.00063345481291091315, 4.1651546216996603E-07, 6.5030000000000009E-12
DataValue, 1.7000000000000002, 0, 5, 4.42561E-07, -4.32004E-07, -6.3380000000000007E-12, 4.42561E-07, 0.00066525258361016526, 4.3416647683273736E-07, 6.3380000000000007E-12
DataValue, 1.75, 0, 5, 4.89085E-07, -4.75885E-07, -4.878E-12, 4.89085E-07, 0.00069934612317506986, 4.6973060772098925E-07, 4.878E-12
DataValue, 1.8, 0, 5, 5.38447E-07, -5.23481E-07, -6.5990000000000005E-12, 5.38447E-07, 0.00073378947934676746, 4.3401727134929343E-07, 6.5990000000000005E-12
DataValue, 1.85, 0, 5, 5.85571E-07, -5.7251999999999994E-07, -4.2900000000000005E-12, 5.85571E-07, 0.00076522611037522755, 4.3268148797388892E-07, 4.2900000000000005E-12
DataValue, 1.9000000000000001, 0, 5, 6.39309E-07, -6.25083E-07, -4.18E-12, 6.39309E-07, 0.00079956800836451683, 4.939576137255908E-07, 4.18E-12
DataValue, 1.9500000000000002, 0, 5, 6.98074E-07, -6.8078999999999994E-07, -6.516E-12, 6.98074E-07, 0.0008355082285651051, 5.2985931405927124E-07, 6.516E-12
DataValue, 2, 0, 5, 7.61011E-07, -7.41517E-07, -6.55E-12, 7.61011E-07, 0.00087235944426595168, 5.6263810962100928E-07, 6.55E-12
DataValue, 2.05, 0, 5, 8.29042E-07, -8.07829E-07, -4.6050000000000007E-12, 8.29042E-07, 0.000910517435308078, 2.241432437813154E-07, 4.6050000000000007E-12
DataValue, 2.1, 0, 5, 8.45854E-07, -8.17455E-07, -3.92E-12, 8.45854E-07, 0.00091970321299862819, 1.2984255655356812E-07, 3.92E-12
DataValue, 2.15, 0, 5, 8.95959E-07, -8.65891E-07, -3.208E-12, 8.95959E-07, 0.00094655110797040433, 3.0148875342673622E-07, 3.208E-12
DataValue, 2.2, 0, 5, 9.4986699999999994E-07, -9.2104E-07, -2.9010000000000003E-12, 9.4986699999999994E-07, 0.00097461120453235092, 1.483118203042766E-10, 2.9010000000000003E-12
DataValue, 2.25, 0, 5, 8.9365499999999994E-07, -9.1757799999999993E-07, -3.802E-12, 8.9365499999999994E-07, 0.00094533327456511329, 9.3954444876415559E-08, 3.802E-12
