
SetupTitle, Transfer stab
PrimitiveTest, I/V Sweep
TestParameter, Context.MainFrame, 4155C
TestParameter, Channel.UnitType, SMU, SMU, SMU
TestParameter, Channel.Unit, SMU3:MP, SMU4:MP, SMU1:MP
TestParameter, Channel.IName, ID, IS, IG
TestParameter, Channel.VName, VD, VS, VG
TestParameter, Channel.Mode, V, COMMON, V
TestParameter, Channel.Func, CONST, CONST, VAR1
TestParameter, Channel.Index, 
TestParameter, Channel.Time, 
TestParameter, Measurement.Port.Unit, SMU3:MP, SMU4:MP, SMU1:MP
TestParameter, Measurement.Port.SeriesResistor, NONE, NONE, NONE
TestParameter, Measurement.Port.Filter, ON, ON, ON
TestParameter, Measurement.Primary.Locus, Single
TestParameter, Measurement.Primary.Scale, LINEAR
TestParameter, Measurement.Primary.Start, -2
TestParameter, Measurement.Primary.Stop, 3
TestParameter, Measurement.Primary.Step, 0.05
TestParameter, Measurement.Primary.Compliance, 0.1
TestParameter, Measurement.Primary.PowerCompliance, 0
TestParameter, Measurement.Aborting.Condition, CONTINUE AT ANY
TestParameter, Measurement.PostOutput.Value, START
TestParameter, Measurement.PostOutput.Retention, OFF
TestParameter, Measurement.Bias.Source, 3, 0, -2
TestParameter, Measurement.Bias.Compliance, 0.1, 0.1, 0.1
TestParameter, Measurement.Monitor.Unit, SMU3:MP, SMU4:MP, SMU1:MP
TestParameter, Measurement.Monitor.Adc, HR ADC, HR ADC, HR ADC
TestParameter, Measurement.Monitor.RangingMode, AUTO, AUTO, AUTO
TestParameter, Measurement.Monitor.RangeBoundary, , , 
TestParameter, Measurement.Monitor.RangeRating, BY FULL RANGE, BY FULL RANGE, BY FULL RANGE
TestParameter, Measurement.Monitor.RangeRatingCoeff, 50, 50, 50
TestParameter, Measurement.Timing.Hold, 0.5
TestParameter, Measurement.Timing.Delay, 0.05
TestParameter, Measurement.Adc.HighResolution.AutoZero, OFF
TestParameter, Measurement.Adc.HighResolution.Mode, AUTO
TestParameter, Measurement.Adc.HighResolution.Coeff, 1
TestParameter, Measurement.Ag16440ASelector.SemiconductorRelay.Channel1, DEFAULT
TestParameter, Measurement.Ag16440ASelector.SemiconductorRelay.Channel3, DEFAULT
TestParameter, Function.User.Name, absID, sqrtID, gm2, absIG
TestParameter, Function.User.Unit, A, A, A/V, A
TestParameter, Function.User.Definition, abs(ID), sqrt(abs(ID)), (delta(sqrtID)/delta(VG))^2, abs(IG)
TestParameter, Output.Graph.Enabled, true
TestParameter, Output.Graph.XAxis.Data, VG
TestParameter, Output.Graph.XAxis.Scale, Linear
TestParameter, Output.Graph.XAxis.Left, -5
TestParameter, Output.Graph.XAxis.Right, 7
TestParameter, Output.Graph.YAxis.Data, ID, absIG, gm2
TestParameter, Output.Graph.YAxis.Scale, Log, Log, Linear
TestParameter, Output.Graph.YAxis.Bottom, 1E-14, 1E-14, 0
TestParameter, Output.Graph.YAxis.Top, 0.01, 0.01, 1E-05
TestParameter, Output.Graph.YAxis.Group, , , 
TestParameter, Output.List.Data, VG, IG, VD, ID, VS, IS, sqrtID, gm2, absIG
TestParameter, AutoAnalysis.Interpolation, false
TestParameter, AutoAnalysis.Line1.Enabled, false
TestParameter, AutoAnalysis.Line1.Type, 1
TestParameter, AutoAnalysis.Line1.Fix, True
TestParameter, AutoAnalysis.Line1.YAxis, 0
TestParameter, AutoAnalysis.Line1.Point1.Type, 0
TestParameter, AutoAnalysis.Line1.Point1.XY.X, 
TestParameter, AutoAnalysis.Line1.Point1.XY.Y, 
TestParameter, AutoAnalysis.Line1.Point1.Data.Var, 
TestParameter, AutoAnalysis.Line1.Point1.Data.Condition, 
TestParameter, AutoAnalysis.Line1.Point1.Data.Start, false
TestParameter, AutoAnalysis.Line1.Point1.Data.StartVar, 
TestParameter, AutoAnalysis.Line1.Point1.Data.StartCondition, 
TestParameter, AutoAnalysis.Line1.Point2.Type, 0
TestParameter, AutoAnalysis.Line1.Point2.XY.X, 
TestParameter, AutoAnalysis.Line1.Point2.XY.Y, 
TestParameter, AutoAnalysis.Line1.Point2.Data.Var, 
TestParameter, AutoAnalysis.Line1.Point2.Data.Condition, 
TestParameter, AutoAnalysis.Line1.Point2.Data.Start, false
TestParameter, AutoAnalysis.Line1.Point2.Data.StartVar, 
TestParameter, AutoAnalysis.Line1.Point2.Data.StartCondition, 
TestParameter, AutoAnalysis.Line1.GradientExpr, 0
TestParameter, AutoAnalysis.Line2.Enabled, false
TestParameter, AutoAnalysis.Line2.Type, 1
TestParameter, AutoAnalysis.Line2.Fix, True
TestParameter, AutoAnalysis.Line2.YAxis, 0
TestParameter, AutoAnalysis.Line2.Point1.Type, 0
TestParameter, AutoAnalysis.Line2.Point1.XY.X, 
TestParameter, AutoAnalysis.Line2.Point1.XY.Y, 
TestParameter, AutoAnalysis.Line2.Point1.Data.Var, 
TestParameter, AutoAnalysis.Line2.Point1.Data.Condition, 
TestParameter, AutoAnalysis.Line2.Point1.Data.Start, false
TestParameter, AutoAnalysis.Line2.Point1.Data.StartVar, 
TestParameter, AutoAnalysis.Line2.Point1.Data.StartCondition, 
TestParameter, AutoAnalysis.Line2.Point2.Type, 0
TestParameter, AutoAnalysis.Line2.Point2.XY.X, 
TestParameter, AutoAnalysis.Line2.Point2.XY.Y, 
TestParameter, AutoAnalysis.Line2.Point2.Data.Var, 
TestParameter, AutoAnalysis.Line2.Point2.Data.Condition, 
TestParameter, AutoAnalysis.Line2.Point2.Data.Start, false
TestParameter, AutoAnalysis.Line2.Point2.Data.StartVar, 
TestParameter, AutoAnalysis.Line2.Point2.Data.StartCondition, 
TestParameter, AutoAnalysis.Line2.GradientExpr, 0
TestParameter, AutoAnalysis.Marker.Enabled, false
TestParameter, AutoAnalysis.Marker.Data.Var, 
TestParameter, AutoAnalysis.Marker.Data.Condition, 
TestParameter, AutoAnalysis.Marker.Data.Start, false
TestParameter, AutoAnalysis.Marker.Data.StartVar, 
TestParameter, AutoAnalysis.Marker.Data.StartCondition, 
MetaData, TestRecord.EntryPoint, true
MetaData, TestRecord.RecordTime, 06/18/2019 12:47:58
MetaData, TestRecord.TestTarget, 12-37
MetaData, TestRecord.IterationIndex, 10
MetaData, TestRecord.Preservation, true
MetaData, TestRecord.Flag, 
MetaData, TestRecord.Remarks, leak
MetaData, TestRecord.LinkKey, 10428502-4a35-446a-a9d9-f826d3f9b671
Dimension1, 101, 101, 101, 101, 101, 101, 101, 101, 101, 101
Dimension2, 1, 1, 1, 1, 1, 1, 1, 1, 1, 1
DataName, VG, VD, VS, ID, IS, IG, absID, sqrtID, gm2, absIG
DataValue, -2, 3, 0, 6.91004E-09, 4.993E-12, -1.2376299999999999E-08, 6.91004E-09, 8.3126650359556766E-05, 2.0743211800028196E-07, 1.2376299999999999E-08
DataValue, -1.9500000000000002, 3, 0, 1.12146E-08, 1.792E-12, -1.0374199999999998E-08, 1.12146E-08, 0.000105899008493942, 2.1110284367010168E-08, 1.0374199999999998E-08
DataValue, -1.9000000000000001, 3, 0, 9.5366999999999983E-09, 5.7310000000000005E-12, -8.50868E-09, 9.5366999999999983E-09, 9.7656028999749923E-05, 2.4765627159965747E-08, 8.50868E-09
DataValue, -1.85, 3, 0, 8.12917E-09, -4.8320000000000004E-12, -8.5345E-09, 8.12917E-09, 9.01619099176587E-05, 2.0863638658294387E-08, 8.5345E-09
DataValue, -1.8, 3, 0, 6.9242E-09, -6.2700000000000005E-13, -7.84276E-09, 6.9242E-09, 8.3211778012490519E-05, 2.8235954181346373E-09, 7.84276E-09
DataValue, -1.75, 3, 0, 7.1992099999999996E-09, 1.3730000000000001E-12, -6.69006E-09, 7.1992099999999996E-09, 8.4848158495043368E-05, 6.9752042361279207E-10, 6.69006E-09
DataValue, -1.7000000000000002, 3, 0, 7.37071E-09, 3.9000000000000005E-13, -6.97261E-09, 7.37071E-09, 8.5852839207564935E-05, 4.3381745794017659E-09, 6.97261E-09
DataValue, -1.6500000000000001, 3, 0, 6.12489E-09, -1.0730000000000002E-12, -5.916E-09, 6.12489E-09, 7.8261676445115838E-05, 8.4675741700463458E-09, 5.916E-09
DataValue, -1.6, 3, 0, 5.87536E-09, -1.498E-12, -5.98673E-09, 5.87536E-09, 7.6650896928868355E-05, 1.2282712401243444E-09, 5.98673E-09
DataValue, -1.55, 3, 0, 5.58861E-09, -3.5770000000000002E-12, -5.6364E-09, 5.58861E-09, 7.47570063606081E-05, 6.9408399166950787E-10, 5.6364E-09
DataValue, -1.5, 3, 0, 5.47842E-09, -2.574E-12, -5.60213E-09, 5.47842E-09, 7.4016349545218729E-05, 2.1914031403185389E-10, 5.60213E-09
DataValue, -1.4500000000000002, 3, 0, 5.36947E-09, -2.343E-12, -5.46751E-09, 5.36947E-09, 7.3276667500644433E-05, 2.3108395622392005E-11, 5.46751E-09
DataValue, -1.4000000000000001, 3, 0, 5.40749E-09, 7.8000000000000008E-14, -5.40082E-09, 5.40749E-09, 7.3535637618776374E-05, 4.5803660377856988E-10, 5.40082E-09
DataValue, -1.35, 3, 0, 5.0604E-09, -2.765E-12, -4.92689E-09, 5.0604E-09, 7.1136488527337362E-05, 2.1170820494239222E-09, 4.92689E-09
DataValue, -1.3, 3, 0, 4.75196E-09, -1.255E-12, -4.60435E-09, 4.75196E-09, 6.8934461628419207E-05, 1.8371579441388019E-09, 4.60435E-09
DataValue, -1.25, 3, 0, 4.46896E-09, -6.839E-12, -4.4448E-09, 4.46896E-09, 6.6850280478095229E-05, 1.9408900565794065E-09, 4.4448E-09
DataValue, -1.2, 3, 0, 4.16398E-09, -2.648E-12, -4.24219E-09, 4.16398E-09, 6.4528908250488791E-05, 1.0783726808028E-09, 4.24219E-09
DataValue, -1.1500000000000001, 3, 0, 4.04069E-09, -2.883E-12, -3.97537E-09, 4.04069E-09, 6.3566421953732772E-05, 6.50476586659227E-10, 3.97537E-09
DataValue, -1.1, 3, 0, 3.84133E-09, -3.81E-12, -3.76974E-09, 3.84133E-09, 6.1978464001619145E-05, 8.1776999207865723E-10, 3.76974E-09
DataValue, -1.05, 3, 0, 3.68531E-09, -5.4130000000000005E-12, -3.58086E-09, 3.68531E-09, 6.0706754154706706E-05, 2.4104393268141427E-10, 3.58086E-09
DataValue, -1, 3, 0, 3.65129E-09, -5.3790000000000004E-12, -3.58838E-09, 3.65129E-09, 6.0425905040801828E-05, 5.6326291185781427E-10, 3.58838E-09
DataValue, -0.95000000000000007, 3, 0, 3.40279E-09, -1.4170000000000001E-12, -3.39207E-09, 3.40279E-09, 5.8333438095144023E-05, 8.4478411010182889E-10, 3.39207E-09
DataValue, -0.9, 3, 0, 3.30848E-09, -4.0870000000000007E-12, -3.29292E-09, 3.30848E-09, 5.7519388035687583E-05, 3.118289371028247E-10, 3.29292E-09
DataValue, -0.85000000000000009, 3, 0, 3.19989E-09, -5.3200000000000006E-13, -3.1646E-09, 3.19989E-09, 5.6567570214744063E-05, 3.5737586209312975E-10, 3.1646E-09
DataValue, -0.8, 3, 0, 3.09458E-09, -2.612E-12, -3.02693E-09, 3.09458E-09, 5.56289492980049E-05, 3.6111551322950455E-10, 3.02693E-09
DataValue, -0.75, 3, 0, 2.98851E-09, -3.125E-12, -3.10669E-09, 2.98851E-09, 5.4667266256874415E-05, 1.0190270830282875E-09, 3.10669E-09
DataValue, -0.70000000000000007, 3, 0, 3.45993E-09, -5.6960000000000008E-12, -3.31093E-09, 3.45993E-09, 5.8821169658550654E-05, 4.2780466533351839E-11, 3.31093E-09
DataValue, -0.65, 3, 0, 3.06045E-09, -8.9290000000000012E-12, -3.02761E-09, 3.06045E-09, 5.5321334040313959E-05, 3.3764222807333221E-09, 3.02761E-09
DataValue, -0.6, 3, 0, 2.81011E-09, -7.8930000000000012E-12, -2.74577E-09, 2.81011E-09, 5.3010470663822629E-05, 1.5997609486340636E-09, 2.74577E-09
DataValue, -0.55, 3, 0, 2.63391E-09, -1.1752000000000001E-11, -2.64281E-09, 2.63391E-09, 5.1321632865683455E-05, 7.7838596539814607E-10, 2.64281E-09
DataValue, -0.5, 3, 0, 2.5221E-09, -3.733E-12, -2.54739E-09, 2.5221E-09, 5.02205137369183E-05, 3.5861206612327489E-10, 2.54739E-09
DataValue, -0.45, 3, 0, 2.44312E-09, -3.3640000000000002E-12, -2.43764E-09, 2.44312E-09, 4.9427927328586214E-05, 2.2183565564806942E-10, 2.43764E-09
DataValue, -0.4, 3, 0, 2.37472E-09, -3.8430000000000005E-12, -2.30674E-09, 2.37472E-09, 4.8731098899983775E-05, 7.5341844045926458E-10, 2.30674E-09
DataValue, -0.35000000000000003, 3, 0, 2.17931E-09, -3.9660000000000007E-12, -2.17224E-09, 2.17931E-09, 4.668308044677429E-05, 7.5374900160089827E-10, 2.17224E-09
DataValue, -0.3, 3, 0, 2.11468E-09, -4.6000000000000006E-12, -2.07026E-09, 2.11468E-09, 4.5985649935604909E-05, 3.4782389374931426E-10, 2.07026E-09
DataValue, -0.25, 3, 0, 2.00866E-09, -6.379E-12, -1.92658E-09, 2.00866E-09, 4.4818076710184696E-05, 8.3947440280332839E-10, 1.92658E-09
DataValue, -0.2, 3, 0, 1.8566E-09, -5.5040000000000008E-12, -1.82131E-09, 1.8566E-09, 4.308828146955968E-05, 4.9605651600342729E-10, 1.82131E-09
DataValue, -0.15, 3, 0, 1.81398E-09, -3.8930000000000005E-12, -1.76848E-09, 1.81398E-09, 4.2590844086493522E-05, 4.3894913875219284E-10, 1.76848E-09
DataValue, -0.1, 3, 0, 1.68044E-09, -7.0110000000000007E-12, -1.7037E-09, 1.68044E-09, 4.0993170162845422E-05, 1.4930258705114648E-10, 1.7037E-09
DataValue, -0.05, 3, 0, 1.71139E-09, -7.4120000000000011E-12, -1.70967E-09, 1.71139E-09, 4.1368949708688523E-05, 1.5590288967876575E-10, 1.70967E-09
DataValue, 0, 3, 0, 1.57963E-09, -1.0244E-11, -1.55552E-09, 1.57963E-09, 3.9744559376095741E-05, 8.9310481434692177E-10, 1.55552E-09
DataValue, 0.05, 3, 0, 1.47306E-09, -1.657E-11, -1.41777E-09, 1.47306E-09, 3.8380463780418287E-05, 8.6312703328081586E-10, 1.41777E-09
DataValue, 0.1, 3, 0, 1.35473E-09, -2.3212E-11, -1.36966E-09, 1.35473E-09, 3.6806657006579667E-05, 3.9070180448849413E-10, 1.36966E-09
DataValue, 0.15, 3, 0, 1.32524E-09, -3.3743000000000004E-11, -1.29768E-09, 1.32524E-09, 3.6403845950668453E-05, 9.8372544111313162E-12, 1.29768E-09
DataValue, 0.2, 3, 0, 1.33174E-09, -5.0183E-11, -1.27195E-09, 1.33174E-09, 3.6493013029893819E-05, 1.5142794728227E-10, 1.27195E-09
DataValue, 0.25, 3, 0, 1.23716E-09, -7.0894000000000009E-11, -1.21368E-09, 1.23716E-09, 3.5173285317126692E-05, 4.45588017043311E-10, 1.21368E-09
DataValue, 0.3, 3, 0, 1.18213E-09, -9.5051E-11, -1.08791E-09, 1.18213E-09, 3.4382117444974207E-05, 1.0260234900111985E-10, 1.08791E-09
DataValue, 0.35000000000000003, 3, 0, 1.16693E-09, -1.21673E-10, -1.01687E-09, 1.16693E-09, 3.41603571409902E-05, 1.9371513319333649E-10, 1.01687E-09
DataValue, 0.4, 3, 0, 1.08836E-09, -1.45447E-10, -9.6321E-10, 1.08836E-09, 3.2990301605168752E-05, 3.04100933775348E-10, 9.6321E-10
DataValue, 0.45, 3, 0, 1.05083E-09, -1.62382E-10, -8.84347E-10, 1.05083E-09, 3.241650814014366E-05, 1.7607055674018492E-10, 8.84347E-10
DataValue, 0.5, 3, 0, 1.00257E-09, -1.7483100000000001E-10, -8.31508E-10, 1.00257E-09, 3.16633857949525E-05, 1.3641963773876744E-10, 8.31508E-10
DataValue, 0.55, 3, 0, 9.7647E-10, -1.8678500000000002E-10, -7.7920000000000006E-10, 9.7647E-10, 3.1248519964951944E-05, 1.8386301306946151E-10, 7.7920000000000006E-10
DataValue, 0.6, 3, 0, 9.1854E-10, -1.94426E-10, -7.0807500000000006E-10, 9.1854E-10, 3.0307424832868926E-05, 3.6816281359094526E-10, 7.0807500000000006E-10
DataValue, 0.65, 3, 0, 8.6023500000000008E-10, -1.9735900000000002E-10, -6.800800000000001E-10, 8.6023500000000008E-10, 2.9329763040297481E-05, 1.4656445333655202E-10, 6.800800000000001E-10
DataValue, 0.70000000000000007, 3, 0, 8.46623E-10, -2.0308E-10, -6.39419E-10, 8.46623E-10, 2.9096786764177246E-05, 1.5337525975366372E-10, 6.39419E-10
DataValue, 0.75, 3, 0, 7.8912200000000008E-10, -2.0992E-10, -5.76065E-10, 7.8912200000000008E-10, 2.8091315383940283E-05, 2.6793451074252344E-10, 5.76065E-10
DataValue, 0.8, 3, 0, 7.5404700000000007E-10, -2.14587E-10, -5.36396E-10, 7.5404700000000007E-10, 2.7459916241678525E-05, 1.4283707410563145E-10, 5.36396E-10
DataValue, 0.85000000000000009, 3, 0, 7.23404E-10, -2.2189200000000001E-10, -5.0341400000000006E-10, 7.23404E-10, 2.6896170731165433E-05, 1.1681193677714595E-10, 5.0341400000000006E-10
DataValue, 0.9, 3, 0, 6.958580000000001E-10, -2.2798900000000002E-10, -4.72132E-10, 6.958580000000001E-10, 2.6379120531208013E-05, 9.8100521876474722E-11, 4.72132E-10
DataValue, 0.95000000000000007, 3, 0, 6.71106E-10, -2.33789E-10, -4.42312E-10, 6.71106E-10, 2.5905713655485347E-05, 9.4964044291823978E-11, 4.42312E-10
DataValue, 1, 3, 0, 6.45395E-10, -2.42184E-10, -3.98457E-10, 6.45395E-10, 2.5404625563074139E-05, 7.4827130234670842E-11, 3.98457E-10
DataValue, 1.05, 3, 0, 6.27036E-10, -2.48245E-10, -3.7137800000000005E-10, 6.27036E-10, 2.504068689153714E-05, 9.55284700265503E-11, 3.7137800000000005E-10
DataValue, 1.1, 3, 0, 5.9669E-10, -2.57864E-10, -3.44599E-10, 5.9669E-10, 2.4427238894316321E-05, 9.2153945132943792E-11, 3.44599E-10
DataValue, 1.1500000000000001, 3, 0, 5.7988100000000008E-10, -2.6345300000000003E-10, -3.12978E-10, 5.7988100000000008E-10, 2.4080718427821045E-05, 6.2249890471319053E-11, 3.12978E-10
DataValue, 1.2, 3, 0, 5.58767E-10, -2.7029900000000003E-10, -2.8478700000000003E-10, 5.58767E-10, 2.3638252896523465E-05, 6.6494871391090485E-11, 2.8478700000000003E-10
DataValue, 1.25, 3, 0, 5.4127300000000006E-10, -2.80983E-10, -2.5816E-10, 5.4127300000000006E-10, 2.3265274552431142E-05, 5.60834066468755E-11, 2.5816E-10
DataValue, 1.3, 3, 0, 5.23923E-10, -2.8718600000000004E-10, -2.3190700000000003E-10, 5.23923E-10, 2.2889364342418947E-05, 6.5060581014004671E-11, 2.3190700000000003E-10
DataValue, 1.35, 3, 0, 5.0439200000000007E-10, -2.95295E-10, -2.08555E-10, 5.0439200000000007E-10, 2.2458673157602167E-05, 4.411894349616446E-11, 2.08555E-10
DataValue, 1.4000000000000001, 3, 0, 4.93957E-10, -3.02075E-10, -1.8374E-10, 4.93957E-10, 2.2225143419109808E-05, 3.2443176575794522E-11, 1.8374E-10
DataValue, 1.4500000000000002, 3, 0, 4.79132E-10, -3.1035E-10, -1.58785E-10, 4.79132E-10, 2.1889084037483159E-05, 4.0987924616375342E-11, 1.58785E-10
DataValue, 1.5, 3, 0, 4.65909E-10, -3.2306200000000004E-10, -1.345E-10, 4.65909E-10, 2.1584925295214715E-05, 3.7772365732423271E-11, 1.345E-10
DataValue, 1.55, 3, 0, 4.5260400000000005E-10, -3.3275300000000004E-10, -1.1250700000000001E-10, 4.5260400000000005E-10, 2.1274491768312588E-05, 3.2314172724351878E-11, 1.1250700000000001E-10
DataValue, 1.6, 3, 0, 4.41692E-10, -3.4106E-10, -9.2180000000000012E-11, 4.41692E-10, 2.1016469732093446E-05, 1.9981787162158121E-11, 9.2180000000000012E-11
DataValue, 1.6500000000000001, 3, 0, 4.33784E-10, -3.49751E-10, -7.3867E-11, 4.33784E-10, 2.0827481844908665E-05, 1.6030717097838586E-11, 7.3867E-11
DataValue, 1.7000000000000002, 3, 0, 4.25023E-10, -3.5726300000000004E-10, -5.8119000000000006E-11, 4.25023E-10, 2.0616085952478954E-05, 3.4440941313613344E-12, 5.8119000000000006E-11
DataValue, 1.75, 3, 0, 4.26088E-10, -3.70079E-10, -4.2677E-11, 4.26088E-10, 2.0641899137434037E-05, 1.8195389769585156E-14, 4.2677E-11
DataValue, 1.8, 3, 0, 4.24467E-10, -3.81793E-10, -3.1173E-11, 4.24467E-10, 2.0602596923689013E-05, 6.78900307311074E-14, 3.1173E-11
DataValue, 1.85, 3, 0, 4.2501300000000004E-10, -3.9237400000000005E-10, -2.0194000000000002E-11, 4.2501300000000004E-10, 2.06158434219898E-05, 1.2843690173727905E-13, 2.0194000000000002E-11
DataValue, 1.9000000000000001, 3, 0, 4.25945E-10, -4.0499800000000003E-10, -1.2427000000000001E-11, 4.25945E-10, 2.063843501818876E-05, 3.9403279125198956E-12, 1.2427000000000001E-11
DataValue, 1.9500000000000002, 3, 0, 4.33237E-10, -4.1345400000000004E-10, -5.916E-12, 4.33237E-10, 2.0814346014227783E-05, 1.8371902826814678E-11, 5.916E-12
DataValue, 2, 3, 0, 4.4382100000000003E-10, -4.26837E-10, -1.385E-12, 4.4382100000000003E-10, 2.1067059595491726E-05, 1.4698767273255413E-11, 1.385E-12
DataValue, 2.05, 3, 0, 4.4934400000000006E-10, -4.39734E-10, 2.021E-12, 4.4934400000000006E-10, 2.1197735728138515E-05, 1.3832715631626657E-11, 2.021E-12
DataValue, 2.1, 3, 0, 4.5963000000000005E-10, -4.4879600000000006E-10, 4.1140000000000004E-12, 4.5963000000000005E-10, 2.1438983184843446E-05, 2.83528197311184E-11, 4.1140000000000004E-12
DataValue, 2.15, 3, 0, 4.72202E-10, -4.65201E-10, 6.226E-12, 4.72202E-10, 2.1730209386934126E-05, 3.415125626445321E-11, 6.226E-12
DataValue, 2.2, 3, 0, 4.85029E-10, -4.7598400000000008E-10, 7.649E-12, 4.85029E-10, 2.2023373946786628E-05, 3.0107653026222384E-11, 7.649E-12
DataValue, 2.25, 3, 0, 4.9635E-10, -4.92209E-10, 9.228E-12, 4.9635E-10, 2.2278913797579989E-05, 2.8550837477805132E-11, 9.228E-12
DataValue, 2.3000000000000003, 3, 0, 5.0885000000000006E-10, -5.04507E-10, 1.0264E-11, 5.0885000000000006E-10, 2.2557703783851761E-05, 3.8808396426264088E-11, 1.0264E-11
DataValue, 2.35, 3, 0, 5.2449600000000007E-10, -5.20709E-10, 1.1051E-11, 5.2449600000000007E-10, 2.2901877652279956E-05, 4.069979569643862E-11, 1.1051E-11
DataValue, 2.4, 3, 0, 5.38039E-10, -5.3391000000000007E-10, 1.2645E-11, 5.38039E-10, 2.3195667698947578E-05, 2.9370853130425159E-11, 1.2645E-11
DataValue, 2.45, 3, 0, 5.4961300000000005E-10, -5.4903600000000007E-10, 1.2656000000000001E-11, 5.4961300000000005E-10, 2.3443826479480691E-05, 4.2122338223550741E-11, 1.2656000000000001E-11
DataValue, 2.5, 3, 0, 5.68569E-10, -5.62938E-10, 1.3431000000000001E-11, 5.68569E-10, 2.384468494235141E-05, 4.7685563855414112E-11, 1.3431000000000001E-11
DataValue, 2.5500000000000003, 3, 0, 5.82468E-10, -5.7967700000000009E-10, 1.3923E-11, 5.82468E-10, 2.413437382655701E-05, 4.4568667982555809E-11, 1.3923E-11
