
SetupTitle, Transfer sat
PrimitiveTest, I/V Sweep
TestParameter, Context.MainFrame, 4155C
TestParameter, Channel.UnitType, SMU, SMU, SMU
TestParameter, Channel.Unit, SMU3:MP, SMU4:MP, SMU1:MP
TestParameter, Channel.IName, IS, ID, IG
TestParameter, Channel.VName, VS, VD, VG
TestParameter, Channel.Mode, COMMON, V, V
TestParameter, Channel.Func, CONST, CONST, VAR1
TestParameter, Channel.Index, 
TestParameter, Channel.Time, 
TestParameter, Measurement.Port.Unit, SMU3:MP, SMU4:MP, SMU1:MP
TestParameter, Measurement.Port.SeriesResistor, NONE, NONE, NONE
TestParameter, Measurement.Port.Filter, ON, ON, ON
TestParameter, Measurement.Primary.Locus, Double
TestParameter, Measurement.Primary.Scale, LINEAR
TestParameter, Measurement.Primary.Start, -2
TestParameter, Measurement.Primary.Stop, 3
TestParameter, Measurement.Primary.Step, 0.05
TestParameter, Measurement.Primary.Compliance, 0.001
TestParameter, Measurement.Primary.PowerCompliance, 0
TestParameter, Measurement.Aborting.Condition, CONTINUE AT ANY
TestParameter, Measurement.PostOutput.Value, START
TestParameter, Measurement.PostOutput.Retention, OFF
TestParameter, Measurement.Bias.Source, 0, 5, -2
TestParameter, Measurement.Bias.Compliance, 0.1, 0.001, 0.001
TestParameter, Measurement.Monitor.Unit, SMU4:MP, SMU3:MP, SMU1:MP
TestParameter, Measurement.Monitor.Adc, HR ADC, HR ADC, HR ADC
TestParameter, Measurement.Monitor.RangingMode, AUTO, AUTO, AUTO
TestParameter, Measurement.Monitor.RangeBoundary, , , 
TestParameter, Measurement.Monitor.RangeRating, BY FULL RANGE, BY FULL RANGE, BY FULL RANGE
TestParameter, Measurement.Monitor.RangeRatingCoeff, 50, 50, 50
TestParameter, Measurement.Timing.Hold, 0.5
TestParameter, Measurement.Timing.Delay, 0.05
TestParameter, Measurement.Adc.HighResolution.AutoZero, OFF
TestParameter, Measurement.Adc.HighResolution.Mode, AUTO
TestParameter, Measurement.Adc.HighResolution.Coeff, 1
TestParameter, Measurement.Ag16440ASelector.SemiconductorRelay.Channel1, DEFAULT
TestParameter, Measurement.Ag16440ASelector.SemiconductorRelay.Channel3, DEFAULT
TestParameter, Function.User.Name, absID, sqrtID, gm2, absIG
TestParameter, Function.User.Unit, A, A, A/V, A
TestParameter, Function.User.Definition, abs(ID), sqrt(abs(ID)), (delta(sqrtID)/delta(VG))^2, abs(IG)
TestParameter, Output.Graph.Enabled, true
TestParameter, Output.Graph.XAxis.Data, VG
TestParameter, Output.Graph.XAxis.Scale, Linear
TestParameter, Output.Graph.XAxis.Left, -5
TestParameter, Output.Graph.XAxis.Right, 7
TestParameter, Output.Graph.YAxis.Data, ID, absIG, gm2
TestParameter, Output.Graph.YAxis.Scale, Log, Log, Linear
TestParameter, Output.Graph.YAxis.Bottom, 1E-14, 1E-14, 0
TestParameter, Output.Graph.YAxis.Top, 0.01, 0.01, 1E-05
TestParameter, Output.Graph.YAxis.Group, , , 
TestParameter, Output.List.Data, VG, IG, VD, ID, VS, IS, sqrtID, gm2, absIG
TestParameter, AutoAnalysis.Interpolation, false
TestParameter, AutoAnalysis.Line1.Enabled, false
TestParameter, AutoAnalysis.Line1.Type, 1
TestParameter, AutoAnalysis.Line1.Fix, True
TestParameter, AutoAnalysis.Line1.YAxis, 0
TestParameter, AutoAnalysis.Line1.Point1.Type, 0
TestParameter, AutoAnalysis.Line1.Point1.XY.X, 
TestParameter, AutoAnalysis.Line1.Point1.XY.Y, 
TestParameter, AutoAnalysis.Line1.Point1.Data.Var, 
TestParameter, AutoAnalysis.Line1.Point1.Data.Condition, 
TestParameter, AutoAnalysis.Line1.Point1.Data.Start, false
TestParameter, AutoAnalysis.Line1.Point1.Data.StartVar, 
TestParameter, AutoAnalysis.Line1.Point1.Data.StartCondition, 
TestParameter, AutoAnalysis.Line1.Point2.Type, 0
TestParameter, AutoAnalysis.Line1.Point2.XY.X, 
TestParameter, AutoAnalysis.Line1.Point2.XY.Y, 
TestParameter, AutoAnalysis.Line1.Point2.Data.Var, 
TestParameter, AutoAnalysis.Line1.Point2.Data.Condition, 
TestParameter, AutoAnalysis.Line1.Point2.Data.Start, false
TestParameter, AutoAnalysis.Line1.Point2.Data.StartVar, 
TestParameter, AutoAnalysis.Line1.Point2.Data.StartCondition, 
TestParameter, AutoAnalysis.Line1.GradientExpr, 0
TestParameter, AutoAnalysis.Line2.Enabled, false
TestParameter, AutoAnalysis.Line2.Type, 1
TestParameter, AutoAnalysis.Line2.Fix, True
TestParameter, AutoAnalysis.Line2.YAxis, 0
TestParameter, AutoAnalysis.Line2.Point1.Type, 0
TestParameter, AutoAnalysis.Line2.Point1.XY.X, 
TestParameter, AutoAnalysis.Line2.Point1.XY.Y, 
TestParameter, AutoAnalysis.Line2.Point1.Data.Var, 
TestParameter, AutoAnalysis.Line2.Point1.Data.Condition, 
TestParameter, AutoAnalysis.Line2.Point1.Data.Start, false
TestParameter, AutoAnalysis.Line2.Point1.Data.StartVar, 
TestParameter, AutoAnalysis.Line2.Point1.Data.StartCondition, 
TestParameter, AutoAnalysis.Line2.Point2.Type, 0
TestParameter, AutoAnalysis.Line2.Point2.XY.X, 
TestParameter, AutoAnalysis.Line2.Point2.XY.Y, 
TestParameter, AutoAnalysis.Line2.Point2.Data.Var, 
TestParameter, AutoAnalysis.Line2.Point2.Data.Condition, 
TestParameter, AutoAnalysis.Line2.Point2.Data.Start, false
TestParameter, AutoAnalysis.Line2.Point2.Data.StartVar, 
TestParameter, AutoAnalysis.Line2.Point2.Data.StartCondition, 
TestParameter, AutoAnalysis.Line2.GradientExpr, 0
TestParameter, AutoAnalysis.Marker.Enabled, false
TestParameter, AutoAnalysis.Marker.Data.Var, 
TestParameter, AutoAnalysis.Marker.Data.Condition, 
TestParameter, AutoAnalysis.Marker.Data.Start, false
TestParameter, AutoAnalysis.Marker.Data.StartVar, 
TestParameter, AutoAnalysis.Marker.Data.StartCondition, 
MetaData, TestRecord.EntryPoint, true
MetaData, TestRecord.RecordTime, 06/18/2019 15:22:57
MetaData, TestRecord.TestTarget, 4-38
MetaData, TestRecord.IterationIndex, 1
MetaData, TestRecord.Preservation, true
MetaData, TestRecord.Flag, 
MetaData, TestRecord.Remarks, good
MetaData, TestRecord.LinkKey, 63ab7f4f-4092-47b0-a79e-6185332da9c9
Dimension1, 202, 202, 202, 202, 202, 202, 202, 202, 202, 202
Dimension2, 1, 1, 1, 1, 1, 1, 1, 1, 1, 1
DataName, VG, VS, VD, ID, IS, IG, absID, sqrtID, gm2, absIG
DataValue, -2, 0, 5, 8.618E-12, 3.3200000000000005E-13, -7.0630000000000009E-12, 8.618E-12, 2.9356430300702435E-06, 4.1248536536358809E-10, 7.0630000000000009E-12
DataValue, -1.9500000000000002, 0, 5, 3.687E-12, 5.16E-13, -6.46E-12, 3.687E-12, 1.9201562436426884E-06, 1.7614297388442833E-11, 6.46E-12
DataValue, -1.9000000000000001, 0, 5, 6.3300000000000007E-12, 3.99E-13, -5.246E-12, 6.3300000000000007E-12, 2.5159491250818248E-06, 3.5591686533426605E-11, 5.246E-12
DataValue, -1.85, 0, 5, 6.334E-12, 1.0580000000000001E-12, -4.983E-12, 6.334E-12, 2.5167439281738616E-06, 4.3900115730122573E-10, 4.983E-12
DataValue, -1.8, 0, 5, -1.77E-13, 6.7000000000000007E-13, -5.188E-12, 1.77E-13, 4.2071367935925258E-07, 7.6537792178982979E-12, 5.188E-12
DataValue, -1.75, 0, 5, 5.0180000000000006E-12, -2.758E-12, -4.044E-12, 5.0180000000000006E-12, 2.240089283934906E-06, 2.9908333410102961E-10, 4.044E-12
DataValue, -1.7000000000000002, 0, 5, 4.623E-12, 2.8800000000000004E-13, -3.5730000000000002E-12, 4.623E-12, 2.1501162759255603E-06, 4.3714313749677651E-12, 3.5730000000000002E-12
DataValue, -1.6500000000000001, 0, 5, 4.125E-12, 9.3000000000000008E-14, -3.755E-12, 4.125E-12, 2.0310096011589903E-06, 2.8460580456188037E-12, 3.755E-12
DataValue, -1.6, 0, 5, 3.926E-12, -2.7800000000000003E-13, -3.35E-12, 3.926E-12, 1.9814136367755219E-06, 7.139952265306E-12, 3.35E-12
DataValue, -1.55, 0, 5, 3.1110000000000004E-12, -3.7000000000000004E-13, -3.318E-12, 3.1110000000000004E-12, 1.7638027100557477E-06, 3.3011777912136708E-12, 3.318E-12
DataValue, -1.5, 0, 5, 3.2390000000000002E-12, -4.34E-13, -3.4290000000000004E-12, 3.2390000000000002E-12, 1.7997222007854435E-06, 6.2758626719400564E-14, 3.4290000000000004E-12
DataValue, -1.4500000000000002, 0, 5, 3.2E-12, -2.2000000000000002E-13, -2.8440000000000004E-12, 3.2E-12, 1.7888543819998317E-06, 2.5084631614972182E-12, 2.8440000000000004E-12
DataValue, -1.4000000000000001, 0, 5, 2.694E-12, -7.23E-13, -3.0100000000000003E-12, 2.694E-12, 1.6413409152275464E-06, 2.1568605494672881E-12, 3.0100000000000003E-12
DataValue, -1.35, 0, 5, 3.747E-12, 2.8510000000000003E-12, -2.6770000000000004E-12, 3.747E-12, 1.9357169214531345E-06, 4.8884127457983559E-11, 2.6770000000000004E-12
DataValue, -1.3, 0, 5, 5.4780000000000007E-12, -9.13E-13, -2.264E-12, 5.4780000000000007E-12, 2.3405127643317824E-06, 4.7992811316712377E-13, 2.264E-12
DataValue, -1.25, 0, 5, 4.02E-12, -1.3300000000000002E-12, -1.996E-12, 4.02E-12, 2.0049937655763424E-06, 1.0222302585575539E-10, 1.996E-12
DataValue, -1.2, 0, 5, -1.1233000000000001E-11, -4.9310000000000007E-12, -4.385E-12, 1.1233000000000001E-11, 3.3515667977827922E-06, 1.4500990327791196E-11, 4.385E-12
DataValue, -1.1500000000000001, 0, 5, 2.6380000000000003E-12, -2.16E-12, -2.013E-12, 2.6380000000000003E-12, 1.6241921068642097E-06, 1.2334491525147638E-10, 2.013E-12
DataValue, -1.1, 0, 5, 1.9911E-11, -3.965E-12, -7.31E-13, 1.9911E-11, 4.4621743578663532E-06, 7.9823337288603557E-11, 7.31E-13
DataValue, -1.05, 0, 5, 5.34E-13, -5.9590000000000008E-12, -3.7320000000000007E-12, 5.34E-13, 7.3075303625780449E-07, 1.6212608149974411E-10, 3.7320000000000007E-12
DataValue, -1, 0, 5, 1.0169E-11, -7.2500000000000008E-12, -2.385E-12, 1.0169E-11, 3.1888869531546581E-06, 8.09560851064523E-10, 2.385E-12
DataValue, -0.95000000000000007, 0, 5, 1.2788000000000001E-11, -8.4410000000000009E-12, -8.8400000000000007E-13, 1.2788000000000001E-11, 3.57603131977336E-06, 5.7131887399500478E-11, 8.8400000000000007E-13
DataValue, -0.9, 0, 5, 1.5561E-11, -1.2947000000000001E-11, -2.357E-12, 1.5561E-11, 3.9447433376583577E-06, 5.1106675037400505E-11, 2.357E-12
DataValue, -0.85000000000000009, 0, 5, 1.8412000000000002E-11, -1.6728000000000002E-11, -2.098E-12, 1.8412000000000002E-11, 4.2909206471339E-06, 7.7948677059632489E-11, 2.098E-12
DataValue, -0.8, 0, 5, 2.3306000000000003E-11, -2.1391000000000002E-11, -1.5110000000000001E-12, 2.3306000000000003E-11, 4.827628817545939E-06, 1.8205892110896751E-10, 1.5110000000000001E-12
DataValue, -0.75, 0, 5, 3.1812E-11, -2.8190000000000002E-11, -1.822E-12, 3.1812E-11, 5.6402127619443577E-06, 2.4767749207263007E-10, 1.822E-12
DataValue, -0.70000000000000007, 0, 5, 4.0978000000000006E-11, -3.3361000000000004E-11, -1.304E-12, 4.0978000000000006E-11, 6.4014060955386986E-06, 1.6455562539818102E-10, 1.304E-12
DataValue, -0.65, 0, 5, 4.7928000000000005E-11, -4.7852000000000006E-11, -9.5E-13, 4.7928000000000005E-11, 6.9230051278328554E-06, 1.78758128438284E-10, 9.5E-13
DataValue, -0.6, 0, 5, 5.9883E-11, -5.4993E-11, -2.4000000000000004E-13, 5.9883E-11, 7.7384106895408445E-06, 1.7973430597964063E-10, 2.4000000000000004E-13
DataValue, -0.55, 0, 5, 6.8288E-11, -6.5237E-11, -9.8E-13, 6.8288E-11, 8.2636553655147071E-06, 1.6841263380882553E-10, 9.8E-13
DataValue, -0.5, 0, 5, 8.1652E-11, -7.9897E-11, -2.4540000000000002E-12, 8.1652E-11, 9.0361496224885521E-06, 2.6085794706185652E-10, 2.4540000000000002E-12
DataValue, -0.45, 0, 5, 9.7590000000000009E-11, -9.5930000000000011E-11, -1.6640000000000002E-12, 9.7590000000000009E-11, 9.878765105011862E-06, 3.5479607210761456E-10, 1.6640000000000002E-12
DataValue, -0.4, 0, 5, 1.19241E-10, -1.1713400000000002E-10, -1.997E-12, 1.19241E-10, 1.0919752744453512E-05, 5.3122432806420443E-10, 1.997E-12
DataValue, -0.35000000000000003, 0, 5, 1.4844E-10, -1.4156500000000002E-10, -1.738E-12, 1.4844E-10, 1.2183595528414426E-05, 5.5300573488878149E-10, 1.738E-12
DataValue, -0.3, 0, 5, 1.76129E-10, -1.7322300000000002E-10, -1.14E-12, 1.76129E-10, 1.3271360141296748E-05, 5.70280682687543E-10, 1.14E-12
DataValue, -0.25, 0, 5, 2.12333E-10, -2.0485600000000002E-10, -9.82E-13, 2.12333E-10, 1.4571650558533169E-05, 6.9629012697340388E-10, 9.82E-13
DataValue, -0.2, 0, 5, 2.5313100000000004E-10, -2.46883E-10, -8.530000000000001E-13, 2.5313100000000004E-10, 1.5910091137388247E-05, 8.0309582350117123E-10, 8.530000000000001E-13
DataValue, -0.15, 0, 5, 3.02953E-10, -2.9864E-10, 1.232E-12, 3.02953E-10, 1.7405545093446512E-05, 7.272672584936337E-10, 1.232E-12
DataValue, -0.1, 0, 5, 3.4621600000000004E-10, -3.54753E-10, -1.274E-12, 3.4621600000000004E-10, 1.8606880447834344E-05, 1.3727180472533404E-09, 1.274E-12
DataValue, -0.05, 0, 5, 4.4565600000000006E-10, -4.2780400000000005E-10, 1.27E-12, 4.4565600000000006E-10, 2.1110566074835606E-05, 1.7602302295228161E-09, 1.27E-12
DataValue, 0, 0, 5, 5.19949E-10, -5.11218E-10, -2.1830000000000003E-12, 5.19949E-10, 2.2802390225588194E-05, 1.5582177251977805E-09, 2.1830000000000003E-12
DataValue, 0.05, 0, 5, 6.27903E-10, -6.07824E-10, -2.4100000000000003E-13, 6.27903E-10, 2.5057992736849456E-05, 1.9802373776949286E-09, 2.4100000000000003E-13
DataValue, 0.1, 0, 5, 7.4269200000000007E-10, -7.21547E-10, -2.5840000000000003E-12, 7.4269200000000007E-10, 2.7252376043200345E-05, 2.1183187896674163E-09, 2.5840000000000003E-12
DataValue, 0.15, 0, 5, 8.7974600000000006E-10, -8.5648E-10, -5.18E-13, 8.7974600000000006E-10, 2.9660512470286148E-05, 2.3029696343592387E-09, 5.18E-13
DataValue, 0.2, 0, 5, 1.027286E-09, -9.8513E-10, -1E-15, 1.027286E-09, 3.205130262563442E-05, 1.9490858093589322E-09, 1E-15
DataValue, 0.25, 0, 5, 1.16113E-09, -1.1604E-09, -5.21E-13, 1.16113E-09, 3.4075357665034127E-05, 3.2837931092346386E-09, 5.21E-13
DataValue, 0.3, 0, 5, 1.42746E-09, -1.41493E-09, -1.4E-14, 1.42746E-09, 3.77817416221116E-05, 5.2067821835797956E-09, 1.4E-14
DataValue, 0.35000000000000003, 0, 5, 1.70496E-09, -1.67986E-09, -4.12E-13, 1.70496E-09, 4.1291161281804611E-05, 4.8769762491804645E-09, 4.12E-13
DataValue, 0.4, 0, 5, 2.00393E-09, -1.97745E-09, -5.83E-13, 2.00393E-09, 4.4765276722030885E-05, 5.1789122975357179E-09, 5.83E-13
DataValue, 0.45, 0, 5, 2.35105E-09, -2.31739E-09, -5.59E-13, 2.35105E-09, 4.8487627287793742E-05, 5.755519586001095E-09, 5.59E-13
DataValue, 0.5, 0, 5, 2.74071E-09, -2.69719E-09, -1.5500000000000002E-13, 2.74071E-09, 5.2351790800315518E-05, 6.2689840436425434E-09, 1.5500000000000002E-13
DataValue, 0.55, 0, 5, 3.18156E-09, -3.1448E-09, -1.59E-13, 3.18156E-09, 5.6405318898132293E-05, 6.99802948495579E-09, 1.59E-13
DataValue, 0.6, 0, 5, 3.68658E-09, -3.63881E-09, -6.2000000000000008E-13, 3.68658E-09, 6.0717213374791829E-05, 7.6120475599414371E-09, 6.2000000000000008E-13
DataValue, 0.65, 0, 5, 4.24192E-09, -4.17637E-09, -4.92E-13, 4.24192E-09, 6.5130023798552384E-05, 8.2340926103402979E-09, 4.92E-13
DataValue, 0.70000000000000007, 0, 5, 4.87084E-09, -4.80248E-09, -2.6E-13, 4.87084E-09, 6.9791403482090834E-05, 8.9316444885770354E-09, 2.6E-13
DataValue, 0.75, 0, 5, 5.56229E-09, -5.48505E-09, -2.0400000000000001E-13, 5.56229E-09, 7.4580761594395114E-05, 9.37603904533092E-09, 2.0400000000000001E-13
DataValue, 0.8, 0, 5, 6.3161799999999996E-09, -6.24337E-09, -2.05E-13, 6.3161799999999996E-09, 7.9474398393444921E-05, 1.018012040038356E-08, 2.05E-13
DataValue, 0.85000000000000009, 0, 5, 7.16908E-09, -7.0507399999999996E-09, -4.47E-13, 7.16908E-09, 8.467041986431862E-05, 1.0679173757658592E-08, 4.47E-13
DataValue, 0.9, 0, 5, 8.06555E-09, -7.96734E-09, -2.7800000000000003E-13, 8.06555E-09, 8.9808407178838218E-05, 1.0776052835634428E-08, 2.7800000000000003E-13
DataValue, 0.95000000000000007, 0, 5, 9.03473E-09, -8.93925E-09, 9.9000000000000007E-14, 9.03473E-09, 9.50511967310249E-05, 1.0870601296880064E-08, 9.9000000000000007E-14
DataValue, 1, 0, 5, 1.004698E-08, -9.91166E-09, -5.700000000000001E-14, 1.004698E-08, 0.00010023462475611909, 6.9770355123987425E-09, 5.700000000000001E-14
DataValue, 1.05, 0, 5, 1.06924E-08, -1.0466899999999998E-08, -3.2300000000000004E-13, 1.06924E-08, 0.00010340406181577201, 8.0292589552415632E-09, 3.2300000000000004E-13
DataValue, 1.1, 0, 5, 1.19236E-08, -1.1785999999999999E-08, -7.3E-14, 1.19236E-08, 0.00010919523799140694, 1.3905815752829721E-08, 7.3E-14
DataValue, 1.1500000000000001, 0, 5, 1.3270199999999998E-08, -1.3100699999999998E-08, -1.48E-13, 1.3270199999999998E-08, 0.00011519635410897343, 1.2933569515804914E-08, 1.48E-13
DataValue, 1.2, 0, 5, 1.4536599999999998E-08, -1.4361299999999998E-08, -5.6E-14, 1.4536599999999998E-08, 0.00012056782323655014, 1.2250175315573353E-08, 5.6E-14
DataValue, 1.25, 0, 5, 1.59427E-08, -1.57163E-08, -3.05E-13, 1.59427E-08, 0.00012626440511878239, 1.262009994619766E-08, 3.05E-13
DataValue, 1.3, 0, 5, 1.73717E-08, -1.70936E-08, -1.54E-13, 1.73717E-08, 0.00013180174505673283, 1.1291319455945912E-08, 1.54E-13
DataValue, 1.35, 0, 5, 1.8738999999999997E-08, -1.8528999999999997E-08, 1.23E-13, 1.8738999999999997E-08, 0.00013689046716261873, 1.0545983489646626E-08, 1.23E-13
DataValue, 1.4000000000000001, 0, 5, 2.0184199999999998E-08, -1.9868399999999998E-08, -1.1100000000000001E-13, 2.0184199999999998E-08, 0.00014207110895604356, 1.0401881399386096E-08, 1.1100000000000001E-13
DataValue, 1.4500000000000002, 0, 5, 2.1635299999999998E-08, -2.1302099999999997E-08, 7.5000000000000009E-14, 2.1635299999999998E-08, 0.00014708942858003085, 1.1042601922620135E-08, 7.5000000000000009E-14
DataValue, 1.5, 0, 5, 2.3280499999999998E-08, -2.2934399999999997E-08, -1.8400000000000002E-13, 2.3280499999999998E-08, 0.00015257948748111588, 1.1106239790357262E-08, 1.8400000000000002E-13
DataValue, 1.55, 0, 5, 2.48466E-08, -2.4463499999999996E-08, 8.5E-14, 2.48466E-08, 0.00015762804319029023, 1.0156867179107916E-08, 8.5E-14
DataValue, 1.6, 0, 5, 2.6457499999999997E-08, -2.6044699999999996E-08, 2.47E-13, 2.6457499999999997E-08, 0.00016265761586842467, 9.92401019953903E-09, 2.47E-13
DataValue, 1.6500000000000001, 0, 5, 2.8086399999999996E-08, -2.7620599999999998E-08, -2.6000000000000003E-14, 2.8086399999999996E-08, 0.00016758997583387854, 8.6132231095097951E-09, 2.6000000000000003E-14
DataValue, 1.7000000000000002, 0, 5, 2.9562799999999997E-08, -2.9191299999999996E-08, 2.0400000000000001E-13, 2.9562799999999997E-08, 0.00017193836104837106, 9.0493728658565075E-09, 2.0400000000000001E-13
DataValue, 1.75, 0, 5, 3.13654E-08, -3.0780599999999994E-08, 6.0000000000000005E-15, 3.13654E-08, 0.00017710279500900034, 9.6453914401626052E-09, 6.0000000000000005E-15
DataValue, 1.8, 0, 5, 3.30365E-08, -3.2633199999999996E-08, 1.2000000000000002E-13, 3.30365E-08, 0.00018175945642524353, 9.30188492324316E-09, 1.2000000000000002E-13
DataValue, 1.85, 0, 5, 3.48746E-08, -3.4419399999999994E-08, 1.6700000000000002E-13, 3.48746E-08, 0.00018674742300765491, 1.0255020975424428E-08, 1.6700000000000002E-13
DataValue, 1.9000000000000001, 0, 5, 3.68203E-08, -3.61087E-08, -3.5E-14, 3.68203E-08, 0.0001918861641703226, 1.017480773233251E-08, 3.5E-14
DataValue, 1.9500000000000002, 0, 5, 3.8743799999999995E-08, -3.8199299999999993E-08, 1.2600000000000002E-13, 3.8743799999999995E-08, 0.00019683444820457622, 8.9248483828315076E-09, 1.2600000000000002E-13
DataValue, 2, 0, 5, 4.05351E-08, -3.9783799999999997E-08, 2.1600000000000001E-13, 4.05351E-08, 0.00020133330573951245, 1.0676332791376236E-08, 2.1600000000000001E-13
DataValue, 2.05, 0, 5, 4.29182E-08, -4.2213199999999993E-08, 1.1300000000000001E-13, 4.29182E-08, 0.00020716708232728479, 9.328011798837121E-09, 1.1300000000000001E-13
DataValue, 2.1, 0, 5, 4.4517399999999996E-08, -4.39119E-08, 1.82E-13, 4.4517399999999996E-08, 0.00021099146902185404, 8.8034702873279823E-09, 1.82E-13
DataValue, 2.15, 0, 5, 4.68938E-08, -4.6146699999999993E-08, 1.28E-13, 4.68938E-08, 0.00021654976333397366, 1.3143691686381036E-08, 1.28E-13
DataValue, 2.2, 0, 5, 4.9486699999999995E-08, -4.8752299999999995E-08, 1.06E-13, 4.9486699999999995E-08, 0.00022245606307763337, 9.9841363630257288E-09, 1.06E-13
DataValue, 2.25, 0, 5, 5.13212E-08, -5.0775299999999993E-08, 2.35E-13, 5.13212E-08, 0.00022654182836730173, 1.1176363708464591E-08, 2.35E-13
DataValue, 2.3000000000000003, 0, 5, 5.4301999999999992E-08, -5.3492899999999996E-08, 1.42E-13, 5.4301999999999992E-08, 0.00023302789532586007, 1.3322700758921587E-08, 1.42E-13
