
SetupTitle, Transfer lin
PrimitiveTest, I/V Sweep
TestParameter, Context.MainFrame, 4155C
TestParameter, Channel.UnitType, SMU, SMU, SMU
TestParameter, Channel.Unit, SMU3:MP, SMU4:MP, SMU1:MP
TestParameter, Channel.IName, ID, IS, IG
TestParameter, Channel.VName, VD, VS, VG
TestParameter, Channel.Mode, V, COMMON, V
TestParameter, Channel.Func, CONST, CONST, VAR1
TestParameter, Channel.Index, 
TestParameter, Channel.Time, 
TestParameter, Measurement.Port.Unit, SMU3:MP, SMU4:MP, SMU1:MP
TestParameter, Measurement.Port.SeriesResistor, NONE, NONE, NONE
TestParameter, Measurement.Port.Filter, ON, ON, ON
TestParameter, Measurement.Primary.Locus, Double
TestParameter, Measurement.Primary.Scale, LINEAR
TestParameter, Measurement.Primary.Start, -2
TestParameter, Measurement.Primary.Stop, 3
TestParameter, Measurement.Primary.Step, 0.05
TestParameter, Measurement.Primary.Compliance, 0.001
TestParameter, Measurement.Primary.PowerCompliance, 0
TestParameter, Measurement.Aborting.Condition, CONTINUE AT ANY
TestParameter, Measurement.PostOutput.Value, START
TestParameter, Measurement.PostOutput.Retention, OFF
TestParameter, Measurement.Bias.Source, 0.1, 0, -2
TestParameter, Measurement.Bias.Compliance, 0.001, 0.1, 0.001
TestParameter, Measurement.Monitor.Unit, SMU3:MP, SMU4:MP, SMU1:MP
TestParameter, Measurement.Monitor.Adc, HR ADC, HR ADC, HR ADC
TestParameter, Measurement.Monitor.RangingMode, AUTO, AUTO, AUTO
TestParameter, Measurement.Monitor.RangeBoundary, , , 
TestParameter, Measurement.Monitor.RangeRating, BY FULL RANGE, BY FULL RANGE, BY FULL RANGE
TestParameter, Measurement.Monitor.RangeRatingCoeff, 50, 50, 50
TestParameter, Measurement.Timing.Hold, 0.5
TestParameter, Measurement.Timing.Delay, 0.05
TestParameter, Measurement.Adc.HighResolution.AutoZero, OFF
TestParameter, Measurement.Adc.HighResolution.Mode, AUTO
TestParameter, Measurement.Adc.HighResolution.Coeff, 1
TestParameter, Measurement.Ag16440ASelector.SemiconductorRelay.Channel1, DEFAULT
TestParameter, Measurement.Ag16440ASelector.SemiconductorRelay.Channel3, DEFAULT
TestParameter, Function.User.Name, absID, sqrtID, gm2, absIG
TestParameter, Function.User.Unit, A, A, A/V, A
TestParameter, Function.User.Definition, abs(ID), sqrt(abs(ID)), (delta(sqrtID)/delta(VG))^2, abs(IG)
TestParameter, Output.Graph.Enabled, true
TestParameter, Output.Graph.XAxis.Data, VG
TestParameter, Output.Graph.XAxis.Scale, Linear
TestParameter, Output.Graph.XAxis.Left, -5
TestParameter, Output.Graph.XAxis.Right, 7
TestParameter, Output.Graph.YAxis.Data, ID, absIG, gm2
TestParameter, Output.Graph.YAxis.Scale, Log, Log, Linear
TestParameter, Output.Graph.YAxis.Bottom, 1E-14, 1E-14, 0
TestParameter, Output.Graph.YAxis.Top, 0.01, 0.01, 1E-05
TestParameter, Output.Graph.YAxis.Group, , , 
TestParameter, Output.List.Data, VG, IG, VD, ID, VS, IS, sqrtID, gm2, absIG
TestParameter, AutoAnalysis.Interpolation, false
TestParameter, AutoAnalysis.Line1.Enabled, false
TestParameter, AutoAnalysis.Line1.Type, 1
TestParameter, AutoAnalysis.Line1.Fix, True
TestParameter, AutoAnalysis.Line1.YAxis, 0
TestParameter, AutoAnalysis.Line1.Point1.Type, 0
TestParameter, AutoAnalysis.Line1.Point1.XY.X, 
TestParameter, AutoAnalysis.Line1.Point1.XY.Y, 
TestParameter, AutoAnalysis.Line1.Point1.Data.Var, 
TestParameter, AutoAnalysis.Line1.Point1.Data.Condition, 
TestParameter, AutoAnalysis.Line1.Point1.Data.Start, false
TestParameter, AutoAnalysis.Line1.Point1.Data.StartVar, 
TestParameter, AutoAnalysis.Line1.Point1.Data.StartCondition, 
TestParameter, AutoAnalysis.Line1.Point2.Type, 0
TestParameter, AutoAnalysis.Line1.Point2.XY.X, 
TestParameter, AutoAnalysis.Line1.Point2.XY.Y, 
TestParameter, AutoAnalysis.Line1.Point2.Data.Var, 
TestParameter, AutoAnalysis.Line1.Point2.Data.Condition, 
TestParameter, AutoAnalysis.Line1.Point2.Data.Start, false
TestParameter, AutoAnalysis.Line1.Point2.Data.StartVar, 
TestParameter, AutoAnalysis.Line1.Point2.Data.StartCondition, 
TestParameter, AutoAnalysis.Line1.GradientExpr, 0
TestParameter, AutoAnalysis.Line2.Enabled, false
TestParameter, AutoAnalysis.Line2.Type, 1
TestParameter, AutoAnalysis.Line2.Fix, True
TestParameter, AutoAnalysis.Line2.YAxis, 0
TestParameter, AutoAnalysis.Line2.Point1.Type, 0
TestParameter, AutoAnalysis.Line2.Point1.XY.X, 
TestParameter, AutoAnalysis.Line2.Point1.XY.Y, 
TestParameter, AutoAnalysis.Line2.Point1.Data.Var, 
TestParameter, AutoAnalysis.Line2.Point1.Data.Condition, 
TestParameter, AutoAnalysis.Line2.Point1.Data.Start, false
TestParameter, AutoAnalysis.Line2.Point1.Data.StartVar, 
TestParameter, AutoAnalysis.Line2.Point1.Data.StartCondition, 
TestParameter, AutoAnalysis.Line2.Point2.Type, 0
TestParameter, AutoAnalysis.Line2.Point2.XY.X, 
TestParameter, AutoAnalysis.Line2.Point2.XY.Y, 
TestParameter, AutoAnalysis.Line2.Point2.Data.Var, 
TestParameter, AutoAnalysis.Line2.Point2.Data.Condition, 
TestParameter, AutoAnalysis.Line2.Point2.Data.Start, false
TestParameter, AutoAnalysis.Line2.Point2.Data.StartVar, 
TestParameter, AutoAnalysis.Line2.Point2.Data.StartCondition, 
TestParameter, AutoAnalysis.Line2.GradientExpr, 0
TestParameter, AutoAnalysis.Marker.Enabled, false
TestParameter, AutoAnalysis.Marker.Data.Var, 
TestParameter, AutoAnalysis.Marker.Data.Condition, 
TestParameter, AutoAnalysis.Marker.Data.Start, false
TestParameter, AutoAnalysis.Marker.Data.StartVar, 
TestParameter, AutoAnalysis.Marker.Data.StartCondition, 
MetaData, TestRecord.EntryPoint, true
MetaData, TestRecord.RecordTime, 06/18/2019 14:21:51
MetaData, TestRecord.TestTarget, 4-42
MetaData, TestRecord.IterationIndex, 1
MetaData, TestRecord.Preservation, true
MetaData, TestRecord.Flag, 
MetaData, TestRecord.Remarks, good
MetaData, TestRecord.LinkKey, 7c3c93f1-d580-495a-b2ae-6ff025e3faaa
Dimension1, 202, 202, 202, 202, 202, 202, 202, 202, 202, 202
Dimension2, 1, 1, 1, 1, 1, 1, 1, 1, 1, 1
DataName, VG, VD, VS, ID, IS, IG, absID, sqrtID, gm2, absIG
DataValue, -2, 0.1, 0, -1.23994E-10, 2.90221E-10, -1.6035000000000002E-10, 1.23994E-10, 1.1135259314447959E-05, 4.12176759361343E-12, 1.6035000000000002E-10
DataValue, -1.9500000000000002, 0.1, 0, -1.26265E-10, 2.71081E-10, -1.4081200000000002E-10, 1.26265E-10, 1.1236769998536056E-05, 4.3548093502918143E-12, 1.4081200000000002E-10
DataValue, -1.9000000000000001, 0.1, 0, -1.28685E-10, 2.4913E-10, -1.25936E-10, 1.28685E-10, 1.1343941114092581E-05, 5.5892587759871686E-12, 1.25936E-10
DataValue, -1.85, 0.1, 0, -1.31634E-10, 2.3171400000000003E-10, -1.12689E-10, 1.31634E-10, 1.1473186131149446E-05, 2.4571978613097748E-12, 1.12689E-10
DataValue, -1.8, 0.1, 0, -1.3226600000000002E-10, 2.3819700000000004E-10, -1.02623E-10, 1.3226600000000002E-10, 1.1500695631134667E-05, 2.4147418493676774E-13, 1.02623E-10
DataValue, -1.75, 0.1, 0, -1.32764E-10, 2.2326100000000002E-10, -9.1844000000000011E-11, 1.32764E-10, 1.1522326154036779E-05, 3.6500034632145994E-15, 9.1844000000000011E-11
DataValue, -1.7000000000000002, 0.1, 0, -1.3240500000000002E-10, 2.1646900000000002E-10, -8.3000000000000011E-11, 1.3240500000000002E-10, 1.150673715698764E-05, 5.9066682043534185E-13, 8.3000000000000011E-11
DataValue, -1.6500000000000001, 0.1, 0, -1.3454100000000002E-10, 2.0486200000000002E-10, -7.4173E-11, 1.3454100000000002E-10, 1.1599181005571041E-05, 1.8594324650896161E-14, 7.4173E-11
DataValue, -1.6, 0.1, 0, -1.32719E-10, 2.2516300000000003E-10, -6.7435000000000011E-11, 1.32719E-10, 1.1520373257841952E-05, 1.3029598326182438E-12, 6.7435000000000011E-11
DataValue, -1.55, 0.1, 0, -1.31906E-10, 1.8148E-10, -5.9066E-11, 1.31906E-10, 1.1485033739610868E-05, 1.0625739154463559E-13, 5.9066E-11
DataValue, -1.5, 0.1, 0, -1.31969E-10, 1.90403E-10, -5.2598000000000007E-11, 1.31969E-10, 1.1487776112024468E-05, 2.3463642917206692E-13, 5.2598000000000007E-11
DataValue, -1.4500000000000002, 0.1, 0, -1.33021E-10, 1.76078E-10, -4.6133000000000006E-11, 1.33021E-10, 1.1533473024202206E-05, 3.0647713212083891E-13, 4.6133000000000006E-11
DataValue, -1.4000000000000001, 0.1, 0, -1.33244E-10, 1.7203200000000002E-10, -4.0286E-11, 1.33244E-10, 1.1543136488840457E-05, 9.0887937934470871E-15, 4.0286E-11
DataValue, -1.35, 0.1, 0, -1.33241E-10, 1.70298E-10, -3.3728000000000005E-11, 1.33241E-10, 1.154300654075878E-05, 2.9313296072123935E-13, 3.3728000000000005E-11
DataValue, -1.3, 0.1, 0, -1.31997E-10, 1.76473E-10, -2.8574000000000003E-11, 1.31997E-10, 1.1488994734092274E-05, 3.4587303963520604E-14, 2.8574000000000003E-11
DataValue, -1.25, 0.1, 0, -1.3281200000000002E-10, 1.56459E-10, -2.4577E-11, 1.3281200000000002E-10, 1.1524408878549911E-05, 8.5492291006320109E-14, 2.4577E-11
DataValue, -1.2, 0.1, 0, -1.3132600000000002E-10, 1.49467E-10, -2.0025E-11, 1.3132600000000002E-10, 1.1459755669297668E-05, 4.0958417582229588E-13, 2.0025E-11
DataValue, -1.1500000000000001, 0.1, 0, -1.3134100000000002E-10, 1.4594700000000002E-10, -1.6517000000000002E-11, 1.3134100000000002E-10, 1.1460410114825735E-05, 1.0998427022753171E-13, 1.6517000000000002E-11
DataValue, -1.1, 0.1, 0, -1.3056700000000002E-10, 1.52011E-10, -1.2943000000000001E-11, 1.3056700000000002E-10, 1.1426591792831318E-05, 2.126108169365878E-14, 1.2943000000000001E-11
DataValue, -1.05, 0.1, 0, -1.3100700000000002E-10, 1.61032E-10, -1.0177E-11, 1.3100700000000002E-10, 1.1445828934594471E-05, 2.6983060067385273E-12, 1.0177E-11
DataValue, -1, 0.1, 0, -1.2684E-10, 1.1489100000000001E-10, -7.7740000000000014E-12, 1.2684E-10, 1.1262326580240869E-05, 6.2049126324196792E-13, 7.7740000000000014E-12
DataValue, -0.95000000000000007, 0.1, 0, -1.2921E-10, 1.3024400000000002E-10, -5.5540000000000008E-12, 1.2921E-10, 1.1367057666784313E-05, 6.2961755342941478E-13, 5.5540000000000008E-12
DataValue, -0.9, 0.1, 0, -1.25059E-10, 1.3123600000000002E-10, -4.415E-12, 1.25059E-10, 1.118297813643575E-05, 4.4552870291245955E-13, 4.415E-12
DataValue, -0.85000000000000009, 0.1, 0, -1.27697E-10, 1.29311E-10, -2.745E-12, 1.27697E-10, 1.1300309730268458E-05, 1.9392954841089474E-13, 2.745E-12
DataValue, -0.8, 0.1, 0, -1.2407600000000002E-10, 1.18317E-10, -1.4440000000000001E-12, 1.2407600000000002E-10, 1.1138940703675552E-05, 6.6763777617784794E-13, 1.4440000000000001E-12
DataValue, -0.75, 0.1, 0, -1.2585700000000002E-10, 1.22688E-10, -2.7500000000000004E-13, 1.2585700000000002E-10, 1.1218600625746511E-05, 1.2757846539380877E-13, 2.7500000000000004E-13
DataValue, -0.70000000000000007, 0.1, 0, -1.24873E-10, 1.2173500000000002E-10, 5.22E-13, 1.24873E-10, 1.1174658831481165E-05, 7.8811478646772454E-13, 5.22E-13
DataValue, -0.65, 0.1, 0, -1.23873E-10, 1.2288900000000002E-10, 1.216E-12, 1.23873E-10, 1.1129824796464678E-05, 6.2100309375826994E-13, 1.216E-12
DataValue, -0.6, 0.1, 0, -1.2311800000000002E-10, 1.22541E-10, 1.301E-12, 1.2311800000000002E-10, 1.109585508196642E-05, 3.8537854990556049E-13, 1.301E-12
DataValue, -0.55, 0.1, 0, -1.22495E-10, 1.4207800000000002E-10, 2.39E-12, 1.22495E-10, 1.1067745931308687E-05, 1.0181151884687238E-12, 2.39E-12
DataValue, -0.5, 0.1, 0, -1.20889E-10, 1.1497200000000001E-10, 3.5650000000000003E-12, 1.20889E-10, 1.0994953387804789E-05, 3.2119758310082686E-12, 3.5650000000000003E-12
DataValue, -0.45, 0.1, 0, -1.1856E-10, 9.6495000000000012E-11, 3.8220000000000005E-12, 1.1856E-10, 1.0888526071052959E-05, 7.0321838527173778E-13, 3.8220000000000005E-12
DataValue, -0.4, 0.1, 0, -1.19052E-10, 1.19521E-10, 4.735E-12, 1.19052E-10, 1.0911095270411675E-05, 2.5721280511215491E-14, 4.735E-12
DataValue, -0.35000000000000003, 0.1, 0, -1.18211E-10, 1.10935E-10, 4.751E-12, 1.18211E-10, 1.087248821567538E-05, 1.0352546430213681E-12, 4.751E-12
DataValue, -0.3, 0.1, 0, -1.16842E-10, 9.0538000000000013E-11, 4.6900000000000004E-12, 1.16842E-10, 1.0809347806412744E-05, 1.2545109978641626E-12, 4.6900000000000004E-12
DataValue, -0.25, 0.1, 0, -1.15788E-10, 1.07301E-10, 4.849E-12, 1.15788E-10, 1.07604832605232E-05, 2.7616119594777723E-12, 4.849E-12
DataValue, -0.2, 0.1, 0, -1.1327700000000001E-10, 1.09867E-10, 4.744E-12, 1.1327700000000001E-10, 1.0643166821956707E-05, 1.3271642740389157E-12, 4.744E-12
DataValue, -0.15, 0.1, 0, -1.1332200000000001E-10, 1.0791E-10, 5.13E-12, 1.1332200000000001E-10, 1.0645280644492187E-05, 2.3277838448197004E-14, 5.13E-12
DataValue, -0.1, 0.1, 0, -1.13602E-10, 1.0011400000000001E-10, 5.54E-12, 1.13602E-10, 1.0658423898494562E-05, 3.3757448545406927E-12, 5.54E-12
DataValue, -0.05, 0.1, 0, -1.0944400000000001E-10, 1.0408100000000001E-10, 5.5550000000000005E-12, 1.0944400000000001E-10, 1.0461548642528983E-05, 1.3049420567333493E-11, 5.5550000000000005E-12
DataValue, 0, 0.1, 0, -1.0603200000000001E-10, 1.17451E-10, 5.9350000000000009E-12, 1.0603200000000001E-10, 1.0297184081097123E-05, 2.0326965475332155E-11, 5.9350000000000009E-12
DataValue, 0.05, 0.1, 0, -1.00214E-10, 9.303E-11, 5.871E-12, 1.00214E-10, 1.0010694281617034E-05, 4.65958880038208E-11, 5.871E-12
DataValue, 0.1, 0.1, 0, -9.244E-11, 8.1121000000000009E-11, 5.6570000000000006E-12, 9.244E-11, 9.6145722733775318E-06, 2.3837376060927867E-10, 5.6570000000000006E-12
DataValue, 0.15, 0.1, 0, -7.1686E-11, 6.6138E-11, 5.7250000000000007E-12, 7.1686E-11, 8.4667585296853723E-06, 1.0304874886382895E-09, 5.7250000000000007E-12
DataValue, 0.2, 0.1, 0, -4.1017000000000004E-11, 3.7273000000000004E-11, 5.9070000000000006E-12, 4.1017000000000004E-11, 6.4044515768331017E-06, 2.3430107774579155E-09, 5.9070000000000006E-12
DataValue, 0.25, 0.1, 0, 1.3150000000000001E-11, -1.3511000000000001E-11, 6.0930000000000008E-12, 1.3150000000000001E-11, 3.6262928728937492E-06, 1.3321775226348279E-09, 6.0930000000000008E-12
DataValue, 0.3, 0.1, 0, 1.0109000000000001E-10, -9.9305000000000013E-11, 5.7120000000000007E-12, 1.0109000000000001E-10, 1.0054352291420866E-05, 1.4550834888352572E-08, 5.7120000000000007E-12
DataValue, 0.35000000000000003, 0.1, 0, 2.46144E-10, -2.36927E-10, 5.687E-12, 2.46144E-10, 1.5688977022100583E-05, 1.3894326117354812E-08, 5.687E-12
DataValue, 0.4, 0.1, 0, 4.77063E-10, -4.5895600000000005E-10, 5.5330000000000008E-12, 4.77063E-10, 2.1841771906143513E-05, 1.7202276200086556E-08, 5.5330000000000008E-12
DataValue, 0.45, 0.1, 0, 8.29712E-10, -7.96362E-10, 5.358E-12, 8.29712E-10, 2.8804721835143627E-05, 1.9010482419489716E-08, 5.358E-12
DataValue, 0.5, 0.1, 0, 1.26947E-09, -1.19823E-09, 5.324E-12, 1.26947E-09, 3.5629622507121792E-05, 2.8596815173635026E-08, 5.324E-12
DataValue, 0.55, 0.1, 0, 2.08989E-09, -2.05187E-09, 5.5460000000000008E-12, 2.08989E-09, 4.5715314720561642E-05, 4.8667704236576177E-08, 5.5460000000000008E-12
DataValue, 0.6, 0.1, 0, 3.32818E-09, -3.26952E-09, 5.516E-12, 3.32818E-09, 5.7690380480631259E-05, 6.40027682038838E-08, 5.516E-12
DataValue, 0.65, 0.1, 0, 5.043E-09, -4.95034E-09, 5.545E-12, 5.043E-09, 7.101408311032397E-05, 7.9991422237265417E-08, 5.545E-12
DataValue, 0.70000000000000007, 0.1, 0, 7.39138E-09, -7.24116E-09, 5.95E-12, 7.39138E-09, 8.5973135338895254E-05, 9.1357094174780682E-08, 5.95E-12
DataValue, 0.75, 0.1, 0, 1.024942E-08, -9.54646E-09, 5.9460000000000007E-12, 1.024942E-08, 0.0001012394192002305, 8.2040683467256873E-08, 5.9460000000000007E-12
DataValue, 0.8, 0.1, 0, 1.31368E-08, -1.2675299999999999E-08, 6.2690000000000009E-12, 1.31368E-08, 0.00011461588022608385, 1.1478149223103734E-07, 6.2690000000000009E-12
DataValue, 0.85000000000000009, 0.1, 0, 1.8257099999999998E-08, -1.79461E-08, 6.284E-12, 1.8257099999999998E-08, 0.0001351188365846894, 1.820905751704782E-07, 6.284E-12
DataValue, 0.9, 0.1, 0, 2.4739499999999998E-08, -2.4357599999999997E-08, 6.2780000000000005E-12, 2.4739499999999998E-08, 0.00015728795249477946, 2.0482857670408882E-07, 6.2780000000000005E-12
DataValue, 0.95000000000000007, 0.1, 0, 3.25358E-08, -3.20709E-08, 6.068E-12, 3.25358E-08, 0.00018037682778006712, 2.2532805535531566E-07, 6.068E-12
DataValue, 1, 0.1, 0, 4.1925299999999996E-08, -4.13237E-08, 6.0060000000000009E-12, 4.1925299999999996E-08, 0.00020475668487255795, 2.4562270580642033E-07, 6.0060000000000009E-12
DataValue, 1.05, 0.1, 0, 5.2871099999999996E-08, -5.2186599999999994E-08, 6E-12, 5.2871099999999996E-08, 0.00022993716533000922, 2.6386204419948895E-07, 6E-12
DataValue, 1.1, 0.1, 0, 6.55996E-08, -6.4785699999999992E-08, 6.1730000000000005E-12, 6.55996E-08, 0.00025612418862731417, 2.8318834480936567E-07, 6.1730000000000005E-12
DataValue, 1.1500000000000001, 0.1, 0, 8.01754E-08, -7.929439999999999E-08, 6.7800000000000006E-12, 8.01754E-08, 0.00028315260902912406, 2.9970586215785327E-07, 6.7800000000000006E-12
DataValue, 1.2, 0.1, 0, 9.6639899999999992E-08, -9.5656099999999985E-08, 6.6820000000000008E-12, 9.6639899999999992E-08, 0.00031086958680449911, 2.6807274097051752E-07, 6.6820000000000008E-12
DataValue, 1.25, 0.1, 0, 1.12177E-07, -1.09934E-07, 6.6280000000000004E-12, 1.12177E-07, 0.00033492835054679977, 2.845943112771711E-07, 6.6280000000000004E-12
DataValue, 1.3, 0.1, 0, 1.32654E-07, -1.3162199999999999E-07, 6.7950000000000008E-12, 1.32654E-07, 0.00036421696830323544, 3.623824662478071E-07, 6.7950000000000008E-12
DataValue, 1.35, 0.1, 0, 1.56125E-07, -1.54854E-07, 6.505E-12, 1.56125E-07, 0.000395126562002607, 3.7364395132783043E-07, 6.505E-12
DataValue, 1.4000000000000001, 0.1, 0, 1.80917E-07, -1.7969E-07, 6.476E-12, 1.80917E-07, 0.00042534339068569057, 3.785777108636107E-07, 6.476E-12
DataValue, 1.4500000000000002, 0.1, 0, 2.08534E-07, -2.07229E-07, 6.7790000000000009E-12, 2.08534E-07, 0.00045665523100036861, 3.9230264504388012E-07, 6.7790000000000009E-12
DataValue, 1.5, 0.1, 0, 2.38122E-07, -2.3687E-07, 7.2290000000000008E-12, 2.38122E-07, 0.00048797745849577927, 4.0033063683586192E-07, 7.2290000000000008E-12
DataValue, 1.55, 0.1, 0, 2.70324E-07, -2.68993E-07, 7.3250000000000012E-12, 2.70324E-07, 0.00051992691794135832, 4.0597665203653186E-07, 7.3250000000000012E-12
DataValue, 1.6, 0.1, 0, 3.04366E-07, -3.03034E-07, 7.2930000000000013E-12, 3.04366E-07, 0.00055169375562897217, 4.1123842248948034E-07, 7.2930000000000013E-12
DataValue, 1.6500000000000001, 0.1, 0, 3.4111999999999997E-07, -3.39836E-07, 7.212E-12, 3.4111999999999997E-07, 0.00058405479195020732, 4.2039235784793879E-07, 7.212E-12
DataValue, 1.7000000000000002, 0.1, 0, 3.80111E-07, -3.78827E-07, 7.449E-12, 3.80111E-07, 0.00061653142661181513, 4.2578928384095178E-07, 7.449E-12
DataValue, 1.75, 0.1, 0, 4.216E-07, -4.20377E-07, 8.308E-12, 4.216E-07, 0.00064930732322991712, 4.2944893417576375E-07, 8.308E-12
DataValue, 1.8, 0.1, 0, 4.65211E-07, -4.64027E-07, 7.698E-12, 4.65211E-07, 0.00068206378000887867, 4.3526266586673988E-07, 7.698E-12
DataValue, 1.85, 0.1, 0, 5.11628E-07, -5.1037E-07, 6.878E-12, 5.11628E-07, 0.00071528176266419656, 4.4100219787056418E-07, 6.878E-12
DataValue, 1.9000000000000001, 0.1, 0, 5.6021E-07, -5.59198E-07, 7.336E-12, 5.6021E-07, 0.00074847177635499387, 4.4472288177038769E-07, 7.336E-12
DataValue, 1.9500000000000002, 0.1, 0, 6.11476E-07, -6.10395E-07, 7.482E-12, 6.11476E-07, 0.0007819693088606483, 4.4840536758814538E-07, 7.482E-12
DataValue, 2, 0.1, 0, 6.64934E-07, -6.63929E-07, 7.532E-12, 6.64934E-07, 0.00081543485331447537, 4.4884564678844641E-07, 7.532E-12
DataValue, 2.05, 0.1, 0, 7.20742E-07, -7.19839E-07, 7.513E-12, 7.20742E-07, 0.00084896525252804082, 4.5043286548981703E-07, 7.513E-12
DataValue, 2.1, 0.1, 0, 7.78893E-07, -7.78198E-07, 7.339E-12, 7.78893E-07, 0.00088254914877303008, 4.5229009548304289E-07, 7.339E-12
DataValue, 2.15, 0.1, 0, 8.39455E-07, -8.38776E-07, 8.221E-12, 8.39455E-07, 0.00091621776887375415, 4.5288361647156003E-07, 8.221E-12
DataValue, 2.2, 0.1, 0, 9.02207E-07, -9.01628E-07, 8.2740000000000013E-12, 9.02207E-07, 0.000949845776955396, 4.5413954521022352E-07, 8.2740000000000013E-12
DataValue, 2.25, 0.1, 0, 9.67484E-07, -9.67059E-07, 8.522000000000001E-12, 9.67484E-07, 0.00098360764535458949, 4.5471359070999469E-07, 8.522000000000001E-12
DataValue, 2.3000000000000003, 0.1, 0, 1.034855E-06, -1.0344649999999999E-06, 8.2900000000000012E-12, 1.034855E-06, 0.0010172782313605262, 4.5363447006645528E-07, 8.2900000000000012E-12
DataValue, 2.35, 0.1, 0, 1.104517E-06, -1.104203E-06, 8.42E-12, 1.104517E-06, 0.0010509600372992306, 4.4631266358159638E-07, 8.42E-12
