
SetupTitle, Transfer sat
PrimitiveTest, I/V Sweep
TestParameter, Context.MainFrame, 4155C
TestParameter, Channel.UnitType, SMU, SMU, SMU
TestParameter, Channel.Unit, SMU3:MP, SMU4:MP, SMU1:MP
TestParameter, Channel.IName, IS, ID, IG
TestParameter, Channel.VName, VS, VD, VG
TestParameter, Channel.Mode, COMMON, V, V
TestParameter, Channel.Func, CONST, CONST, VAR1
TestParameter, Channel.Index, 
TestParameter, Channel.Time, 
TestParameter, Measurement.Port.Unit, SMU3:MP, SMU4:MP, SMU1:MP
TestParameter, Measurement.Port.SeriesResistor, NONE, NONE, NONE
TestParameter, Measurement.Port.Filter, ON, ON, ON
TestParameter, Measurement.Primary.Locus, Double
TestParameter, Measurement.Primary.Scale, LINEAR
TestParameter, Measurement.Primary.Start, -2
TestParameter, Measurement.Primary.Stop, 3
TestParameter, Measurement.Primary.Step, 0.05
TestParameter, Measurement.Primary.Compliance, 0.001
TestParameter, Measurement.Primary.PowerCompliance, 0
TestParameter, Measurement.Aborting.Condition, CONTINUE AT ANY
TestParameter, Measurement.PostOutput.Value, START
TestParameter, Measurement.PostOutput.Retention, OFF
TestParameter, Measurement.Bias.Source, 0, 5, -2
TestParameter, Measurement.Bias.Compliance, 0.1, 0.001, 0.001
TestParameter, Measurement.Monitor.Unit, SMU4:MP, SMU3:MP, SMU1:MP
TestParameter, Measurement.Monitor.Adc, HR ADC, HR ADC, HR ADC
TestParameter, Measurement.Monitor.RangingMode, AUTO, AUTO, AUTO
TestParameter, Measurement.Monitor.RangeBoundary, , , 
TestParameter, Measurement.Monitor.RangeRating, BY FULL RANGE, BY FULL RANGE, BY FULL RANGE
TestParameter, Measurement.Monitor.RangeRatingCoeff, 50, 50, 50
TestParameter, Measurement.Timing.Hold, 0.5
TestParameter, Measurement.Timing.Delay, 0.05
TestParameter, Measurement.Adc.HighResolution.AutoZero, OFF
TestParameter, Measurement.Adc.HighResolution.Mode, AUTO
TestParameter, Measurement.Adc.HighResolution.Coeff, 1
TestParameter, Measurement.Ag16440ASelector.SemiconductorRelay.Channel1, DEFAULT
TestParameter, Measurement.Ag16440ASelector.SemiconductorRelay.Channel3, DEFAULT
TestParameter, Function.User.Name, absID, sqrtID, gm2, absIG
TestParameter, Function.User.Unit, A, A, A/V, A
TestParameter, Function.User.Definition, abs(ID), sqrt(abs(ID)), (delta(sqrtID)/delta(VG))^2, abs(IG)
TestParameter, Output.Graph.Enabled, true
TestParameter, Output.Graph.XAxis.Data, VG
TestParameter, Output.Graph.XAxis.Scale, Linear
TestParameter, Output.Graph.XAxis.Left, -5
TestParameter, Output.Graph.XAxis.Right, 7
TestParameter, Output.Graph.YAxis.Data, ID, absIG, gm2
TestParameter, Output.Graph.YAxis.Scale, Log, Log, Linear
TestParameter, Output.Graph.YAxis.Bottom, 1E-14, 1E-14, 0
TestParameter, Output.Graph.YAxis.Top, 0.01, 0.01, 1E-05
TestParameter, Output.Graph.YAxis.Group, , , 
TestParameter, Output.List.Data, VG, IG, VD, ID, VS, IS, sqrtID, gm2, absIG
TestParameter, AutoAnalysis.Interpolation, false
TestParameter, AutoAnalysis.Line1.Enabled, false
TestParameter, AutoAnalysis.Line1.Type, 1
TestParameter, AutoAnalysis.Line1.Fix, True
TestParameter, AutoAnalysis.Line1.YAxis, 0
TestParameter, AutoAnalysis.Line1.Point1.Type, 0
TestParameter, AutoAnalysis.Line1.Point1.XY.X, 
TestParameter, AutoAnalysis.Line1.Point1.XY.Y, 
TestParameter, AutoAnalysis.Line1.Point1.Data.Var, 
TestParameter, AutoAnalysis.Line1.Point1.Data.Condition, 
TestParameter, AutoAnalysis.Line1.Point1.Data.Start, false
TestParameter, AutoAnalysis.Line1.Point1.Data.StartVar, 
TestParameter, AutoAnalysis.Line1.Point1.Data.StartCondition, 
TestParameter, AutoAnalysis.Line1.Point2.Type, 0
TestParameter, AutoAnalysis.Line1.Point2.XY.X, 
TestParameter, AutoAnalysis.Line1.Point2.XY.Y, 
TestParameter, AutoAnalysis.Line1.Point2.Data.Var, 
TestParameter, AutoAnalysis.Line1.Point2.Data.Condition, 
TestParameter, AutoAnalysis.Line1.Point2.Data.Start, false
TestParameter, AutoAnalysis.Line1.Point2.Data.StartVar, 
TestParameter, AutoAnalysis.Line1.Point2.Data.StartCondition, 
TestParameter, AutoAnalysis.Line1.GradientExpr, 0
TestParameter, AutoAnalysis.Line2.Enabled, false
TestParameter, AutoAnalysis.Line2.Type, 1
TestParameter, AutoAnalysis.Line2.Fix, True
TestParameter, AutoAnalysis.Line2.YAxis, 0
TestParameter, AutoAnalysis.Line2.Point1.Type, 0
TestParameter, AutoAnalysis.Line2.Point1.XY.X, 
TestParameter, AutoAnalysis.Line2.Point1.XY.Y, 
TestParameter, AutoAnalysis.Line2.Point1.Data.Var, 
TestParameter, AutoAnalysis.Line2.Point1.Data.Condition, 
TestParameter, AutoAnalysis.Line2.Point1.Data.Start, false
TestParameter, AutoAnalysis.Line2.Point1.Data.StartVar, 
TestParameter, AutoAnalysis.Line2.Point1.Data.StartCondition, 
TestParameter, AutoAnalysis.Line2.Point2.Type, 0
TestParameter, AutoAnalysis.Line2.Point2.XY.X, 
TestParameter, AutoAnalysis.Line2.Point2.XY.Y, 
TestParameter, AutoAnalysis.Line2.Point2.Data.Var, 
TestParameter, AutoAnalysis.Line2.Point2.Data.Condition, 
TestParameter, AutoAnalysis.Line2.Point2.Data.Start, false
TestParameter, AutoAnalysis.Line2.Point2.Data.StartVar, 
TestParameter, AutoAnalysis.Line2.Point2.Data.StartCondition, 
TestParameter, AutoAnalysis.Line2.GradientExpr, 0
TestParameter, AutoAnalysis.Marker.Enabled, false
TestParameter, AutoAnalysis.Marker.Data.Var, 
TestParameter, AutoAnalysis.Marker.Data.Condition, 
TestParameter, AutoAnalysis.Marker.Data.Start, false
TestParameter, AutoAnalysis.Marker.Data.StartVar, 
TestParameter, AutoAnalysis.Marker.Data.StartCondition, 
MetaData, TestRecord.EntryPoint, true
MetaData, TestRecord.RecordTime, 06/18/2019 15:38:20
MetaData, TestRecord.TestTarget, 11-47
MetaData, TestRecord.IterationIndex, 1
MetaData, TestRecord.Preservation, true
MetaData, TestRecord.Flag, 
MetaData, TestRecord.Remarks, leak
MetaData, TestRecord.LinkKey, 6466055e-c49a-4468-ac27-5b4746a4cc5f
Dimension1, 202, 202, 202, 202, 202, 202, 202, 202, 202, 202
Dimension2, 1, 1, 1, 1, 1, 1, 1, 1, 1, 1
DataName, VG, VS, VD, ID, IS, IG, absID, sqrtID, gm2, absIG
DataValue, -2, 0, 5, 9.5498E-10, 1.6076000000000002E-11, -8.0501100000000011E-10, 9.5498E-10, 3.0902750686629825E-05, 5.2006919240298813E-09, 8.0501100000000011E-10
DataValue, -1.9500000000000002, 0, 5, 7.45124E-10, 1.6037E-11, -7.9736400000000006E-10, 7.45124E-10, 2.7296959537648147E-05, 2.2536784801421835E-09, 7.9736400000000006E-10
DataValue, -1.9000000000000001, 0, 5, 6.84108E-10, 1.4064000000000002E-11, -6.78074E-10, 6.84108E-10, 2.6155458321352353E-05, 3.7837809157632729E-10, 6.78074E-10
DataValue, -1.85, 0, 5, 6.4271200000000007E-10, 1.1806E-11, -8.399760000000001E-10, 6.4271200000000007E-10, 2.5351765224536143E-05, 1.8074988721094811E-10, 8.399760000000001E-10
DataValue, -1.8, 0, 5, 6.15587E-10, 9.288E-12, -7.45714E-10, 6.15587E-10, 2.4811025774844539E-05, 2.133792051661768E-10, 7.45714E-10
DataValue, -1.75, 0, 5, 7.1891100000000006E-10, 8.8960000000000009E-12, -6.06248E-10, 7.1891100000000006E-10, 2.6812515734261117E-05, 2.0151306334088439E-10, 6.06248E-10
DataValue, -1.7000000000000002, 0, 5, 5.47161E-10, 7.368E-12, -5.46655E-10, 5.47161E-10, 2.3391472805276711E-05, 1.5009481160485274E-09, 5.46655E-10
DataValue, -1.6500000000000001, 0, 5, 5.26166E-10, 2.712E-12, -5.2107400000000008E-10, 5.26166E-10, 2.2938308568854854E-05, 6.5846655127876228E-11, 5.2107400000000008E-10
DataValue, -1.6, 0, 5, 5.09857E-10, 5.3620000000000008E-12, -5.10206E-10, 5.09857E-10, 2.2580013286089979E-05, 7.9044229826434752E-11, 5.10206E-10
DataValue, -1.55, 0, 5, 4.8616900000000008E-10, 3.372E-12, -4.99687E-10, 4.8616900000000008E-10, 2.204924034972634E-05, 1.054794839506147E-10, 4.99687E-10
DataValue, -1.5, 0, 5, 4.6453100000000006E-10, 3.7980000000000006E-12, -4.69805E-10, 4.6453100000000006E-10, 2.1552981232302878E-05, 6.2667797425706476E-11, 4.69805E-10
DataValue, -1.4500000000000002, 0, 5, 4.5188600000000005E-10, 3.2520000000000003E-12, -4.4558900000000005E-10, 4.5188600000000005E-10, 2.1257610401924298E-05, 7.0586734107427756E-11, 4.4558900000000005E-10
DataValue, -1.4000000000000001, 0, 5, 4.2902100000000004E-10, 2.5930000000000004E-12, -4.3075200000000005E-10, 4.2902100000000004E-10, 2.0712822115781326E-05, 2.6756815998613848E-10, 4.3075200000000005E-10
DataValue, -1.35, 0, 5, 5.24106E-10, 1.8200000000000003E-12, -8.3020200000000011E-10, 5.24106E-10, 2.289336148318984E-05, 2.3985774189999753E-09, 8.3020200000000011E-10
DataValue, -1.3, 0, 5, 6.558900000000001E-10, 1.4010000000000002E-12, -6.62947E-10, 6.558900000000001E-10, 2.5610349470477754E-05, 9.1414695209617209E-10, 6.62947E-10
DataValue, -1.25, 0, 5, 6.71683E-10, 3.133E-12, -7.4011E-10, 6.71683E-10, 2.5916847802153717E-05, 6.3660095748535188E-11, 7.4011E-10
DataValue, -1.2, 0, 5, 6.15659E-10, 4.11E-13, -6.9780800000000008E-10, 6.15659E-10, 2.4812476700240949E-05, 1.3387753109560034E-09, 6.9780800000000008E-10
DataValue, -1.1500000000000001, 0, 5, 4.95415E-10, -2.44E-13, -4.5453300000000006E-10, 4.95415E-10, 2.2257919938754385E-05, 1.1315649530852752E-10, 4.5453300000000006E-10
DataValue, -1.1, 0, 5, 5.64002E-10, -4.425E-12, -3.7536800000000005E-10, 5.64002E-10, 2.3748726281634558E-05, 1.3707630118785236E-09, 3.7536800000000005E-10
DataValue, -1.05, 0, 5, 3.44308E-10, -5.7900000000000006E-13, -3.2883500000000003E-10, 3.44308E-10, 1.8555538256811631E-05, 3.57794632502509E-09, 3.2883500000000003E-10
DataValue, -1, 0, 5, 3.15671E-10, -6.2500000000000006E-13, -3.06318E-10, 3.15671E-10, 1.7767132576755317E-05, 1.7277120387747166E-10, 3.06318E-10
DataValue, -0.95000000000000007, 0, 5, 2.9725600000000003E-10, -9.25E-13, -2.95161E-10, 2.9725600000000003E-10, 1.7241113653125776E-05, 8.2023386412201607E-11, 2.95161E-10
DataValue, -0.9, 0, 5, 2.84309E-10, -4.01E-13, -2.84045E-10, 2.84309E-10, 1.6861464942287785E-05, 2.8520863243822707E-11, 2.84045E-10
DataValue, -0.85000000000000009, 0, 5, 2.79126E-10, -1.546E-12, -2.78892E-10, 2.79126E-10, 1.670706437409038E-05, 7.2326842784837276E-12, 2.78892E-10
DataValue, -0.8, 0, 5, 2.75312E-10, -1.5740000000000002E-12, -2.7365600000000003E-10, 2.75312E-10, 1.6592528439029419E-05, 7.5353121698745334E-12, 2.7365600000000003E-10
DataValue, -0.75, 0, 5, 2.7002900000000004E-10, -1.969E-12, -2.73063E-10, 2.7002900000000004E-10, 1.6432559143359259E-05, 1.3200874977996102E-12, 2.73063E-10
DataValue, -0.70000000000000007, 0, 5, 2.79138E-10, -7.03E-13, -3.06126E-10, 2.79138E-10, 1.6707423499750044E-05, 3.8164628524452489E-10, 3.06126E-10
DataValue, -0.65, 0, 5, 3.3805000000000004E-10, -3.384E-12, -3.4725300000000004E-10, 3.3805000000000004E-10, 1.838613608129778E-05, 6.9419517387797309E-10, 3.4725300000000004E-10
DataValue, -0.6, 0, 5, 3.7412000000000005E-10, -3.43E-12, -3.9207100000000003E-10, 3.7412000000000005E-10, 1.9342181883127871E-05, 3.590886645167647E-10, 3.9207100000000003E-10
DataValue, -0.55, 0, 5, 4.11323E-10, -7.3220000000000013E-12, -4.0881300000000003E-10, 4.11323E-10, 2.0281099575713344E-05, 2.8159996163097897E-10, 4.0881300000000003E-10
DataValue, -0.5, 0, 5, 4.4185200000000005E-10, -4.4870000000000006E-12, -4.88268E-10, 4.4185200000000005E-10, 2.1020275925876903E-05, 1.5942912312555636E-09, 4.88268E-10
DataValue, -0.45, 0, 5, 5.89225E-10, -7.679E-12, -7.8910900000000007E-10, 5.89225E-10, 2.4273957238159584E-05, 1.6062868483713259E-08, 7.8910900000000007E-10
DataValue, -0.4, 0, 5, 1.1353E-09, -2.67772E-10, -9.3785E-10, 1.1353E-09, 3.3694213153002992E-05, 7.8551591588338525E-12, 9.3785E-10
DataValue, -0.35000000000000003, 0, 5, 5.7569700000000006E-10, -1.6128000000000002E-11, -4.4367300000000006E-10, 5.7569700000000006E-10, 2.3993686669622075E-05, 1.7102726147620829E-08, 4.4367300000000006E-10
DataValue, -0.3, 0, 5, 4.2503900000000006E-10, -2.9647E-11, -3.4408E-10, 4.2503900000000006E-10, 2.0616473995327137E-05, 2.4353069529033372E-09, 3.4408E-10
DataValue, -0.25, 0, 5, 3.63238E-10, -4.8486E-11, -3.0167300000000003E-10, 3.63238E-10, 1.9058803740004252E-05, 2.5239829875182111E-10, 3.0167300000000003E-10
DataValue, -0.2, 0, 5, 3.62056E-10, -7.9342000000000011E-11, -2.70603E-10, 3.62056E-10, 1.9027769180857749E-05, 1.060639364479731E-11, 2.70603E-10
DataValue, -0.15, 0, 5, 3.7575800000000004E-10, -1.22484E-10, -2.39102E-10, 3.7575800000000004E-10, 1.9384478326743797E-05, 2.2114042506272666E-10, 2.39102E-10
DataValue, -0.1, 0, 5, 4.20859E-10, -1.85247E-10, -2.22708E-10, 4.20859E-10, 2.0514848281184046E-05, 7.77032937955511E-10, 2.22708E-10
DataValue, -0.05, 0, 5, 4.91598E-10, -2.6878600000000003E-10, -2.1336800000000002E-10, 4.91598E-10, 2.2172009381199533E-05, 1.5465225741274032E-09, 2.1336800000000002E-10
DataValue, 0, 0, 5, 5.97677E-10, -3.80865E-10, -2.04695E-10, 5.97677E-10, 2.4447433403120255E-05, 2.62880234206433E-09, 2.04695E-10
DataValue, 0.05, 0, 5, 7.4524600000000005E-10, -5.26876E-10, -2.0021900000000003E-10, 7.4524600000000005E-10, 2.7299194127299804E-05, 4.1030534144780414E-09, 2.0021900000000003E-10
DataValue, 0.1, 0, 5, 9.51904E-10, -7.10975E-10, -2.38976E-10, 9.51904E-10, 3.0852941512925473E-05, 4.9500059200076E-09, 2.38976E-10
DataValue, 0.15, 0, 5, 1.17888E-09, -9.1546600000000011E-10, -2.62058E-10, 1.17888E-09, 3.4334821974199894E-05, 6.8195462198687759E-09, 2.62058E-10
DataValue, 0.2, 0, 5, 1.52967E-09, -1.20727E-09, -2.9244100000000003E-10, 1.52967E-09, 3.9110995896294945E-05, 1.1344991460517158E-08, 2.9244100000000003E-10
DataValue, 0.25, 0, 5, 2.02375E-09, -1.60195E-09, -3.5650900000000004E-10, 2.02375E-09, 4.4986108967102281E-05, 1.7131701351020407E-08, 3.5650900000000004E-10
DataValue, 0.3, 0, 5, 2.72482E-09, -2.05414E-09, -4.3810100000000003E-10, 2.72482E-09, 5.2199808428767248E-05, 8.7899219070483E-09, 4.3810100000000003E-10
DataValue, 0.35000000000000003, 0, 5, 2.95518E-09, -2.57904E-09, -3.22449E-10, 2.95518E-09, 5.4361567306324052E-05, 4.1251240235282455E-09, 3.22449E-10
DataValue, 0.4, 0, 5, 3.4366E-09, -3.10851E-09, -2.83605E-10, 3.4366E-09, 5.8622521269559874E-05, 9.92195597239799E-09, 2.83605E-10
DataValue, 0.45, 0, 5, 4.13738E-09, -3.75015E-09, -2.9957800000000005E-10, 4.13738E-09, 6.4322468858090331E-05, 1.46910793564044E-08, 2.9957800000000005E-10
DataValue, 0.5, 0, 5, 5.0046E-09, -4.50098E-09, -3.66226E-10, 5.0046E-09, 7.0743197552838952E-05, 1.3759474783889963E-08, 3.66226E-10
DataValue, 0.55, 0, 5, 5.78399E-09, -5.23126E-09, -3.57496E-10, 5.78399E-09, 7.605254762333738E-05, 1.2836755313604687E-08, 3.57496E-10
DataValue, 0.6, 0, 5, 6.736E-09, -6.14512E-09, -4.23883E-10, 6.736E-09, 8.207313811473277E-05, 1.6264112163800507E-08, 4.23883E-10
DataValue, 0.65, 0, 5, 7.88644E-09, -7.53744E-09, -5.4719300000000008E-10, 7.88644E-09, 8.8805630452128424E-05, 2.3516452805707873E-08, 5.4719300000000008E-10
DataValue, 0.70000000000000007, 0, 5, 9.48836E-09, -8.59097E-09, -5.869340000000001E-10, 9.48836E-09, 9.740821320607416E-05, 1.5535892049008393E-08, 5.869340000000001E-10
DataValue, 0.75, 0, 5, 1.02556E-08, -9.73694E-09, -5.1178000000000007E-10, 1.02556E-08, 0.00010126993630885722, 2.3049904231973122E-08, 5.1178000000000007E-10
DataValue, 0.8, 0, 5, 1.2676599999999998E-08, -1.19586E-08, -4.3534300000000004E-10, 1.2676599999999998E-08, 0.0001125904081172104, 6.6755600488528526E-08, 4.3534300000000004E-10
DataValue, 0.85000000000000009, 0, 5, 1.61562E-08, -1.5488699999999998E-08, -5.31527E-10, 1.61562E-08, 0.00012710704150439503, 9.9981523277870712E-08, 5.31527E-10
DataValue, 0.9, 0, 5, 2.07966E-08, -1.9639899999999997E-08, -5.7799900000000006E-10, 2.07966E-08, 0.00014421026315765463, 1.4543630892320867E-07, 5.7799900000000006E-10
DataValue, 0.95000000000000007, 0, 5, 2.7305299999999998E-08, -2.6497699999999997E-08, -3.4855300000000003E-10, 2.7305299999999998E-08, 0.00016524315416984752, 1.9389925450565485E-07, 3.4855300000000003E-10
DataValue, 1, 0, 5, 3.5435899999999995E-08, -3.4713099999999993E-08, -3.2320800000000005E-10, 3.5435899999999995E-08, 0.0001882442562204754, 2.4619654212173719E-07, 3.2320800000000005E-10
DataValue, 1.05, 0, 5, 4.61654E-08, -4.5219699999999994E-08, -3.0639300000000004E-10, 4.61654E-08, 0.00021486135064268771, 3.0611548740596476E-07, 3.0639300000000004E-10
DataValue, 1.1, 0, 5, 5.9327299999999996E-08, -5.7905399999999997E-08, -2.94053E-10, 5.9327299999999996E-08, 0.00024357196061944403, 3.4741647838518686E-07, 2.94053E-10
DataValue, 1.1500000000000001, 0, 5, 7.496829999999999E-08, -7.3628299999999992E-08, -2.8252800000000004E-10, 7.496829999999999E-08, 0.00027380339661881476, 4.0987447578954883E-07, 2.8252800000000004E-10
DataValue, 1.2, 0, 5, 9.4613699999999986E-08, -9.22799E-08, -2.71676E-10, 9.4613699999999986E-08, 0.00030759340044935943, 2.9577905870850578E-07, 2.71676E-10
DataValue, 1.25, 0, 5, 1.07708E-07, -1.05605E-07, -2.6282700000000004E-10, 1.07708E-07, 0.00032818896995481122, 3.1435259330461374E-07, 2.6282700000000004E-10
DataValue, 1.3, 0, 5, 1.32249E-07, -1.30355E-07, -2.6230800000000003E-10, 1.32249E-07, 0.00036366055601343405, 5.572022903651346E-07, 2.6230800000000003E-10
DataValue, 1.35, 0, 5, 1.62276E-07, -1.59651E-07, -3.2296700000000005E-10, 1.62276E-07, 0.00040283495379621662, 5.6055086098244569E-07, 3.2296700000000005E-10
DataValue, 1.4000000000000001, 0, 5, 1.92309E-07, -1.8984099999999999E-07, -3.6169E-10, 1.92309E-07, 0.00043853050064961277, 5.5557671371777492E-07, 3.6169E-10
DataValue, 1.4500000000000002, 0, 5, 2.27884E-07, -2.23715E-07, -3.4330500000000004E-10, 2.27884E-07, 0.00047737197236536627, 5.6554751520562394E-07, 3.4330500000000004E-10
DataValue, 1.5, 0, 5, 2.63922E-07, -2.58091E-07, -3.21343E-10, 2.63922E-07, 0.00051373339389220167, 5.3174251413531244E-07, 3.21343E-10
DataValue, 1.55, 0, 5, 3.02822E-07, -2.97445E-07, -2.9510500000000004E-10, 3.02822E-07, 0.00055029264941483633, 5.1144340157621807E-07, 2.9510500000000004E-10
DataValue, 1.6, 0, 5, 3.4251599999999997E-07, -3.36453E-07, -2.5117E-10, 3.4251599999999997E-07, 0.00058524866509886207, 5.4384446309577721E-07, 2.5117E-10
DataValue, 1.6500000000000001, 0, 5, 3.89424E-07, -3.83247E-07, -2.56423E-10, 3.89424E-07, 0.00062403846035320612, 5.67447516067909E-07, 2.56423E-10
DataValue, 1.7000000000000002, 0, 5, 4.36363E-07, -4.27464E-07, -2.3032200000000003E-10, 4.36363E-07, 0.00066057777740399348, 5.1702980281219013E-07, 2.3032200000000003E-10
DataValue, 1.75, 0, 5, 4.84337E-07, -4.77105E-07, -2.23944E-10, 4.84337E-07, 0.00069594324481239136, 5.4094428475816786E-07, 2.23944E-10
DataValue, 1.8, 0, 5, 5.38942E-07, -5.30453E-07, -2.2872400000000002E-10, 5.38942E-07, 0.000734126692063434, 5.7219288209744089E-07, 2.2872400000000002E-10
DataValue, 1.85, 0, 5, 5.9534599999999994E-07, -5.8503E-07, -1.9363800000000002E-10, 5.9534599999999994E-07, 0.0007715866769197093, 5.6507020553218108E-07, 1.9363800000000002E-10
DataValue, 1.9000000000000001, 0, 5, 6.54963E-07, -6.47195E-07, -1.95179E-10, 6.54963E-07, 0.0008092978438127708, 6.2484605188988276E-07, 1.95179E-10
DataValue, 1.9500000000000002, 0, 5, 7.23578E-07, -7.10046E-07, -1.92988E-10, 7.23578E-07, 0.00085063388129088765, 6.3557512827142926E-07, 1.92988E-10
DataValue, 2, 0, 5, 7.90358E-07, -7.75983E-07, -1.7184200000000002E-10, 7.90358E-07, 0.00088902080965520716, 6.1207658760943483E-07, 1.7184200000000002E-10
DataValue, 2.05, 0, 5, 8.62798E-07, -8.50418E-07, -1.7400000000000002E-10, 8.62798E-07, 0.0009288692050014361, 7.2448624297638141E-07, 1.7400000000000002E-10
DataValue, 2.1, 0, 5, 9.48944E-07, -9.32573E-07, -1.52849E-10, 9.48944E-07, 0.000974137567287085, 4.2736579146865579E-07, 1.52849E-10
DataValue, 2.15, 0, 5, 9.88518E-07, -9.63943E-07, -1.39147E-10, 9.88518E-07, 0.00099424242516601546, 1.1995113821762178E-07, 1.39147E-10
DataValue, 2.2, 0, 5, 1.0176200000000001E-06, -1.0070800000000002E-06, -1.39768E-10, 1.0176200000000001E-06, 0.0010087715301295929, 5.2930510120404741E-07, 1.39768E-10
DataValue, 2.25, 0, 5, 1.13848E-06, -1.1223600000000002E-06, -1.3546600000000002E-10, 1.13848E-06, 0.0010669957825596127, 1.3316992762326258E-06, 1.3546600000000002E-10
