
SetupTitle, Transfer stab
PrimitiveTest, I/V Sweep
TestParameter, Context.MainFrame, 4155C
TestParameter, Channel.UnitType, SMU, SMU, SMU
TestParameter, Channel.Unit, SMU3:MP, SMU4:MP, SMU1:MP
TestParameter, Channel.IName, ID, IS, IG
TestParameter, Channel.VName, VD, VS, VG
TestParameter, Channel.Mode, V, COMMON, V
TestParameter, Channel.Func, CONST, CONST, VAR1
TestParameter, Channel.Index, 
TestParameter, Channel.Time, 
TestParameter, Measurement.Port.Unit, SMU3:MP, SMU4:MP, SMU1:MP
TestParameter, Measurement.Port.SeriesResistor, NONE, NONE, NONE
TestParameter, Measurement.Port.Filter, ON, ON, ON
TestParameter, Measurement.Primary.Locus, Single
TestParameter, Measurement.Primary.Scale, LINEAR
TestParameter, Measurement.Primary.Start, -2
TestParameter, Measurement.Primary.Stop, 3
TestParameter, Measurement.Primary.Step, 0.05
TestParameter, Measurement.Primary.Compliance, 0.1
TestParameter, Measurement.Primary.PowerCompliance, 0
TestParameter, Measurement.Aborting.Condition, CONTINUE AT ANY
TestParameter, Measurement.PostOutput.Value, START
TestParameter, Measurement.PostOutput.Retention, OFF
TestParameter, Measurement.Bias.Source, 3, 0, -2
TestParameter, Measurement.Bias.Compliance, 0.1, 0.1, 0.1
TestParameter, Measurement.Monitor.Unit, SMU3:MP, SMU4:MP, SMU1:MP
TestParameter, Measurement.Monitor.Adc, HR ADC, HR ADC, HR ADC
TestParameter, Measurement.Monitor.RangingMode, AUTO, AUTO, AUTO
TestParameter, Measurement.Monitor.RangeBoundary, , , 
TestParameter, Measurement.Monitor.RangeRating, BY FULL RANGE, BY FULL RANGE, BY FULL RANGE
TestParameter, Measurement.Monitor.RangeRatingCoeff, 50, 50, 50
TestParameter, Measurement.Timing.Hold, 0.5
TestParameter, Measurement.Timing.Delay, 0.05
TestParameter, Measurement.Adc.HighResolution.AutoZero, OFF
TestParameter, Measurement.Adc.HighResolution.Mode, AUTO
TestParameter, Measurement.Adc.HighResolution.Coeff, 1
TestParameter, Measurement.Ag16440ASelector.SemiconductorRelay.Channel1, DEFAULT
TestParameter, Measurement.Ag16440ASelector.SemiconductorRelay.Channel3, DEFAULT
TestParameter, Function.User.Name, absID, sqrtID, gm2, absIG
TestParameter, Function.User.Unit, A, A, A/V, A
TestParameter, Function.User.Definition, abs(ID), sqrt(abs(ID)), (delta(sqrtID)/delta(VG))^2, abs(IG)
TestParameter, Output.Graph.Enabled, true
TestParameter, Output.Graph.XAxis.Data, VG
TestParameter, Output.Graph.XAxis.Scale, Linear
TestParameter, Output.Graph.XAxis.Left, -5
TestParameter, Output.Graph.XAxis.Right, 7
TestParameter, Output.Graph.YAxis.Data, ID, absIG, gm2
TestParameter, Output.Graph.YAxis.Scale, Log, Log, Linear
TestParameter, Output.Graph.YAxis.Bottom, 1E-14, 1E-14, 0
TestParameter, Output.Graph.YAxis.Top, 0.01, 0.01, 1E-05
TestParameter, Output.Graph.YAxis.Group, , , 
TestParameter, Output.List.Data, VG, IG, VD, ID, VS, IS, sqrtID, gm2, absIG
TestParameter, AutoAnalysis.Interpolation, false
TestParameter, AutoAnalysis.Line1.Enabled, false
TestParameter, AutoAnalysis.Line1.Type, 1
TestParameter, AutoAnalysis.Line1.Fix, True
TestParameter, AutoAnalysis.Line1.YAxis, 0
TestParameter, AutoAnalysis.Line1.Point1.Type, 0
TestParameter, AutoAnalysis.Line1.Point1.XY.X, 
TestParameter, AutoAnalysis.Line1.Point1.XY.Y, 
TestParameter, AutoAnalysis.Line1.Point1.Data.Var, 
TestParameter, AutoAnalysis.Line1.Point1.Data.Condition, 
TestParameter, AutoAnalysis.Line1.Point1.Data.Start, false
TestParameter, AutoAnalysis.Line1.Point1.Data.StartVar, 
TestParameter, AutoAnalysis.Line1.Point1.Data.StartCondition, 
TestParameter, AutoAnalysis.Line1.Point2.Type, 0
TestParameter, AutoAnalysis.Line1.Point2.XY.X, 
TestParameter, AutoAnalysis.Line1.Point2.XY.Y, 
TestParameter, AutoAnalysis.Line1.Point2.Data.Var, 
TestParameter, AutoAnalysis.Line1.Point2.Data.Condition, 
TestParameter, AutoAnalysis.Line1.Point2.Data.Start, false
TestParameter, AutoAnalysis.Line1.Point2.Data.StartVar, 
TestParameter, AutoAnalysis.Line1.Point2.Data.StartCondition, 
TestParameter, AutoAnalysis.Line1.GradientExpr, 0
TestParameter, AutoAnalysis.Line2.Enabled, false
TestParameter, AutoAnalysis.Line2.Type, 1
TestParameter, AutoAnalysis.Line2.Fix, True
TestParameter, AutoAnalysis.Line2.YAxis, 0
TestParameter, AutoAnalysis.Line2.Point1.Type, 0
TestParameter, AutoAnalysis.Line2.Point1.XY.X, 
TestParameter, AutoAnalysis.Line2.Point1.XY.Y, 
TestParameter, AutoAnalysis.Line2.Point1.Data.Var, 
TestParameter, AutoAnalysis.Line2.Point1.Data.Condition, 
TestParameter, AutoAnalysis.Line2.Point1.Data.Start, false
TestParameter, AutoAnalysis.Line2.Point1.Data.StartVar, 
TestParameter, AutoAnalysis.Line2.Point1.Data.StartCondition, 
TestParameter, AutoAnalysis.Line2.Point2.Type, 0
TestParameter, AutoAnalysis.Line2.Point2.XY.X, 
TestParameter, AutoAnalysis.Line2.Point2.XY.Y, 
TestParameter, AutoAnalysis.Line2.Point2.Data.Var, 
TestParameter, AutoAnalysis.Line2.Point2.Data.Condition, 
TestParameter, AutoAnalysis.Line2.Point2.Data.Start, false
TestParameter, AutoAnalysis.Line2.Point2.Data.StartVar, 
TestParameter, AutoAnalysis.Line2.Point2.Data.StartCondition, 
TestParameter, AutoAnalysis.Line2.GradientExpr, 0
TestParameter, AutoAnalysis.Marker.Enabled, false
TestParameter, AutoAnalysis.Marker.Data.Var, 
TestParameter, AutoAnalysis.Marker.Data.Condition, 
TestParameter, AutoAnalysis.Marker.Data.Start, false
TestParameter, AutoAnalysis.Marker.Data.StartVar, 
TestParameter, AutoAnalysis.Marker.Data.StartCondition, 
MetaData, TestRecord.EntryPoint, true
MetaData, TestRecord.RecordTime, 06/18/2019 13:24:43
MetaData, TestRecord.TestTarget, 6-43
MetaData, TestRecord.IterationIndex, 2
MetaData, TestRecord.Preservation, true
MetaData, TestRecord.Flag, 
MetaData, TestRecord.Remarks, leak
MetaData, TestRecord.LinkKey, 0b124011-d5bc-4ed0-a3b5-33eab3b235fc
Dimension1, 101, 101, 101, 101, 101, 101, 101, 101, 101, 101
Dimension2, 1, 1, 1, 1, 1, 1, 1, 1, 1, 1
DataName, VG, VD, VS, ID, IS, IG, absID, sqrtID, gm2, absIG
DataValue, -2, 3, 0, 8.77379E-09, -3.397E-12, -9.50486E-09, 8.77379E-09, 9.3668511251113627E-05, 3.9630934082669046E-10, 9.50486E-09
DataValue, -1.9500000000000002, 3, 0, 8.58831E-09, -2.12E-13, -8.25832E-09, 8.58831E-09, 9.2673135265836345E-05, 3.5218745496165697E-09, 8.25832E-09
DataValue, -1.9000000000000001, 3, 0, 7.69725E-09, -2.0100000000000003E-13, -7.52687E-09, 7.69725E-09, 8.7733972895338546E-05, 9.8665687565977239E-09, 7.52687E-09
DataValue, -1.85, 3, 0, 6.84592E-09, -6.5100000000000005E-13, -6.66448E-09, 6.84592E-09, 8.2740074933492771E-05, 6.59542574968062E-09, 6.66448E-09
DataValue, -1.8, 3, 0, 6.33819E-09, -9.42E-13, -6.18992E-09, 6.33819E-09, 7.9612750235122517E-05, 2.9656380960227021E-09, 6.18992E-09
DataValue, -1.75, 3, 0, 5.97441E-09, 5.5300000000000007E-13, -5.86457E-09, 5.97441E-09, 7.7294307681743292E-05, 3.3021711752126983E-09, 5.86457E-09
DataValue, -1.7000000000000002, 3, 0, 5.45623E-09, 7.8700000000000008E-13, -5.38592E-09, 5.45623E-09, 7.3866298133858042E-05, 3.5945177410034904E-09, 5.38592E-09
DataValue, -1.6500000000000001, 3, 0, 5.08353E-09, -3.04E-13, -4.90324E-09, 5.08353E-09, 7.1298877971536124E-05, 1.0688564507834318E-07, 4.90324E-09
DataValue, -1.6, 3, 0, 1.69521E-09, -1.235E-12, -1.09009E-09, 1.69521E-09, 4.1172927998868381E-05, 1.4437093433939725E-07, 1.09009E-09
DataValue, -1.55, 3, 0, 1.10907E-09, -1.4440000000000001E-12, -1.30422E-09, 1.10907E-09, 3.3302702593032894E-05, 2.9397910012494776E-09, 1.30422E-09
DataValue, -1.5, 3, 0, 1.27813E-09, -5.9600000000000009E-13, -1.38266E-09, 1.27813E-09, 3.5750944043479466E-05, 2.1078165896709548E-09, 1.38266E-09
DataValue, -1.4500000000000002, 3, 0, 1.43594E-09, -1.5130000000000001E-12, -1.54263E-09, 1.43594E-09, 3.7893798965002174E-05, 6.7021573345907627E-10, 1.54263E-09
DataValue, -1.4000000000000001, 3, 0, 1.46994E-09, -1.109E-12, -1.5027E-09, 1.46994E-09, 3.8339796556580732E-05, 4.67877155388468E-12, 1.5027E-09
DataValue, -1.35, 3, 0, 1.45238E-09, -1.7350000000000002E-12, -1.45024E-09, 1.45238E-09, 3.8110103647195711E-05, 1.6895272357014796E-10, 1.45024E-09
DataValue, -1.3, 3, 0, 1.37196E-09, -1.533E-12, -1.35943E-09, 1.37196E-09, 3.7039978401721568E-05, 5.8858331404352292E-10, 1.35943E-09
DataValue, -1.25, 3, 0, 1.27335E-09, -2.649E-12, -1.3018E-09, 1.27335E-09, 3.5684030041462522E-05, 3.9720885275012683E-10, 1.3018E-09
DataValue, -1.2, 3, 0, 1.22829E-09, -3.2480000000000003E-12, -1.24453E-09, 1.22829E-09, 3.5046968485162878E-05, 1.1099721020754103E-10, 1.24453E-09
DataValue, -1.1500000000000001, 3, 0, 1.19927E-09, -2.6430000000000004E-12, -1.22127E-09, 1.19927E-09, 3.4630477906029534E-05, 6.1788688734973E-11, 1.22127E-09
DataValue, -1.1, 3, 0, 1.17381E-09, -1.6090000000000001E-12, -1.19293E-09, 1.17381E-09, 3.4260910670908909E-05, 4.1191150373473578E-11, 1.19293E-09
DataValue, -1.05, 3, 0, 1.15523E-09, 2.0500000000000004E-12, -1.16763E-09, 1.15523E-09, 3.398867458433765E-05, 7.1006271071058933E-11, 1.16763E-09
DataValue, -1, 3, 0, 1.11678E-09, -3.564E-12, -1.12988E-09, 1.11678E-09, 3.3418258482452372E-05, 1.6788617611064732E-10, 1.12988E-09
DataValue, -0.95000000000000007, 3, 0, 1.06883E-09, -3.921E-12, -1.06404E-09, 1.06883E-09, 3.26929656042397E-05, 3.4940917839409145E-10, 1.06404E-09
DataValue, -0.9, 3, 0, 9.9534E-10, -3.9350000000000005E-12, -1.00526E-09, 9.9534E-10, 3.1549009493167929E-05, 2.5957660292786265E-10, 1.00526E-09
DataValue, -0.85000000000000009, 3, 0, 9.6608E-10, -5.017E-12, -9.5646E-10, 9.6608E-10, 3.1081827488099861E-05, 2.6211322368031939E-10, 9.5646E-10
DataValue, -0.8, 3, 0, 8.958060000000001E-10, -4.52E-12, -8.88905E-10, 8.958060000000001E-10, 2.9930018376205518E-05, 4.5610150272313541E-10, 8.88905E-10
DataValue, -0.75, 3, 0, 8.37881E-10, -1.349E-12, -8.40388E-10, 8.37881E-10, 2.8946174185891995E-05, 3.1816641540945751E-10, 8.40388E-10
DataValue, -0.70000000000000007, 3, 0, 7.92214E-10, 1.4340000000000002E-12, -8.00423E-10, 7.92214E-10, 2.8146296381584559E-05, 2.005081239265067E-10, 8.00423E-10
DataValue, -0.65, 3, 0, 7.5791E-10, -8.19E-13, -7.58079E-10, 7.5791E-10, 2.7530165273750173E-05, 1.7146263043946108E-10, 7.58079E-10
DataValue, -0.6, 3, 0, 7.202170000000001E-10, -1.3900000000000001E-13, -7.25862E-10, 7.202170000000001E-10, 2.6836858981631963E-05, 1.9585824500540854E-10, 7.25862E-10
DataValue, -0.55, 3, 0, 6.8281200000000006E-10, -2.326E-12, -6.8209100000000008E-10, 6.8281200000000006E-10, 2.6130671633159375E-05, 1.8261557333874308E-10, 6.8209100000000008E-10
DataValue, -0.5, 3, 0, 6.4951100000000007E-10, 7E-13, -6.48529E-10, 6.4951100000000007E-10, 2.5485505684604339E-05, 1.6655007419049089E-10, 6.48529E-10
DataValue, -0.45, 3, 0, 6.17032E-10, -8.3510000000000011E-12, -6.14141E-10, 6.17032E-10, 2.48401288241426E-05, 1.6633800714776417E-10, 6.14141E-10
DataValue, -0.4, 3, 0, 5.8543600000000007E-10, -5.543E-12, -5.8172500000000008E-10, 5.8543600000000007E-10, 2.4195784756853828E-05, 1.9385394638014375E-10, 5.8172500000000008E-10
DataValue, -0.35000000000000003, 3, 0, 5.498E-10, -2.064E-12, -5.4726400000000007E-10, 5.498E-10, 2.3447814397081874E-05, 1.8838360568656467E-10, 5.4726400000000007E-10
DataValue, -0.3, 3, 0, 5.20901E-10, -1.0757E-11, -5.14269E-10, 5.20901E-10, 2.2823255683622354E-05, 1.409814700021615E-10, 5.14269E-10
DataValue, -0.25, 3, 0, 4.95528E-10, -1.3845000000000002E-11, -4.76267E-10, 4.95528E-10, 2.2260458216308128E-05, 1.4936940043922465E-10, 4.76267E-10
DataValue, -0.2, 3, 0, 4.6660700000000008E-10, -2.3625000000000002E-11, -4.38407E-10, 4.6660700000000008E-10, 2.1601087935564729E-05, 8.47786894682463E-11, 4.38407E-10
DataValue, -0.15, 3, 0, 4.5538300000000006E-10, -4.4663000000000004E-11, -4.1060200000000003E-10, 4.5538300000000006E-10, 2.1339704777714243E-05, 4.7895254985188832E-14, 4.1060200000000003E-10
DataValue, -0.1, 3, 0, 4.65662E-10, -7.3177E-11, -3.8601600000000005E-10, 4.65662E-10, 2.157920295098964E-05, 8.8173421034758848E-11, 3.8601600000000005E-10
DataValue, -0.05, 3, 0, 4.9634100000000008E-10, -1.32858E-10, -3.6154200000000004E-10, 4.9634100000000008E-10, 2.2278711811951788E-05, 4.5827954005957976E-10, 3.6154200000000004E-10
DataValue, 0, 3, 0, 5.62636E-10, -2.1506E-10, -3.2761100000000003E-10, 5.62636E-10, 2.3719949409726825E-05, 1.1909391621158075E-09, 3.2761100000000003E-10
DataValue, 0.05, 3, 0, 6.62018E-10, -3.405E-10, -3.1301100000000005E-10, 6.62018E-10, 2.5729710453092939E-05, 2.3581605271057833E-09, 3.1301100000000005E-10
DataValue, 0.1, 3, 0, 8.1659000000000007E-10, -4.96673E-10, -2.9684600000000003E-10, 8.1659000000000007E-10, 2.85760389137473E-05, 2.8808934685070253E-09, 2.9684600000000003E-10
DataValue, 0.15, 3, 0, 9.6703E-10, -6.82988E-10, -2.71103E-10, 9.6703E-10, 3.1097105974672306E-05, 3.8787782739330971E-09, 2.71103E-10
DataValue, 0.2, 3, 0, 1.21132E-09, -8.941540000000001E-10, -2.27321E-10, 1.21132E-09, 3.4804022755997615E-05, 4.5985378175948234E-09, 2.27321E-10
DataValue, 0.25, 3, 0, 1.43477E-09, -1.16491E-09, -1.9153700000000002E-10, 1.43477E-09, 3.787835793695392E-05, 4.8292776953332072E-09, 1.9153700000000002E-10
DataValue, 0.3, 3, 0, 1.7433399999999999E-09, -1.5320499999999999E-09, -1.7765800000000002E-10, 1.7433399999999999E-09, 4.1753323221032355E-05, 6.8586384673566507E-09, 1.7765800000000002E-10
DataValue, 0.35000000000000003, 3, 0, 2.13075E-09, -1.9247E-09, -1.6935100000000002E-10, 2.13075E-09, 4.616004766028735E-05, 7.48147788802557E-09, 1.6935100000000002E-10
DataValue, 0.4, 3, 0, 2.54045E-09, -2.3359999999999998E-09, -1.54906E-10, 2.54045E-09, 5.04028769020182E-05, 6.7980144584168352E-09, 1.54906E-10
DataValue, 0.45, 3, 0, 2.95991E-09, -2.75881E-09, -1.38589E-10, 2.95991E-09, 5.4405054912204617E-05, 5.9590587712755282E-09, 1.38589E-10
DataValue, 0.5, 3, 0, 3.37821E-09, -3.19638E-09, -1.24265E-10, 3.37821E-09, 5.812237090828281E-05, 4.745369416749734E-09, 1.24265E-10
DataValue, 0.55, 3, 0, 3.75692E-09, -3.58761E-09, -1.1507300000000001E-10, 3.75692E-09, 6.1293719090947646E-05, 3.9266424079391574E-09, 1.1507300000000001E-10
DataValue, 0.6, 3, 0, 4.1459E-09, -3.94842E-09, -1.07202E-10, 4.1459E-09, 6.438866359849379E-05, 3.0162699295677728E-09, 1.07202E-10
DataValue, 0.65, 3, 0, 4.46034E-09, -4.2835E-09, -9.9217000000000007E-11, 4.46034E-09, 6.6785776928924019E-05, 2.1600475804568566E-09, 9.9217000000000007E-11
DataValue, 0.70000000000000007, 3, 0, 4.76601E-09, -4.58739E-09, -9.5967E-11, 4.76601E-09, 6.90362948020822E-05, 1.9241813477125824E-09, 9.5967E-11
DataValue, 0.75, 3, 0, 5.0655E-09, -4.87383E-09, -8.2637000000000011E-11, 5.0655E-09, 7.1172326082544188E-05, 1.7753441979309736E-09, 8.2637000000000011E-11
DataValue, 0.8, 3, 0, 5.36553E-09, -5.21008E-09, -7.5755E-11, 5.36553E-09, 7.3249778156660652E-05, 1.5580219754118559E-09, 7.5755E-11
DataValue, 0.85000000000000009, 3, 0, 5.64294E-09, -5.48912E-09, -6.9054E-11, 5.64294E-09, 7.51195047907E-05, 2.0065880903153835E-09, 6.9054E-11
DataValue, 0.9, 3, 0, 6.04184E-09, -5.86918E-09, -6.2406E-11, 6.04184E-09, 7.7729273764779252E-05, 1.7936963208426839E-09, 6.2406E-11
DataValue, 0.95000000000000007, 3, 0, 6.29717E-09, -6.1241E-09, -5.7042E-11, 6.29717E-09, 7.9354710005140834E-05, 1.1638115002336854E-09, 5.7042E-11
DataValue, 1, 3, 0, 6.58382E-09, -6.43229E-09, -5.1986000000000004E-11, 6.58382E-09, 8.114074192414068E-05, 1.34162376387277E-09, 5.1986000000000004E-11
DataValue, 1.05, 3, 0, 6.89191E-09, -6.72647E-09, -4.8013000000000004E-11, 6.89191E-09, 8.3017528269637136E-05, 1.7276030302942643E-09, 4.8013000000000004E-11
DataValue, 1.1, 3, 0, 7.27561E-09, -7.13653E-09, -4.3214E-11, 7.27561E-09, 8.52971863545334E-05, 1.311688331750842E-09, 4.3214E-11
DataValue, 1.1500000000000001, 3, 0, 7.50636E-09, -7.39243E-09, -3.6305000000000004E-11, 7.50636E-09, 8.6639252074334071E-05, 1.4295821599089419E-09, 3.6305000000000004E-11
DataValue, 1.2, 3, 0, 7.93492E-09, -7.77509E-09, -3.1467E-11, 7.93492E-09, 8.90781679200914E-05, 1.766128752563095E-09, 3.1467E-11
DataValue, 1.25, 3, 0, 8.25223E-09, -8.09601E-09, -2.7514000000000003E-11, 8.25223E-09, 9.0841785539475176E-05, 1.7889083073483285E-09, 2.7514000000000003E-11
DataValue, 1.3, 3, 0, 8.70633E-09, -8.50959E-09, -2.34E-11, 8.70633E-09, 9.3307716722680547E-05, 1.8703940337205965E-09, 2.34E-11
DataValue, 1.35, 3, 0, 9.05668E-09, -8.86504E-09, -2.0693E-11, 9.05668E-09, 9.5166590776385389E-05, 1.3807062511836602E-09, 2.0693E-11
DataValue, 1.4000000000000001, 3, 0, 9.41356E-09, -9.20767E-09, -1.7393E-11, 9.41356E-09, 9.7023502307430645E-05, 9.9827574885558516E-10, 1.7393E-11
DataValue, 1.4500000000000002, 3, 0, 9.66803E-09, -9.21507E-09, -1.5007000000000002E-11, 9.66803E-09, 9.8326140979904217E-05, 3.7290824629525818E-10, 1.5007000000000002E-11
DataValue, 1.5, 3, 0, 9.79201E-09, -9.30218E-09, -1.2529E-11, 9.79201E-09, 9.895458554306617E-05, 3.3007871290654564E-10, 1.2529E-11
DataValue, 1.55, 3, 0, 1.002861E-08, -9.54089E-09, -1.0707000000000001E-11, 1.002861E-08, 0.00010014294782959007, 1.4251688478502889E-10, 1.0707000000000001E-11
DataValue, 1.6, 3, 0, 1.00297E-08, -9.72096E-09, -8.737E-12, 1.00297E-08, 0.00010014838990218465, 1.0080675898243896E-09, 8.737E-12
DataValue, 1.6500000000000001, 3, 0, 1.06746E-08, -1.0315499999999999E-08, -6.7060000000000007E-12, 1.06746E-08, 0.00010331795584505144, 3.3423473200085433E-09, 6.7060000000000007E-12
DataValue, 1.7000000000000002, 3, 0, 1.1221099999999999E-08, -1.10839E-08, -4.714E-12, 1.1221099999999999E-08, 0.00010592969366518531, 3.4990547595183107E-09, 4.714E-12
DataValue, 1.75, 3, 0, 1.1931899999999999E-08, -1.17322E-08, -3.38E-12, 1.1931899999999999E-08, 0.0001092332367001912, 2.9515072144244361E-09, 3.38E-12
DataValue, 1.8, 3, 0, 1.2401599999999999E-08, -1.2355999999999998E-08, -1.801E-12, 1.2401599999999999E-08, 0.00011136247123694768, 3.0460523575627396E-09, 1.801E-12
DataValue, 1.85, 3, 0, 1.3168099999999998E-08, -1.2900099999999999E-08, -5.87E-13, 1.3168099999999998E-08, 0.00011475234202403015, 2.6330295322183389E-09, 5.87E-13
DataValue, 1.9000000000000001, 3, 0, 1.3570799999999999E-08, -1.3416899999999998E-08, 4.92E-13, 1.3570799999999999E-08, 0.00011649377665781121, 2.3493303120101818E-09, 4.92E-13
DataValue, 1.9500000000000002, 3, 0, 1.4303999999999999E-08, -1.4179599999999999E-08, 1.389E-12, 1.4303999999999999E-08, 0.00011959933110180842, 3.3969536499377876E-09, 1.389E-12
DataValue, 2, 3, 0, 1.49627E-08, -1.4785599999999999E-08, 2.2000000000000003E-12, 1.49627E-08, 0.00012232211574363813, 2.843289191496799E-09, 2.2000000000000003E-12
DataValue, 2.05, 3, 0, 1.5607899999999998E-08, -1.54585E-08, 2.85E-12, 1.5607899999999998E-08, 0.00012493158127551256, 2.4123103423615363E-09, 2.85E-12
DataValue, 2.1, 3, 0, 1.6188399999999998E-08, -1.5993999999999998E-08, 3.35E-12, 1.6188399999999998E-08, 0.00012723364334954807, 2.2415759229483042E-09, 3.35E-12
DataValue, 2.15, 3, 0, 1.68133E-08, -1.6578299999999998E-08, 4.385E-12, 1.68133E-08, 0.00012966610968175146, 3.2689525949179384E-09, 4.385E-12
DataValue, 2.2, 3, 0, 1.7676E-08, -1.7491799999999998E-08, 4.848E-12, 1.7676E-08, 0.00013295111883696202, 4.0758630721885316E-09, 4.848E-12
DataValue, 2.25, 3, 0, 1.85097E-08, -1.83308E-08, 5.254E-12, 1.85097E-08, 0.00013605035832367366, 2.7420250166148738E-09, 5.254E-12
DataValue, 2.3000000000000003, 3, 0, 1.9095799999999997E-08, -1.8993799999999997E-08, 6.045E-12, 1.9095799999999997E-08, 0.00013818755370871864, 2.3127886672636993E-09, 6.045E-12
DataValue, 2.35, 3, 0, 1.9841399999999997E-08, -1.9383099999999998E-08, 7.065E-12, 1.9841399999999997E-08, 0.0001408595044716543, 4.1329924651668625E-09, 7.065E-12
DataValue, 2.4, 3, 0, 2.09139E-08, -2.0627299999999996E-08, 7.0800000000000005E-12, 2.09139E-08, 0.00014461638911271433, 3.6404980354361488E-09, 7.0800000000000005E-12
DataValue, 2.45, 3, 0, 2.1577599999999998E-08, -2.1194799999999998E-08, 7.918E-12, 2.1577599999999998E-08, 0.00014689315845198509, 3.4213393047952589E-09, 7.918E-12
DataValue, 2.5, 3, 0, 2.2639899999999997E-08, -2.2323799999999998E-08, 8.415E-12, 2.2639899999999997E-08, 0.00015046561068895442, 3.73933627654133E-09, 8.415E-12
DataValue, 2.5500000000000003, 3, 0, 2.3411499999999998E-08, -2.31311E-08, 9.182E-12, 2.3411499999999998E-08, 0.000153008169716522, 3.3449442607178006E-09, 9.182E-12
