
SetupTitle, Transfer stab
PrimitiveTest, I/V Sweep
TestParameter, Context.MainFrame, 4155C
TestParameter, Channel.UnitType, SMU, SMU, SMU
TestParameter, Channel.Unit, SMU3:MP, SMU4:MP, SMU1:MP
TestParameter, Channel.IName, ID, IS, IG
TestParameter, Channel.VName, VD, VS, VG
TestParameter, Channel.Mode, V, COMMON, V
TestParameter, Channel.Func, CONST, CONST, VAR1
TestParameter, Channel.Index, 
TestParameter, Channel.Time, 
TestParameter, Measurement.Port.Unit, SMU3:MP, SMU4:MP, SMU1:MP
TestParameter, Measurement.Port.SeriesResistor, NONE, NONE, NONE
TestParameter, Measurement.Port.Filter, ON, ON, ON
TestParameter, Measurement.Primary.Locus, Single
TestParameter, Measurement.Primary.Scale, LINEAR
TestParameter, Measurement.Primary.Start, -2
TestParameter, Measurement.Primary.Stop, 3
TestParameter, Measurement.Primary.Step, 0.05
TestParameter, Measurement.Primary.Compliance, 0.1
TestParameter, Measurement.Primary.PowerCompliance, 0
TestParameter, Measurement.Aborting.Condition, CONTINUE AT ANY
TestParameter, Measurement.PostOutput.Value, START
TestParameter, Measurement.PostOutput.Retention, OFF
TestParameter, Measurement.Bias.Source, 3, 0, -2
TestParameter, Measurement.Bias.Compliance, 0.1, 0.1, 0.1
TestParameter, Measurement.Monitor.Unit, SMU3:MP, SMU4:MP, SMU1:MP
TestParameter, Measurement.Monitor.Adc, HR ADC, HR ADC, HR ADC
TestParameter, Measurement.Monitor.RangingMode, AUTO, AUTO, AUTO
TestParameter, Measurement.Monitor.RangeBoundary, , , 
TestParameter, Measurement.Monitor.RangeRating, BY FULL RANGE, BY FULL RANGE, BY FULL RANGE
TestParameter, Measurement.Monitor.RangeRatingCoeff, 50, 50, 50
TestParameter, Measurement.Timing.Hold, 0.5
TestParameter, Measurement.Timing.Delay, 0.05
TestParameter, Measurement.Adc.HighResolution.AutoZero, OFF
TestParameter, Measurement.Adc.HighResolution.Mode, AUTO
TestParameter, Measurement.Adc.HighResolution.Coeff, 1
TestParameter, Measurement.Ag16440ASelector.SemiconductorRelay.Channel1, DEFAULT
TestParameter, Measurement.Ag16440ASelector.SemiconductorRelay.Channel3, DEFAULT
TestParameter, Function.User.Name, absID, sqrtID, gm2, absIG
TestParameter, Function.User.Unit, A, A, A/V, A
TestParameter, Function.User.Definition, abs(ID), sqrt(abs(ID)), (delta(sqrtID)/delta(VG))^2, abs(IG)
TestParameter, Output.Graph.Enabled, true
TestParameter, Output.Graph.XAxis.Data, VG
TestParameter, Output.Graph.XAxis.Scale, Linear
TestParameter, Output.Graph.XAxis.Left, -5
TestParameter, Output.Graph.XAxis.Right, 7
TestParameter, Output.Graph.YAxis.Data, ID, absIG, gm2
TestParameter, Output.Graph.YAxis.Scale, Log, Log, Linear
TestParameter, Output.Graph.YAxis.Bottom, 1E-14, 1E-14, 0
TestParameter, Output.Graph.YAxis.Top, 0.01, 0.01, 1E-05
TestParameter, Output.Graph.YAxis.Group, , , 
TestParameter, Output.List.Data, VG, IG, VD, ID, VS, IS, sqrtID, gm2, absIG
TestParameter, AutoAnalysis.Interpolation, false
TestParameter, AutoAnalysis.Line1.Enabled, false
TestParameter, AutoAnalysis.Line1.Type, 1
TestParameter, AutoAnalysis.Line1.Fix, True
TestParameter, AutoAnalysis.Line1.YAxis, 0
TestParameter, AutoAnalysis.Line1.Point1.Type, 0
TestParameter, AutoAnalysis.Line1.Point1.XY.X, 
TestParameter, AutoAnalysis.Line1.Point1.XY.Y, 
TestParameter, AutoAnalysis.Line1.Point1.Data.Var, 
TestParameter, AutoAnalysis.Line1.Point1.Data.Condition, 
TestParameter, AutoAnalysis.Line1.Point1.Data.Start, false
TestParameter, AutoAnalysis.Line1.Point1.Data.StartVar, 
TestParameter, AutoAnalysis.Line1.Point1.Data.StartCondition, 
TestParameter, AutoAnalysis.Line1.Point2.Type, 0
TestParameter, AutoAnalysis.Line1.Point2.XY.X, 
TestParameter, AutoAnalysis.Line1.Point2.XY.Y, 
TestParameter, AutoAnalysis.Line1.Point2.Data.Var, 
TestParameter, AutoAnalysis.Line1.Point2.Data.Condition, 
TestParameter, AutoAnalysis.Line1.Point2.Data.Start, false
TestParameter, AutoAnalysis.Line1.Point2.Data.StartVar, 
TestParameter, AutoAnalysis.Line1.Point2.Data.StartCondition, 
TestParameter, AutoAnalysis.Line1.GradientExpr, 0
TestParameter, AutoAnalysis.Line2.Enabled, false
TestParameter, AutoAnalysis.Line2.Type, 1
TestParameter, AutoAnalysis.Line2.Fix, True
TestParameter, AutoAnalysis.Line2.YAxis, 0
TestParameter, AutoAnalysis.Line2.Point1.Type, 0
TestParameter, AutoAnalysis.Line2.Point1.XY.X, 
TestParameter, AutoAnalysis.Line2.Point1.XY.Y, 
TestParameter, AutoAnalysis.Line2.Point1.Data.Var, 
TestParameter, AutoAnalysis.Line2.Point1.Data.Condition, 
TestParameter, AutoAnalysis.Line2.Point1.Data.Start, false
TestParameter, AutoAnalysis.Line2.Point1.Data.StartVar, 
TestParameter, AutoAnalysis.Line2.Point1.Data.StartCondition, 
TestParameter, AutoAnalysis.Line2.Point2.Type, 0
TestParameter, AutoAnalysis.Line2.Point2.XY.X, 
TestParameter, AutoAnalysis.Line2.Point2.XY.Y, 
TestParameter, AutoAnalysis.Line2.Point2.Data.Var, 
TestParameter, AutoAnalysis.Line2.Point2.Data.Condition, 
TestParameter, AutoAnalysis.Line2.Point2.Data.Start, false
TestParameter, AutoAnalysis.Line2.Point2.Data.StartVar, 
TestParameter, AutoAnalysis.Line2.Point2.Data.StartCondition, 
TestParameter, AutoAnalysis.Line2.GradientExpr, 0
TestParameter, AutoAnalysis.Marker.Enabled, false
TestParameter, AutoAnalysis.Marker.Data.Var, 
TestParameter, AutoAnalysis.Marker.Data.Condition, 
TestParameter, AutoAnalysis.Marker.Data.Start, false
TestParameter, AutoAnalysis.Marker.Data.StartVar, 
TestParameter, AutoAnalysis.Marker.Data.StartCondition, 
MetaData, TestRecord.EntryPoint, true
MetaData, TestRecord.RecordTime, 06/18/2019 13:18:34
MetaData, TestRecord.TestTarget, 6-41
MetaData, TestRecord.IterationIndex, 3
MetaData, TestRecord.Preservation, true
MetaData, TestRecord.Flag, 
MetaData, TestRecord.Remarks, good
MetaData, TestRecord.LinkKey, 592e829f-3244-45a7-8bbc-fbcaffec6f34
Dimension1, 101, 101, 101, 101, 101, 101, 101, 101, 101, 101
Dimension2, 1, 1, 1, 1, 1, 1, 1, 1, 1, 1
DataName, VG, VD, VS, ID, IS, IG, absID, sqrtID, gm2, absIG
DataValue, -2, 3, 0, 3.8884E-11, 4.8200000000000007E-13, -3.8568000000000004E-11, 3.8884E-11, 6.2357036491481862E-06, 8.5159573906574321E-12, 3.8568000000000004E-11
DataValue, -1.9500000000000002, 3, 0, 4.0725E-11, -9.55E-13, -3.8354000000000004E-11, 4.0725E-11, 6.3816142158547939E-06, 1.1922359893548044E-11, 3.8354000000000004E-11
DataValue, -1.9000000000000001, 3, 0, 3.4697E-11, -4.3870000000000006E-12, -3.3441000000000005E-11, 3.4697E-11, 5.8904159445662244E-06, 7.7997138705020335E-11, 3.3441000000000005E-11
DataValue, -1.85, 3, 0, 3.0233E-11, -9.8300000000000015E-13, -3.027E-11, 3.0233E-11, 5.4984543282635351E-06, 2.9748110364989647E-11, 3.027E-11
DataValue, -1.8, 3, 0, 2.8569000000000002E-11, 2.69E-13, -2.8617000000000004E-11, 2.8569000000000002E-11, 5.3449976613652511E-06, 5.53568576456694E-12, 2.8617000000000004E-11
DataValue, -1.75, 3, 0, 2.7701E-11, -6.4900000000000006E-13, -2.5519E-11, 2.7701E-11, 5.2631739473439406E-06, 3.8575167888389381E-12, 2.5519E-11
DataValue, -1.7000000000000002, 3, 0, 2.6508000000000003E-11, -2.7880000000000002E-12, -2.5488000000000003E-11, 2.6508000000000003E-11, 5.1485920405485615E-06, 5.3442496514972706E-12, 2.5488000000000003E-11
DataValue, -1.6500000000000001, 3, 0, 2.5321000000000002E-11, -1.6330000000000002E-12, -2.4571E-11, 2.5321000000000002E-11, 5.0319976152617558E-06, 3.0876102737247649E-11, 2.4571E-11
DataValue, -1.6, 3, 0, 2.1095000000000003E-11, -2.8900000000000003E-13, -2.1485E-11, 2.1095000000000003E-11, 4.5929293484659662E-06, 4.20116151924241E-11, 2.1485E-11
DataValue, -1.55, 3, 0, 1.9218E-11, -9.23E-13, -1.9263000000000003E-11, 1.9218E-11, 4.3838339384607168E-06, 3.8255604521058149E-11, 1.9263000000000003E-11
DataValue, -1.5, 3, 0, 1.5796E-11, -7.3700000000000009E-13, -1.8695000000000003E-11, 1.5796E-11, 3.9744181964156721E-06, 4.6337315846972209E-12, 1.8695000000000003E-11
DataValue, -1.4500000000000002, 3, 0, 1.7377000000000002E-11, -1.5970000000000002E-12, -1.7929E-11, 1.7377000000000002E-11, 4.1685728972875122E-06, 4.6418933726249218E-12, 1.7929E-11
DataValue, -1.4000000000000001, 3, 0, 1.7555E-11, -1.3610000000000002E-12, -1.6204000000000002E-11, 1.7555E-11, 4.1898687330273247E-06, 2.7788335403457249E-12, 1.6204000000000002E-11
DataValue, -1.35, 3, 0, 1.6015000000000002E-11, -8.92E-13, -1.5324E-11, 1.6015000000000002E-11, 4.0018745607527487E-06, 6.4394011422463123E-13, 1.5324E-11
DataValue, -1.3, 3, 0, 1.6889E-11, -1.6030000000000001E-12, -1.5078E-11, 1.6889E-11, 4.1096228537421781E-06, 4.5344854562498914E-12, 1.5078E-11
DataValue, -1.25, 3, 0, 1.4356E-11, -1.784E-12, -1.4080000000000001E-11, 1.4356E-11, 3.7889312477267253E-06, 1.0157776780088625E-11, 1.4080000000000001E-11
DataValue, -1.2, 3, 0, 1.4371000000000002E-11, -1.3780000000000002E-12, -1.3087E-11, 1.4371000000000002E-11, 3.7909101809459957E-06, 5.5650871376667525E-12, 1.3087E-11
DataValue, -1.1500000000000001, 3, 0, 1.2624000000000001E-11, -1E-12, -1.2162000000000001E-11, 1.2624000000000001E-11, 3.5530268785923928E-06, 8.88399672534267E-12, 1.2162000000000001E-11
DataValue, -1.1, 3, 0, 1.22E-11, -1.6640000000000002E-12, -1.169E-11, 1.22E-11, 3.4928498393145964E-06, 3.0595655511578283E-13, 1.169E-11
DataValue, -1.05, 3, 0, 1.2234000000000001E-11, -1.8610000000000002E-12, -1.1283E-11, 1.2234000000000001E-11, 3.4977135388707865E-06, 2.4082690144914624E-12, 1.1283E-11
DataValue, -1, 3, 0, 1.1140000000000001E-11, -1.228E-12, -1.0706E-11, 1.1140000000000001E-11, 3.3376638536557275E-06, 3.7850592275685881E-15, 1.0706E-11
DataValue, -0.95000000000000007, 3, 0, 1.2191000000000001E-11, -1.533E-12, -9.9850000000000016E-12, 1.2191000000000001E-11, 3.491561255369867E-06, 5.69451105286618E-12, 9.9850000000000016E-12
DataValue, -0.9, 3, 0, 9.6040000000000015E-12, -9.6800000000000012E-13, -9.705E-12, 9.6040000000000015E-12, 3.099032106965012E-06, 1.0821953923924566E-11, 9.705E-12
DataValue, -0.85000000000000009, 3, 0, 1.0002E-11, -2.0250000000000004E-12, -9.356E-12, 1.0002E-11, 3.162593872124589E-06, 9.0892690518598323E-15, 9.356E-12
DataValue, -0.8, 3, 0, 9.545000000000001E-12, -1.786E-12, -8.7810000000000015E-12, 9.545000000000001E-12, 3.0894983411550816E-06, 7.7025742289720141E-11, 8.7810000000000015E-12
DataValue, -0.75, 3, 0, 5.2210000000000005E-12, -1.2460000000000001E-12, -8.673E-12, 5.2210000000000005E-12, 2.2849507653339056E-06, 2.8849561049977966E-13, 8.673E-12
DataValue, -0.70000000000000007, 3, 0, 9.2160000000000011E-12, -2.1040000000000003E-12, -7.946E-12, 9.2160000000000011E-12, 3.0357865537616444E-06, 4.1435072186961417E-11, 7.946E-12
DataValue, -0.65, 3, 0, 8.5770000000000011E-12, -2.264E-12, -7.7320000000000014E-12, 8.5770000000000011E-12, 2.9286515668477875E-06, 3.1300795509035592E-15, 7.7320000000000014E-12
DataValue, -0.6, 3, 0, 9.25E-12, -1.5910000000000002E-12, -7.414E-12, 9.25E-12, 3.04138126514911E-06, 1.5290812068522817E-12, 7.414E-12
DataValue, -0.55, 3, 0, 7.868E-12, -1.3500000000000001E-12, -7.112E-12, 7.868E-12, 2.8049955436684744E-06, 3.7653576269778168E-11, 7.112E-12
DataValue, -0.5, 3, 0, 5.8940000000000005E-12, -1.375E-12, -6.423E-12, 5.8940000000000005E-12, 2.4277561656805651E-06, 3.6219035899758188E-13, 6.423E-12
DataValue, -0.45, 3, 0, 7.5340000000000008E-12, -9.314E-12, -5.5490000000000007E-12, 7.5340000000000008E-12, 2.7448132905536581E-06, 1.0935284920496373E-11, 5.5490000000000007E-12
DataValue, -0.4, 3, 0, 7.6090000000000012E-12, 1.7850000000000002E-12, -6.7770000000000007E-12, 7.6090000000000012E-12, 2.758441589013623E-06, 1.3484278366215816E-11, 6.7770000000000007E-12
DataValue, -0.35000000000000003, 3, 0, 5.653E-12, -5.1200000000000008E-12, -5.835E-12, 5.653E-12, 2.3776038357977136E-06, 2.2988089946215442E-11, 5.835E-12
DataValue, -0.3, 3, 0, 1.0484000000000001E-11, -4.743E-12, -6.216E-12, 1.0484000000000001E-11, 3.2379005543716133E-06, 4.978379723843168E-11, 6.216E-12
DataValue, -0.25, 3, 0, 9.5060000000000009E-12, -3.678E-12, -6.3860000000000005E-12, 9.5060000000000009E-12, 3.0831801763763338E-06, 4.5998233439101077E-11, 6.3860000000000005E-12
DataValue, -0.2, 3, 0, 1.5336E-11, -1.1099E-11, -5.1660000000000004E-12, 1.5336E-11, 3.9161205292993727E-06, 2.504112408978723E-10, 5.1660000000000004E-12
DataValue, -0.15, 3, 0, 2.1768000000000002E-11, -1.8695000000000003E-11, -4.978E-12, 2.1768000000000002E-11, 4.6656189300027492E-06, 3.9300628693689548E-10, 4.978E-12
DataValue, -0.1, 3, 0, 3.4793000000000003E-11, -2.8396E-11, -4.964E-12, 3.4793000000000003E-11, 5.898559146096613E-06, 8.1807628270292029E-10, 4.964E-12
DataValue, -0.05, 3, 0, 5.6638000000000006E-11, -4.8918000000000006E-11, -5.0990000000000008E-12, 5.6638000000000006E-11, 7.5258222142168628E-06, 1.2163359884988337E-09, 5.0990000000000008E-12
DataValue, 0, 3, 0, 8.8100000000000011E-11, -7.7848E-11, -5.114E-12, 8.8100000000000011E-11, 9.3861600242058526E-06, 1.5025568768750605E-09, 5.114E-12
DataValue, 0.05, 3, 0, 1.30008E-10, -1.20744E-10, -4.7500000000000006E-12, 1.30008E-10, 1.1402105068801988E-05, 1.9892840972706349E-09, 4.7500000000000006E-12
DataValue, 0.1, 3, 0, 1.9172E-10, -1.8026100000000002E-10, -4.509E-12, 1.9172E-10, 1.3846299144536781E-05, 2.611252898745687E-09, 4.509E-12
DataValue, 0.15, 3, 0, 2.7265100000000004E-10, -2.57654E-10, -4.293E-12, 2.7265100000000004E-10, 1.6512147043918912E-05, 2.9929845404468828E-09, 4.293E-12
DataValue, 0.2, 3, 0, 3.73151E-10, -3.5547800000000003E-10, -4.0270000000000005E-12, 3.73151E-10, 1.9317116762084347E-05, 3.2788573561914812E-09, 4.0270000000000005E-12
DataValue, 0.25, 3, 0, 4.94541E-10, -4.73365E-10, -3.657E-12, 4.94541E-10, 2.2238277811017652E-05, 3.5000654630385131E-09, 3.657E-12
DataValue, 0.3, 3, 0, 6.36717E-10, -6.1074600000000005E-10, -3.5830000000000004E-12, 6.36717E-10, 2.5233251871290789E-05, 3.7300668603832293E-09, 3.5830000000000004E-12
DataValue, 0.35000000000000003, 3, 0, 8.034790000000001E-10, -7.7021200000000009E-10, -3.396E-12, 8.034790000000001E-10, 2.8345705142049298E-05, 3.6120525602279457E-09, 3.396E-12
DataValue, 0.4, 3, 0, 9.76143E-10, -9.0555200000000006E-10, -3.4750000000000004E-12, 9.76143E-10, 3.1243287279030038E-05, 2.5673144661145868E-09, 3.4750000000000004E-12
DataValue, 0.45, 3, 0, 1.1164E-09, -1.07325E-09, -3.301E-12, 1.1164E-09, 3.3412572484021639E-05, 4.057361796537091E-09, 3.301E-12
DataValue, 0.5, 3, 0, 1.41474E-09, -1.38973E-09, -2.9390000000000003E-12, 1.41474E-09, 3.7613029657287646E-05, 6.69375587430176E-09, 2.9390000000000003E-12
DataValue, 0.55, 3, 0, 1.73007E-09, -1.69573E-09, -2.786E-12, 1.73007E-09, 4.1594110159973369E-05, 5.9050489633349477E-09, 2.786E-12
DataValue, 0.6, 3, 0, 2.05186E-09, -2.02297E-09, -2.6930000000000003E-12, 2.05186E-09, 4.5297461297516445E-05, 5.544558763784774E-09, 2.6930000000000003E-12
DataValue, 0.65, 3, 0, 2.40495E-09, -2.3492E-09, -2.5130000000000003E-12, 2.40495E-09, 4.9040289558688372E-05, 5.4069252056714077E-09, 2.5130000000000003E-12
DataValue, 0.70000000000000007, 3, 0, 2.77209E-09, -2.71346E-09, -2.474E-12, 2.77209E-09, 5.2650641021738761E-05, 5.1833577350127817E-09, 2.474E-12
DataValue, 0.75, 3, 0, 3.16292E-09, -3.09401E-09, -2.0950000000000003E-12, 3.16292E-09, 5.6239843527520594E-05, 4.7704027599244634E-09, 2.0950000000000003E-12
DataValue, 0.8, 3, 0, 3.54709E-09, -3.49756E-09, -1.9030000000000003E-12, 3.54709E-09, 5.9557451255069674E-05, 5.0089218775931259E-09, 1.9030000000000003E-12
DataValue, 0.85000000000000009, 3, 0, 4.00907E-09, -3.93125E-09, -2.0120000000000003E-12, 4.00907E-09, 6.3317217247759716E-05, 5.1215353648569292E-09, 2.0120000000000003E-12
DataValue, 0.9, 3, 0, 4.45075E-09, -4.3407E-09, -1.659E-12, 4.45075E-09, 6.6713941571458656E-05, 4.6746109057071423E-09, 1.659E-12
DataValue, 0.95000000000000007, 3, 0, 4.92163E-09, -4.83483E-09, -1.5800000000000001E-12, 4.92163E-09, 7.0154329873501039E-05, 4.0681334059048312E-09, 1.5800000000000001E-12
DataValue, 1, 3, 0, 5.34246E-09, -5.22834E-09, -1.3480000000000001E-12, 5.34246E-09, 7.3092133639674248E-05, 3.2498314385388971E-09, 1.3480000000000001E-12
DataValue, 1.05, 3, 0, 5.75399E-09, -5.68502E-09, -1.178E-12, 5.75399E-09, 7.5855059158898562E-05, 3.2122003293716423E-09, 1.178E-12
DataValue, 1.1, 3, 0, 6.2031E-09, -6.01451E-09, -1.189E-12, 6.2031E-09, 7.8759761299790646E-05, 3.2668613393100629E-09, 1.189E-12
DataValue, 1.1500000000000001, 3, 0, 6.65378E-09, -6.50958E-09, -1.0180000000000001E-12, 6.65378E-09, 8.1570705525942335E-05, 3.4432177114931925E-09, 1.0180000000000001E-12
DataValue, 1.2, 3, 0, 7.16184E-09, -6.94255E-09, -7.96E-13, 7.16184E-09, 8.4627655054361517E-05, 2.2507273368285927E-09, 7.96E-13
DataValue, 1.25, 3, 0, 7.45026E-09, -7.26717E-09, -7.3E-13, 7.45026E-09, 8.6314888634580309E-05, 1.4601571149627758E-09, 7.3E-13
DataValue, 1.3, 3, 0, 7.8232E-09, -7.58511E-09, -6.0000000000000007E-13, 7.8232E-09, 8.8448855278064508E-05, 1.9735140949384911E-09, 6.0000000000000007E-13
DataValue, 1.35, 3, 0, 8.23689E-09, -8.02047E-09, -4.4000000000000004E-13, 8.23689E-09, 9.0757313754870458E-05, 1.4116281685271447E-09, 4.4000000000000004E-13
DataValue, 1.4000000000000001, 3, 0, 8.50195E-09, -8.39131E-09, -4.6000000000000006E-13, 8.50195E-09, 9.2206019326289109E-05, 8.38950098915235E-10, 4.6000000000000006E-13
DataValue, 1.4500000000000002, 3, 0, 8.77103E-09, -8.3574E-09, -3.5800000000000004E-13, 8.77103E-09, 9.3653777286343342E-05, 5.8353571080662192E-10, 3.5800000000000004E-13
DataValue, 1.5, 3, 0, 8.95326E-09, -8.36929E-09, -1.18E-13, 8.95326E-09, 9.4621667708828713E-05, 7.8925952001722361E-10, 1.18E-13
DataValue, 1.55, 3, 0, 9.30514E-09, -8.78511E-09, 1.6E-14, 9.30514E-09, 9.6463153587263568E-05, 1.7543529446142248E-11, 1.6E-14
DataValue, 1.6, 3, 0, 9.0327E-09, -8.63253E-09, -2.2E-14, 9.0327E-09, 9.50405176753578E-05, 1.9211821600364338E-10, 2.2E-14
DataValue, 1.6500000000000001, 3, 0, 9.57447E-09, -9.20924E-09, 1.64E-13, 9.57447E-09, 9.7849220742936928E-05, 2.5608335628984213E-10, 1.64E-13
DataValue, 1.7000000000000002, 3, 0, 9.33944E-09, -8.92076E-09, 1.6100000000000002E-13, 9.33944E-09, 9.6640778142562575E-05, 6.1846482541565193E-12, 1.6100000000000002E-13
DataValue, 1.75, 3, 0, 9.6231999999999988E-09, -9.27655E-09, 4.09E-13, 9.6231999999999988E-09, 9.8097910273359029E-05, 2.6372815674373287E-09, 4.09E-13
DataValue, 1.8, 3, 0, 1.03584E-08, -9.8092E-09, 4.2700000000000005E-13, 1.03584E-08, 0.00010177622512158721, 5.2860040284740843E-09, 4.2700000000000005E-13
DataValue, 1.85, 3, 0, 1.11025E-08, -1.08101E-08, 5.2400000000000009E-13, 1.11025E-08, 0.00010536840133550476, 4.9641151227786922E-09, 5.2400000000000009E-13
DataValue, 1.9000000000000001, 3, 0, 1.1842199999999999E-08, -1.14786E-08, 6.6600000000000009E-13, 1.1842199999999999E-08, 0.00010882187280138124, 4.4703260777729863E-09, 6.6600000000000009E-13
DataValue, 1.9500000000000002, 3, 0, 1.25562E-08, -1.20155E-08, 9.38E-13, 1.25562E-08, 0.00011205445104947862, 3.7901088741766905E-09, 9.38E-13
DataValue, 2, 3, 0, 1.3219999999999999E-08, -1.28873E-08, 9.3700000000000015E-13, 1.3219999999999999E-08, 0.00011497825881443848, 2.8490262501517191E-09, 9.3700000000000015E-13
DataValue, 2.05, 3, 0, 1.3780899999999999E-08, -1.3636399999999999E-08, 9.3900000000000014E-13, 1.3780899999999999E-08, 0.000117392078097289, 2.1722885462306E-09, 9.3900000000000014E-13
DataValue, 2.1, 3, 0, 1.43135E-08, -1.3866499999999999E-08, 1.1460000000000002E-12, 1.43135E-08, 0.00011963904045084948, 1.6920695754783292E-09, 1.1460000000000002E-12
DataValue, 2.15, 3, 0, 1.4763599999999999E-08, -1.4563999999999999E-08, 1.166E-12, 1.4763599999999999E-08, 0.0001215055554285482, 1.7392992551014527E-09, 1.166E-12
DataValue, 2.2, 3, 0, 1.5328799999999997E-08, -1.51828E-08, 1.37E-12, 1.5328799999999997E-08, 0.00012380953113553091, 4.4142292381760795E-09, 1.37E-12
DataValue, 2.25, 3, 0, 1.64223E-08, -1.59624E-08, 1.45E-12, 1.64223E-08, 0.00012814952204358781, 4.0244305071023341E-09, 1.45E-12
DataValue, 2.3000000000000003, 3, 0, 1.69399E-08, -1.68456E-08, 1.454E-12, 1.69399E-08, 0.00013015337106659974, 1.721423440194957E-09, 1.454E-12
DataValue, 2.35, 3, 0, 1.75029E-08, -1.72328E-08, 1.6560000000000002E-12, 1.75029E-08, 0.00013229852606888709, 2.581148462077609E-09, 1.6560000000000002E-12
