
SetupTitle, Transfer lin
PrimitiveTest, I/V Sweep
TestParameter, Context.MainFrame, 4155C
TestParameter, Channel.UnitType, SMU, SMU, SMU
TestParameter, Channel.Unit, SMU3:MP, SMU4:MP, SMU1:MP
TestParameter, Channel.IName, ID, IS, IG
TestParameter, Channel.VName, VD, VS, VG
TestParameter, Channel.Mode, V, COMMON, V
TestParameter, Channel.Func, CONST, CONST, VAR1
TestParameter, Channel.Index, 
TestParameter, Channel.Time, 
TestParameter, Measurement.Port.Unit, SMU3:MP, SMU4:MP, SMU1:MP
TestParameter, Measurement.Port.SeriesResistor, NONE, NONE, NONE
TestParameter, Measurement.Port.Filter, ON, ON, ON
TestParameter, Measurement.Primary.Locus, Double
TestParameter, Measurement.Primary.Scale, LINEAR
TestParameter, Measurement.Primary.Start, -2
TestParameter, Measurement.Primary.Stop, 3
TestParameter, Measurement.Primary.Step, 0.05
TestParameter, Measurement.Primary.Compliance, 0.001
TestParameter, Measurement.Primary.PowerCompliance, 0
TestParameter, Measurement.Aborting.Condition, CONTINUE AT ANY
TestParameter, Measurement.PostOutput.Value, START
TestParameter, Measurement.PostOutput.Retention, OFF
TestParameter, Measurement.Bias.Source, 0.1, 0, -2
TestParameter, Measurement.Bias.Compliance, 0.001, 0.1, 0.001
TestParameter, Measurement.Monitor.Unit, SMU3:MP, SMU4:MP, SMU1:MP
TestParameter, Measurement.Monitor.Adc, HR ADC, HR ADC, HR ADC
TestParameter, Measurement.Monitor.RangingMode, AUTO, AUTO, AUTO
TestParameter, Measurement.Monitor.RangeBoundary, , , 
TestParameter, Measurement.Monitor.RangeRating, BY FULL RANGE, BY FULL RANGE, BY FULL RANGE
TestParameter, Measurement.Monitor.RangeRatingCoeff, 50, 50, 50
TestParameter, Measurement.Timing.Hold, 0.5
TestParameter, Measurement.Timing.Delay, 0.05
TestParameter, Measurement.Adc.HighResolution.AutoZero, OFF
TestParameter, Measurement.Adc.HighResolution.Mode, AUTO
TestParameter, Measurement.Adc.HighResolution.Coeff, 1
TestParameter, Measurement.Ag16440ASelector.SemiconductorRelay.Channel1, DEFAULT
TestParameter, Measurement.Ag16440ASelector.SemiconductorRelay.Channel3, DEFAULT
TestParameter, Function.User.Name, absID, sqrtID, gm2, absIG
TestParameter, Function.User.Unit, A, A, A/V, A
TestParameter, Function.User.Definition, abs(ID), sqrt(abs(ID)), (delta(sqrtID)/delta(VG))^2, abs(IG)
TestParameter, Output.Graph.Enabled, true
TestParameter, Output.Graph.XAxis.Data, VG
TestParameter, Output.Graph.XAxis.Scale, Linear
TestParameter, Output.Graph.XAxis.Left, -5
TestParameter, Output.Graph.XAxis.Right, 7
TestParameter, Output.Graph.YAxis.Data, ID, absIG, gm2
TestParameter, Output.Graph.YAxis.Scale, Log, Log, Linear
TestParameter, Output.Graph.YAxis.Bottom, 1E-14, 1E-14, 0
TestParameter, Output.Graph.YAxis.Top, 0.01, 0.01, 1E-05
TestParameter, Output.Graph.YAxis.Group, , , 
TestParameter, Output.List.Data, VG, IG, VD, ID, VS, IS, sqrtID, gm2, absIG
TestParameter, AutoAnalysis.Interpolation, false
TestParameter, AutoAnalysis.Line1.Enabled, false
TestParameter, AutoAnalysis.Line1.Type, 1
TestParameter, AutoAnalysis.Line1.Fix, True
TestParameter, AutoAnalysis.Line1.YAxis, 0
TestParameter, AutoAnalysis.Line1.Point1.Type, 0
TestParameter, AutoAnalysis.Line1.Point1.XY.X, 
TestParameter, AutoAnalysis.Line1.Point1.XY.Y, 
TestParameter, AutoAnalysis.Line1.Point1.Data.Var, 
TestParameter, AutoAnalysis.Line1.Point1.Data.Condition, 
TestParameter, AutoAnalysis.Line1.Point1.Data.Start, false
TestParameter, AutoAnalysis.Line1.Point1.Data.StartVar, 
TestParameter, AutoAnalysis.Line1.Point1.Data.StartCondition, 
TestParameter, AutoAnalysis.Line1.Point2.Type, 0
TestParameter, AutoAnalysis.Line1.Point2.XY.X, 
TestParameter, AutoAnalysis.Line1.Point2.XY.Y, 
TestParameter, AutoAnalysis.Line1.Point2.Data.Var, 
TestParameter, AutoAnalysis.Line1.Point2.Data.Condition, 
TestParameter, AutoAnalysis.Line1.Point2.Data.Start, false
TestParameter, AutoAnalysis.Line1.Point2.Data.StartVar, 
TestParameter, AutoAnalysis.Line1.Point2.Data.StartCondition, 
TestParameter, AutoAnalysis.Line1.GradientExpr, 0
TestParameter, AutoAnalysis.Line2.Enabled, false
TestParameter, AutoAnalysis.Line2.Type, 1
TestParameter, AutoAnalysis.Line2.Fix, True
TestParameter, AutoAnalysis.Line2.YAxis, 0
TestParameter, AutoAnalysis.Line2.Point1.Type, 0
TestParameter, AutoAnalysis.Line2.Point1.XY.X, 
TestParameter, AutoAnalysis.Line2.Point1.XY.Y, 
TestParameter, AutoAnalysis.Line2.Point1.Data.Var, 
TestParameter, AutoAnalysis.Line2.Point1.Data.Condition, 
TestParameter, AutoAnalysis.Line2.Point1.Data.Start, false
TestParameter, AutoAnalysis.Line2.Point1.Data.StartVar, 
TestParameter, AutoAnalysis.Line2.Point1.Data.StartCondition, 
TestParameter, AutoAnalysis.Line2.Point2.Type, 0
TestParameter, AutoAnalysis.Line2.Point2.XY.X, 
TestParameter, AutoAnalysis.Line2.Point2.XY.Y, 
TestParameter, AutoAnalysis.Line2.Point2.Data.Var, 
TestParameter, AutoAnalysis.Line2.Point2.Data.Condition, 
TestParameter, AutoAnalysis.Line2.Point2.Data.Start, false
TestParameter, AutoAnalysis.Line2.Point2.Data.StartVar, 
TestParameter, AutoAnalysis.Line2.Point2.Data.StartCondition, 
TestParameter, AutoAnalysis.Line2.GradientExpr, 0
TestParameter, AutoAnalysis.Marker.Enabled, false
TestParameter, AutoAnalysis.Marker.Data.Var, 
TestParameter, AutoAnalysis.Marker.Data.Condition, 
TestParameter, AutoAnalysis.Marker.Data.Start, false
TestParameter, AutoAnalysis.Marker.Data.StartVar, 
TestParameter, AutoAnalysis.Marker.Data.StartCondition, 
MetaData, TestRecord.EntryPoint, true
MetaData, TestRecord.RecordTime, 06/18/2019 15:15:08
MetaData, TestRecord.TestTarget, 4-36
MetaData, TestRecord.IterationIndex, 1
MetaData, TestRecord.Preservation, true
MetaData, TestRecord.Flag, 
MetaData, TestRecord.Remarks, some leak
MetaData, TestRecord.LinkKey, c2906b53-740f-4368-9c24-248bdbb23707
Dimension1, 202, 202, 202, 202, 202, 202, 202, 202, 202, 202
Dimension2, 1, 1, 1, 1, 1, 1, 1, 1, 1, 1
DataName, VG, VD, VS, ID, IS, IG, absID, sqrtID, gm2, absIG
DataValue, -2, 0.1, 0, 9.96E-13, 1.3920000000000001E-12, -1.22E-12, 9.96E-13, 9.97997995989972E-07, 4.0336969783512987E-11, 1.22E-12
DataValue, -1.9500000000000002, 0.1, 0, 4.63E-13, 8.1000000000000008E-14, -1.314E-12, 4.63E-13, 6.8044103344816E-07, 2.8724364130651398E-11, 1.314E-12
DataValue, -1.9000000000000001, 0.1, 0, -2.353E-12, 1.519E-12, -1.326E-12, 2.353E-12, 1.5339491516996254E-06, 2.202659605822265E-12, 1.326E-12
DataValue, -1.85, 0.1, 0, 6.870000000000001E-13, 9.34E-13, -7.3E-13, 6.870000000000001E-13, 8.2885463140408414E-07, 1.0649272744444811E-10, 7.3E-13
DataValue, -1.8, 0.1, 0, -2.5200000000000004E-13, 2.17E-13, -5.4900000000000008E-13, 2.5200000000000004E-13, 5.0199601592044536E-07, 3.5254498950948267E-12, 5.4900000000000008E-13
DataValue, -1.75, 0.1, 0, 4.11E-13, -1.082E-12, -7.9200000000000006E-13, 4.11E-13, 6.4109281699298422E-07, 3.0011135871270474E-13, 7.9200000000000006E-13
DataValue, -1.7000000000000002, 0.1, 0, 2E-13, 9.38E-13, -7.3800000000000009E-13, 2E-13, 4.4721359549995792E-07, 8.6940001499925263E-12, 7.3800000000000009E-13
DataValue, -1.6500000000000001, 0.1, 0, -8.760000000000001E-13, 1.2000000000000002E-13, -7.31E-13, 8.760000000000001E-13, 9.3594871654380724E-07, 2.0849737787081868E-12, 7.31E-13
DataValue, -1.6, 0.1, 0, -3.5E-13, 6.7100000000000007E-13, -5.5100000000000008E-13, 3.5E-13, 5.9160797830996166E-07, 4.5586887007690157E-11, 5.5100000000000008E-13
DataValue, -1.55, 0.1, 0, -6.8E-14, -8.8E-14, -3.18E-13, 6.8E-14, 2.6076809620810594E-07, 6.393178987242757E-13, 3.18E-13
DataValue, -1.5, 0.1, 0, -4.5100000000000005E-13, 1.93E-13, -3.51E-13, 4.5100000000000005E-13, 6.7156533561523263E-07, 3.1168862729009054E-13, 3.51E-13
DataValue, -1.4500000000000002, 0.1, 0, -4.2000000000000004E-14, 2.5E-13, -5.7600000000000007E-13, 4.2000000000000004E-14, 2.0493901531919199E-07, 1.0959246112832478E-10, 5.7600000000000007E-13
DataValue, -1.4000000000000001, 0.1, 0, 2.953E-12, -2.5400000000000003E-13, -4.94E-13, 2.953E-12, 1.7184295155751953E-06, 1.6633728703362836E-10, 4.94E-13
DataValue, -1.35, 0.1, 0, 2.234E-12, 1.5000000000000002E-13, -4.4000000000000004E-13, 2.234E-12, 1.4946571513226704E-06, 2.0763103230085757E-10, 4.4000000000000004E-13
DataValue, -1.3, 0.1, 0, -7.7E-14, 1.9E-14, -9.9000000000000007E-14, 7.7E-14, 2.7748873851023217E-07, 8.7962023564331756E-11, 9.9000000000000007E-14
DataValue, -1.25, 0.1, 0, -3.1000000000000004E-13, 5.64E-13, -3.18E-13, 3.1000000000000004E-13, 5.5677643628300226E-07, 1.3334330232000385E-11, 3.18E-13
DataValue, -1.2, 0.1, 0, -4.13E-13, -4.0800000000000003E-13, -2.59E-13, 4.13E-13, 6.4265076052238513E-07, 1.2784480554288812E-11, 2.59E-13
DataValue, -1.1500000000000001, 0.1, 0, 8.3600000000000007E-13, 5.5500000000000006E-13, -1.34E-13, 8.3600000000000007E-13, 9.1433035605299692E-07, 5.9488536713567881E-12, 1.34E-13
DataValue, -1.1, 0.1, 0, -1.59E-13, 1.24E-13, -2.59E-13, 1.59E-13, 3.9874804074753774E-07, 2.723817170667956E-11, 2.59E-13
DataValue, -1.05, 0.1, 0, 1.54E-13, -3.3400000000000004E-13, -2.9E-14, 1.54E-13, 3.9242833740697167E-07, 8.47854963743684E-12, 2.9E-14
DataValue, -1, 0.1, 0, 4.76E-13, 6.1800000000000009E-13, -8.1000000000000008E-14, 4.76E-13, 6.8992753242641362E-07, 1.2792843147302962E-10, 8.1000000000000008E-14
DataValue, -0.95000000000000007, 0.1, 0, -2.3210000000000003E-12, 1.3700000000000002E-13, -2.23E-13, 2.3210000000000003E-12, 1.5234828518890524E-06, 2.5556729769937209E-11, 2.23E-13
DataValue, -0.9, 0.1, 0, -3.4E-14, -1.9800000000000002E-13, -1.69E-13, 3.4E-14, 1.8439088914585774E-07, 1.1370333815916483E-10, 1.69E-13
DataValue, -0.85000000000000009, 0.1, 0, -2.0900000000000002E-13, 5.2400000000000009E-13, -7.7E-14, 2.0900000000000002E-13, 4.5716517802649846E-07, 8.28506388182834E-12, 7.7E-14
DataValue, -0.8, 0.1, 0, -2.23E-13, -8.5000000000000011E-13, -7.8000000000000008E-14, 2.23E-13, 4.7222875812470383E-07, 3.4404901313838319E-12, 7.8000000000000008E-14
DataValue, -0.75, 0.1, 0, -4.13E-13, 3.88E-13, -5.1000000000000004E-14, 4.13E-13, 6.4265076052238513E-07, 1.2035150100320109E-11, 5.1000000000000004E-14
DataValue, -0.70000000000000007, 0.1, 0, 6.7100000000000007E-13, -7.360000000000001E-13, -1.99E-13, 6.7100000000000007E-13, 8.1914589665089576E-07, 2.7945307918622117E-11, 1.99E-13
DataValue, -0.65, 0.1, 0, 1.3000000000000001E-14, -1.0500000000000001E-13, 3.0000000000000002E-15, 1.3000000000000001E-14, 1.1401754250991381E-07, 6.42422107152267E-12, 3.0000000000000002E-15
DataValue, -0.6, 0.1, 0, -3.2000000000000005E-13, 5.1E-13, 9.3000000000000008E-14, 3.2000000000000005E-13, 5.6568542494923806E-07, 3.8373972378355964E-11, 9.3000000000000008E-14
DataValue, -0.55, 0.1, 0, -5.38E-13, -2.37E-13, -4.7E-14, 5.38E-13, 7.3348483283569E-07, 5.00000000000001E-13, 4.7E-14
DataValue, -0.5, 0.1, 0, 2.45E-13, -3.2200000000000004E-13, -6.3000000000000009E-14, 2.45E-13, 4.9497474683058325E-07, 4.9359644192347767E-13, 6.3000000000000009E-14
DataValue, -0.45, 0.1, 0, -6.4600000000000007E-13, 4.8300000000000006E-13, 9.2000000000000012E-14, 6.4600000000000007E-13, 8.0374125189640486E-07, 1.0421472953970458E-13, 9.2000000000000012E-14
DataValue, -0.4, 0.1, 0, -2.7800000000000003E-13, -4.36E-13, -4.5000000000000004E-14, 2.7800000000000003E-13, 5.2725705305856277E-07, 3.6450349924143837E-11, 4.5000000000000004E-14
DataValue, -0.35000000000000003, 0.1, 0, 4.0000000000000006E-14, -2.9800000000000004E-13, 1.6800000000000002E-13, 4.0000000000000006E-14, 2.0000000000000002E-07, 1.6313385101462947E-12, 1.6800000000000002E-13
DataValue, -0.3, 0.1, 0, -4.2900000000000004E-13, -7.32E-13, 6.2E-14, 4.2900000000000004E-13, 6.5498091575251264E-07, 5.7079586606107959E-11, 6.2E-14
DataValue, -0.25, 0.1, 0, -9.13E-13, 4.4200000000000004E-13, 8.5E-14, 9.13E-13, 9.555103348473004E-07, 4.3902896895689484E-11, 8.5E-14
DataValue, -0.2, 0.1, 0, 1.736E-12, -5.6E-14, -1.2000000000000001E-14, 1.736E-12, 1.3175735273600484E-06, 4.5011398252942746E-11, 1.2000000000000001E-14
DataValue, -0.15, 0.1, 0, 8.1000000000000008E-14, -6.9800000000000006E-13, 1.3900000000000001E-13, 8.1000000000000008E-14, 2.8460498941515418E-07, 1.9800232168201661E-12, 1.3900000000000001E-13
DataValue, -0.1, 0.1, 0, 1.385E-12, 2.7600000000000004E-13, 1.3E-13, 1.385E-12, 1.176860229593982E-06, 1.996587937760664E-11, 1.3E-13
DataValue, -0.05, 0.1, 0, 5.35E-13, -4.95E-13, 6.1E-14, 5.35E-13, 7.3143694191638966E-07, 4.5368086070981337E-13, 6.1E-14
DataValue, 0, 0.1, 0, 1.2310000000000001E-12, -1.479E-12, -4.1E-14, 1.2310000000000001E-12, 1.1095043938624128E-06, 1.377234850225086E-10, 4.1E-14
DataValue, 0.05, 0.1, 0, 3.6290000000000004E-12, -1.6120000000000002E-12, 2.3100000000000003E-13, 3.6290000000000004E-12, 1.9049934383089094E-06, 8.8211642004447986E-11, 2.3100000000000003E-13
DataValue, 0.1, 0.1, 0, -2.9E-14, -3.4940000000000003E-12, 2.5E-14, 2.9E-14, 1.7029386365926402E-07, 5.4287262614768635E-12, 2.5E-14
DataValue, 0.15, 0.1, 0, 4.5710000000000006E-12, -4.4450000000000005E-12, 2.47E-13, 4.5710000000000006E-12, 2.1379897099845923E-06, 6.4490763845257816E-10, 2.47E-13
DataValue, 0.2, 0.1, 0, 7.343E-12, -7.9150000000000009E-12, 9.9000000000000007E-14, 7.343E-12, 2.709797040370367E-06, 9.3012272030228621E-11, 9.9000000000000007E-14
DataValue, 0.25, 0.1, 0, 9.625E-12, -1.1334000000000002E-11, 2.5300000000000003E-13, 9.625E-12, 3.1024184114977141E-06, 2.0207946414062573E-10, 2.5300000000000003E-13
DataValue, 0.3, 0.1, 0, 1.7068E-11, -1.6118E-11, 2.59E-13, 1.7068E-11, 4.1313436071089514E-06, 3.7662998224768876E-10, 2.59E-13
DataValue, 0.35000000000000003, 0.1, 0, 2.5433000000000003E-11, -2.4557E-11, 1.87E-13, 2.5433000000000003E-11, 5.0431141172890393E-06, 3.8530391718948868E-10, 1.87E-13
DataValue, 0.4, 0.1, 0, 3.714E-11, -3.6254E-11, 2.0800000000000002E-13, 3.714E-11, 6.094259594077036E-06, 5.0296764016596077E-10, 2.0800000000000002E-13
DataValue, 0.45, 0.1, 0, 5.3083000000000006E-11, -5.08E-11, 2.5200000000000004E-13, 5.3083000000000006E-11, 7.28580812264501E-06, 6.1068011496146631E-10, 2.5200000000000004E-13
DataValue, 0.5, 0.1, 0, 7.3367E-11, -7.2935E-11, 2.93E-13, 7.3367E-11, 8.5654538700526543E-06, 8.853181420359785E-10, 2.93E-13
DataValue, 0.55, 0.1, 0, 1.05293E-10, -1.0160400000000001E-10, 2.83E-13, 1.05293E-10, 1.0261237742104995E-05, 1.1920843552888508E-09, 2.83E-13
DataValue, 0.6, 0.1, 0, 1.44435E-10, -1.38611E-10, 4.8200000000000007E-13, 1.44435E-10, 1.2018111332484817E-05, 1.2682973725029682E-09, 4.8200000000000007E-13
DataValue, 0.65, 0.1, 0, 1.91063E-10, -1.85373E-10, 3.6100000000000003E-13, 1.91063E-10, 1.3822554033173464E-05, 1.5426359526984775E-09, 3.6100000000000003E-13
DataValue, 0.70000000000000007, 0.1, 0, 2.54267E-10, -2.4508E-10, 3.1300000000000003E-13, 2.54267E-10, 1.5945751785350228E-05, 1.8855109827798727E-09, 3.1300000000000003E-13
DataValue, 0.75, 0.1, 0, 3.2996E-10, -3.1887E-10, 2.06E-13, 3.2996E-10, 1.8164801127455262E-05, 2.0617578199609053E-09, 2.06E-13
DataValue, 0.8, 0.1, 0, 4.1969300000000005E-10, -4.08027E-10, 2.6600000000000003E-13, 4.1969300000000005E-10, 2.0486410129644483E-05, 2.2624905380419531E-09, 2.6600000000000003E-13
DataValue, 0.85000000000000009, 0.1, 0, 5.2538900000000008E-10, -5.1236000000000008E-10, 3.1000000000000004E-13, 5.2538900000000008E-10, 2.29213655788655E-05, 2.6012714194999066E-09, 3.1000000000000004E-13
DataValue, 0.9, 0.1, 0, 6.54678E-10, -6.3586800000000008E-10, 3.3200000000000005E-13, 6.54678E-10, 2.558667622025182E-05, 2.9064776634090272E-09, 3.3200000000000005E-13
DataValue, 0.95000000000000007, 0.1, 0, 8.0160000000000011E-10, -7.7981500000000006E-10, 4.2000000000000003E-13, 8.0160000000000011E-10, 2.8312541390698225E-05, 3.0991570835779947E-09, 4.2000000000000003E-13
DataValue, 1, 0.1, 0, 9.7055200000000014E-10, -9.45149E-10, 4.69E-13, 9.7055200000000014E-10, 3.1153683570326E-05, 2.7651067250531012E-09, 4.69E-13
DataValue, 1.05, 0.1, 0, 1.12701E-09, -1.09664E-09, 2.0200000000000002E-13, 1.12701E-09, 3.3570969601725832E-05, 3.3934872158452009E-09, 2.0200000000000002E-13
DataValue, 1.1, 0.1, 0, 1.36745E-09, -1.35351E-09, 5.57E-13, 1.36745E-09, 3.6979048121875719E-05, 4.7177871549418281E-09, 5.57E-13
DataValue, 1.1500000000000001, 0.1, 0, 1.63536E-09, -1.61247E-09, 3.97E-13, 1.63536E-09, 4.043958456759911E-05, 4.69372766616718E-09, 3.97E-13
DataValue, 1.2, 0.1, 0, 1.92108E-09, -1.90471E-09, 4.0800000000000003E-13, 1.92108E-09, 4.3830126625415996E-05, 4.6573267447272206E-09, 4.0800000000000003E-13
DataValue, 1.25, 0.1, 0, 2.23389E-09, -2.21056E-09, 5.8000000000000005E-13, 2.23389E-09, 4.7264045531460804E-05, 4.7385025578748278E-09, 5.8000000000000005E-13
DataValue, 1.3, 0.1, 0, 2.57189E-09, -2.54528E-09, 4.4300000000000003E-13, 2.57189E-09, 5.0713804826693884E-05, 4.8122821815033921E-09, 4.4300000000000003E-13
DataValue, 1.35, 0.1, 0, 2.93776E-09, -2.91349E-09, 4.5500000000000008E-13, 2.93776E-09, 5.4201106999765234E-05, 4.8021505623071891E-09, 4.5500000000000008E-13
DataValue, 1.4000000000000001, 0.1, 0, 3.32278E-09, -3.2918E-09, 5.23E-13, 3.32278E-09, 5.7643559917826036E-05, 4.9806355611604479E-09, 5.23E-13
DataValue, 1.4500000000000002, 0.1, 0, 3.7526E-09, -3.71714E-09, 4.0800000000000003E-13, 3.7526E-09, 6.1258468802280716E-05, 5.1842524683898774E-09, 4.0800000000000003E-13
DataValue, 1.5, 0.1, 0, 4.20471E-09, -4.16929E-09, 6.4700000000000007E-13, 4.20471E-09, 6.4843735240962177E-05, 5.16180922208904E-09, 6.4700000000000007E-13
DataValue, 1.55, 0.1, 0, 4.68445E-09, -4.64706E-09, 6.2500000000000006E-13, 4.68445E-09, 6.8443042013049068E-05, 5.3610330228299737E-09, 6.2500000000000006E-13
DataValue, 1.6, 0.1, 0, 5.20788E-09, -5.16561E-09, 6.2500000000000006E-13, 5.20788E-09, 7.2165642794892358E-05, 5.4571152112132066E-09, 6.2500000000000006E-13
DataValue, 1.6500000000000001, 0.1, 0, 5.75023E-09, -5.70779E-09, 9.2000000000000012E-13, 5.75023E-09, 7.583027100043887E-05, 5.3862930960031983E-09, 9.2000000000000012E-13
DataValue, 1.7000000000000002, 0.1, 0, 6.32101E-09, -6.27599E-09, 8.65E-13, 6.32101E-09, 7.9504779730529414E-05, 5.5326974424959475E-09, 8.65E-13
DataValue, 1.75, 0.1, 0, 6.93364E-09, -6.88891E-09, 1.08E-12, 6.93364E-09, 8.3268481432052064E-05, 5.6986484811212047E-09, 1.08E-12
DataValue, 1.8, 0.1, 0, 7.5783499999999992E-09, -7.51564E-09, 1.316E-12, 7.5783499999999992E-09, 8.7053719047493878E-05, 5.7069309402033788E-09, 1.316E-12
DataValue, 1.85, 0.1, 0, 8.2488E-09, -8.19106E-09, 1.2860000000000002E-12, 8.2488E-09, 9.0822904600106253E-05, 5.7104402400604407E-09, 1.2860000000000002E-12
DataValue, 1.9000000000000001, 0.1, 0, 8.95114E-09, -8.89641E-09, 1.5820000000000001E-12, 8.95114E-09, 9.4610464537491838E-05, 5.7480926246906946E-09, 1.5820000000000001E-12
DataValue, 1.9500000000000002, 0.1, 0, 9.68345E-09, -9.61621E-09, 1.7200000000000001E-12, 9.68345E-09, 9.8404522253807015E-05, 5.7891750077630654E-09, 1.7200000000000001E-12
DataValue, 2, 0.1, 0, 1.044875E-08, -1.038331E-08, 1.809E-12, 1.044875E-08, 0.00010221912736860944, 5.2856019702521969E-09, 1.809E-12
DataValue, 2.05, 0.1, 0, 1.116715E-08, -1.1006499999999998E-08, 1.9870000000000003E-12, 1.116715E-08, 0.00010567473681064931, 4.041874247601112E-09, 1.9870000000000003E-12
DataValue, 2.1, 0.1, 0, 1.1788899999999998E-08, -1.17355E-08, 2.268E-12, 1.1788899999999998E-08, 0.00010857670099980013, 5.217179445190641E-09, 2.268E-12
DataValue, 2.15, 0.1, 0, 1.2745899999999998E-08, -1.2678499999999998E-08, 2.85E-12, 1.2745899999999998E-08, 0.00011289774134144579, 7.0757705786966015E-09, 2.85E-12
DataValue, 2.2, 0.1, 0, 1.3686299999999999E-08, -1.3606399999999998E-08, 3.1060000000000003E-12, 1.3686299999999999E-08, 0.00011698846096944775, 6.5847621189129166E-09, 3.1060000000000003E-12
DataValue, 2.25, 0.1, 0, 1.4643999999999999E-08, -1.4561999999999998E-08, 3.4740000000000003E-12, 1.4643999999999999E-08, 0.00012101239605924675, 6.5407914089277853E-09, 3.4740000000000003E-12
DataValue, 2.3000000000000003, 0.1, 0, 1.5643999999999998E-08, -1.5560299999999998E-08, 4.167E-12, 1.5643999999999998E-08, 0.00012507597691003655, 6.5659519020367092E-09, 4.167E-12
DataValue, 2.35, 0.1, 0, 1.66708E-08, -1.65664E-08, 4.507E-12, 1.66708E-08, 0.0001291154522123514, 6.4257802821306615E-09, 4.507E-12
