
SetupTitle, Transfer sat
PrimitiveTest, I/V Sweep
TestParameter, Context.MainFrame, 4155C
TestParameter, Channel.UnitType, SMU, SMU, SMU
TestParameter, Channel.Unit, SMU3:MP, SMU4:MP, SMU1:MP
TestParameter, Channel.IName, IS, ID, IG
TestParameter, Channel.VName, VS, VD, VG
TestParameter, Channel.Mode, COMMON, V, V
TestParameter, Channel.Func, CONST, CONST, VAR1
TestParameter, Channel.Index, 
TestParameter, Channel.Time, 
TestParameter, Measurement.Port.Unit, SMU3:MP, SMU4:MP, SMU1:MP
TestParameter, Measurement.Port.SeriesResistor, NONE, NONE, NONE
TestParameter, Measurement.Port.Filter, ON, ON, ON
TestParameter, Measurement.Primary.Locus, Double
TestParameter, Measurement.Primary.Scale, LINEAR
TestParameter, Measurement.Primary.Start, -2
TestParameter, Measurement.Primary.Stop, 3
TestParameter, Measurement.Primary.Step, 0.05
TestParameter, Measurement.Primary.Compliance, 0.001
TestParameter, Measurement.Primary.PowerCompliance, 0
TestParameter, Measurement.Aborting.Condition, CONTINUE AT ANY
TestParameter, Measurement.PostOutput.Value, START
TestParameter, Measurement.PostOutput.Retention, OFF
TestParameter, Measurement.Bias.Source, 0, 5, -2
TestParameter, Measurement.Bias.Compliance, 0.1, 0.001, 0.001
TestParameter, Measurement.Monitor.Unit, SMU4:MP, SMU3:MP, SMU1:MP
TestParameter, Measurement.Monitor.Adc, HR ADC, HR ADC, HR ADC
TestParameter, Measurement.Monitor.RangingMode, AUTO, AUTO, AUTO
TestParameter, Measurement.Monitor.RangeBoundary, , , 
TestParameter, Measurement.Monitor.RangeRating, BY FULL RANGE, BY FULL RANGE, BY FULL RANGE
TestParameter, Measurement.Monitor.RangeRatingCoeff, 50, 50, 50
TestParameter, Measurement.Timing.Hold, 0.5
TestParameter, Measurement.Timing.Delay, 0.05
TestParameter, Measurement.Adc.HighResolution.AutoZero, OFF
TestParameter, Measurement.Adc.HighResolution.Mode, AUTO
TestParameter, Measurement.Adc.HighResolution.Coeff, 1
TestParameter, Measurement.Ag16440ASelector.SemiconductorRelay.Channel1, DEFAULT
TestParameter, Measurement.Ag16440ASelector.SemiconductorRelay.Channel3, DEFAULT
TestParameter, Function.User.Name, absID, sqrtID, gm2, absIG
TestParameter, Function.User.Unit, A, A, A/V, A
TestParameter, Function.User.Definition, abs(ID), sqrt(abs(ID)), (delta(sqrtID)/delta(VG))^2, abs(IG)
TestParameter, Output.Graph.Enabled, true
TestParameter, Output.Graph.XAxis.Data, VG
TestParameter, Output.Graph.XAxis.Scale, Linear
TestParameter, Output.Graph.XAxis.Left, -5
TestParameter, Output.Graph.XAxis.Right, 7
TestParameter, Output.Graph.YAxis.Data, ID, absIG, gm2
TestParameter, Output.Graph.YAxis.Scale, Log, Log, Linear
TestParameter, Output.Graph.YAxis.Bottom, 1E-14, 1E-14, 0
TestParameter, Output.Graph.YAxis.Top, 0.01, 0.01, 1E-05
TestParameter, Output.Graph.YAxis.Group, , , 
TestParameter, Output.List.Data, VG, IG, VD, ID, VS, IS, sqrtID, gm2, absIG
TestParameter, AutoAnalysis.Interpolation, false
TestParameter, AutoAnalysis.Line1.Enabled, false
TestParameter, AutoAnalysis.Line1.Type, 1
TestParameter, AutoAnalysis.Line1.Fix, True
TestParameter, AutoAnalysis.Line1.YAxis, 0
TestParameter, AutoAnalysis.Line1.Point1.Type, 0
TestParameter, AutoAnalysis.Line1.Point1.XY.X, 
TestParameter, AutoAnalysis.Line1.Point1.XY.Y, 
TestParameter, AutoAnalysis.Line1.Point1.Data.Var, 
TestParameter, AutoAnalysis.Line1.Point1.Data.Condition, 
TestParameter, AutoAnalysis.Line1.Point1.Data.Start, false
TestParameter, AutoAnalysis.Line1.Point1.Data.StartVar, 
TestParameter, AutoAnalysis.Line1.Point1.Data.StartCondition, 
TestParameter, AutoAnalysis.Line1.Point2.Type, 0
TestParameter, AutoAnalysis.Line1.Point2.XY.X, 
TestParameter, AutoAnalysis.Line1.Point2.XY.Y, 
TestParameter, AutoAnalysis.Line1.Point2.Data.Var, 
TestParameter, AutoAnalysis.Line1.Point2.Data.Condition, 
TestParameter, AutoAnalysis.Line1.Point2.Data.Start, false
TestParameter, AutoAnalysis.Line1.Point2.Data.StartVar, 
TestParameter, AutoAnalysis.Line1.Point2.Data.StartCondition, 
TestParameter, AutoAnalysis.Line1.GradientExpr, 0
TestParameter, AutoAnalysis.Line2.Enabled, false
TestParameter, AutoAnalysis.Line2.Type, 1
TestParameter, AutoAnalysis.Line2.Fix, True
TestParameter, AutoAnalysis.Line2.YAxis, 0
TestParameter, AutoAnalysis.Line2.Point1.Type, 0
TestParameter, AutoAnalysis.Line2.Point1.XY.X, 
TestParameter, AutoAnalysis.Line2.Point1.XY.Y, 
TestParameter, AutoAnalysis.Line2.Point1.Data.Var, 
TestParameter, AutoAnalysis.Line2.Point1.Data.Condition, 
TestParameter, AutoAnalysis.Line2.Point1.Data.Start, false
TestParameter, AutoAnalysis.Line2.Point1.Data.StartVar, 
TestParameter, AutoAnalysis.Line2.Point1.Data.StartCondition, 
TestParameter, AutoAnalysis.Line2.Point2.Type, 0
TestParameter, AutoAnalysis.Line2.Point2.XY.X, 
TestParameter, AutoAnalysis.Line2.Point2.XY.Y, 
TestParameter, AutoAnalysis.Line2.Point2.Data.Var, 
TestParameter, AutoAnalysis.Line2.Point2.Data.Condition, 
TestParameter, AutoAnalysis.Line2.Point2.Data.Start, false
TestParameter, AutoAnalysis.Line2.Point2.Data.StartVar, 
TestParameter, AutoAnalysis.Line2.Point2.Data.StartCondition, 
TestParameter, AutoAnalysis.Line2.GradientExpr, 0
TestParameter, AutoAnalysis.Marker.Enabled, false
TestParameter, AutoAnalysis.Marker.Data.Var, 
TestParameter, AutoAnalysis.Marker.Data.Condition, 
TestParameter, AutoAnalysis.Marker.Data.Start, false
TestParameter, AutoAnalysis.Marker.Data.StartVar, 
TestParameter, AutoAnalysis.Marker.Data.StartCondition, 
MetaData, TestRecord.EntryPoint, true
MetaData, TestRecord.RecordTime, 06/18/2019 13:22:00
MetaData, TestRecord.TestTarget, 6-42
MetaData, TestRecord.IterationIndex, 1
MetaData, TestRecord.Preservation, true
MetaData, TestRecord.Flag, 
MetaData, TestRecord.Remarks, good
MetaData, TestRecord.LinkKey, eac7fc8e-9b02-477f-9e91-8fe21f444a71
Dimension1, 202, 202, 202, 202, 202, 202, 202, 202, 202, 202
Dimension2, 1, 1, 1, 1, 1, 1, 1, 1, 1, 1
DataName, VG, VS, VD, ID, IS, IG, absID, sqrtID, gm2, absIG
DataValue, -2, 0, 5, 1.0694000000000001E-11, 2.6390000000000004E-12, -9.792E-12, 1.0694000000000001E-11, 3.2701681913932198E-06, 8.1463616121805743E-12, 9.792E-12
DataValue, -1.9500000000000002, 0, 5, 9.7810000000000012E-12, 2.6500000000000002E-12, -9.127E-12, 9.7810000000000012E-12, 3.127459032505462E-06, 4.4974731078782022E-12, 9.127E-12
DataValue, -1.9000000000000001, 0, 5, 1.2126E-11, -1.347E-12, -8.372E-12, 1.2126E-11, 3.4822406579672234E-06, 2.7618878757728828E-11, 8.372E-12
DataValue, -1.85, 0, 5, 6.7700000000000004E-12, 1.6800000000000001E-12, -8.007E-12, 6.7700000000000004E-12, 2.6019223662515375E-06, 4.0161659811969396E-11, 8.007E-12
DataValue, -1.8, 0, 5, 8.114E-12, 1.141E-12, -7.9060000000000012E-12, 8.114E-12, 2.848508381592022E-06, 2.6618320596500516E-11, 7.9060000000000012E-12
DataValue, -1.75, 0, 5, 9.721E-12, -3.14E-13, -7.1000000000000008E-12, 9.721E-12, 3.1178518245740931E-06, 1.5054561792122487E-11, 7.1000000000000008E-12
DataValue, -1.7000000000000002, 0, 5, 1.0475000000000001E-11, 2.85E-13, -6.6590000000000006E-12, 1.0475000000000001E-11, 3.2365104665364517E-06, 2.6777316767841729E-13, 6.6590000000000006E-12
DataValue, -1.6500000000000001, 0, 5, 9.401E-12, 8.8300000000000007E-13, -6.608E-12, 9.401E-12, 3.0661050210323847E-06, 4.2025116578381965E-11, 6.608E-12
DataValue, -1.6, 0, 5, 6.6990000000000004E-12, 3.1110000000000004E-12, -6.258E-12, 6.6990000000000004E-12, 2.588242647048379E-06, 4.6611302516647116E-13, 6.258E-12
DataValue, -1.55, 0, 5, 8.9870000000000012E-12, 8.71E-13, -5.8470000000000004E-12, 8.9870000000000012E-12, 2.9978325503603435E-06, 3.881136080402688E-11, 5.8470000000000004E-12
DataValue, -1.5, 0, 5, 1.0312E-11, -4.1E-14, -5.44E-12, 1.0312E-11, 3.2112302938282084E-06, 2.4763816313962427E-11, 5.44E-12
DataValue, -1.4500000000000002, 0, 5, 6.2510000000000007E-12, -1.199E-12, -5.905E-12, 6.2510000000000007E-12, 2.50019999200064E-06, 1.4939610177755036E-11, 5.905E-12
DataValue, -1.4000000000000001, 0, 5, 7.979E-12, -2.444E-12, -5.493E-12, 7.979E-12, 2.8247123747383557E-06, 2.0346497547778091E-11, 5.493E-12
DataValue, -1.35, 0, 5, 8.7100000000000015E-12, -3.4820000000000003E-12, -5.245E-12, 8.7100000000000015E-12, 2.9512709126747413E-06, 4.0515244513099461E-15, 5.245E-12
DataValue, -1.3, 0, 5, 8.0150000000000009E-12, -5.7400000000000008E-13, -5.0420000000000005E-12, 8.0150000000000009E-12, 2.8310775333784133E-06, 1.7878745795946492E-11, 5.0420000000000005E-12
DataValue, -1.25, 0, 5, 6.3930000000000007E-12, 8.0000000000000013E-14, -4.846E-12, 6.3930000000000007E-12, 2.528438253151538E-06, 2.480724128537193E-12, 4.846E-12
DataValue, -1.2, 0, 5, 7.1480000000000006E-12, -2.92E-13, -4.796E-12, 7.1480000000000006E-12, 2.6735743864721626E-06, 2.9737571220920256E-11, 4.796E-12
DataValue, -1.1500000000000001, 0, 5, 9.4480000000000009E-12, -8.2800000000000011E-13, -4.604E-12, 9.4480000000000009E-12, 3.0737599125501004E-06, 1.1318235944563751E-14, 4.604E-12
DataValue, -1.1, 0, 5, 7.2050000000000009E-12, -1.022E-12, -4.136E-12, 7.2050000000000009E-12, 2.68421310629391E-06, 1.8595349344914889E-11, 4.136E-12
DataValue, -1.05, 0, 5, 6.9830000000000004E-12, -5.7100000000000009E-13, -4.076E-12, 6.9830000000000004E-12, 2.6425366601052105E-06, 9.7955825277353113E-14, 4.076E-12
DataValue, -1, 0, 5, 7.374E-12, -5.4E-13, -4.1640000000000004E-12, 7.374E-12, 2.7155110016348674E-06, 7.9767280974366788E-13, 4.1640000000000004E-12
DataValue, -0.95000000000000007, 0, 5, 7.4630000000000008E-12, -1.2130000000000002E-12, -4.0870000000000007E-12, 7.4630000000000008E-12, 2.7318491905667122E-06, 2.4304748088214113E-12, 4.0870000000000007E-12
DataValue, -0.9, 0, 5, 8.2450000000000013E-12, -1.5370000000000002E-12, -3.8060000000000005E-12, 8.2450000000000013E-12, 2.871410803072246E-06, 3.93969017476769E-13, 3.8060000000000005E-12
DataValue, -0.85000000000000009, 0, 5, 7.1240000000000007E-12, -1.786E-12, -3.564E-12, 7.1240000000000007E-12, 2.6690822392725185E-06, 1.0336793688123312E-11, 3.564E-12
DataValue, -0.8, 0, 5, 6.502E-12, -1.567E-12, -3.3450000000000004E-12, 6.502E-12, 2.5499019588995965E-06, 9.7749289598022854E-13, 3.3450000000000004E-12
DataValue, -0.75, 0, 5, 6.6060000000000007E-12, -1.013E-12, -3.413E-12, 6.6060000000000007E-12, 2.5702139988724674E-06, 4.6016598108791972E-12, 3.413E-12
DataValue, -0.70000000000000007, 0, 5, 7.642E-12, -1.4200000000000002E-12, -3.6070000000000003E-12, 7.642E-12, 2.7644167558456159E-06, 3.3609585715109403E-12, 3.6070000000000003E-12
DataValue, -0.65, 0, 5, 7.582E-12, -1.3070000000000002E-12, -3.255E-12, 7.582E-12, 2.7535431719876849E-06, 2.1154973204996315E-12, 3.255E-12
DataValue, -0.6, 0, 5, 6.8590000000000006E-12, -1.3700000000000002E-13, -3.063E-12, 6.8590000000000006E-12, 2.6189692628971421E-06, 1.3308386506374818E-12, 3.063E-12
DataValue, -0.55, 0, 5, 6.96E-12, -1.4090000000000002E-12, -3.1070000000000004E-12, 6.96E-12, 2.6381811916545837E-06, 1.2372601175849177E-12, 3.1070000000000004E-12
DataValue, -0.5, 0, 5, 7.4540000000000012E-12, -1.5410000000000002E-12, -3.15E-12, 7.4540000000000012E-12, 2.7302014577682727E-06, 3.3940775470914723E-13, 3.15E-12
DataValue, -0.45, 0, 5, 6.6560000000000007E-12, -1.5780000000000001E-12, -2.9590000000000002E-12, 6.6560000000000007E-12, 2.579922479455536E-06, 3.6597243100812291E-12, 2.9590000000000002E-12
DataValue, -0.4, 0, 5, 6.4460000000000006E-12, -1.4320000000000002E-12, -2.8230000000000004E-12, 6.4460000000000006E-12, 2.5388973984783238E-06, 8.5963800909728736E-13, 2.8230000000000004E-12
DataValue, -0.35000000000000003, 0, 5, 7.1430000000000006E-12, -1.322E-12, -2.6310000000000004E-12, 7.1430000000000006E-12, 2.6726391451148061E-06, 1.0300651437729791E-13, 2.6310000000000004E-12
DataValue, -0.3, 0, 5, 6.61E-12, -4.076E-12, -2.804E-12, 6.61E-12, 2.5709920264364881E-06, 1.0126852006206544E-15, 2.804E-12
DataValue, -0.25, 0, 5, 7.1260000000000009E-12, -1.5380000000000001E-12, -2.8600000000000003E-12, 7.1260000000000009E-12, 2.6694568735980736E-06, 5.4771772111475584E-15, 2.8600000000000003E-12
DataValue, -0.2, 0, 5, 6.5720000000000007E-12, -1.9150000000000002E-12, -2.4840000000000003E-12, 6.5720000000000007E-12, 2.5635912310662947E-06, 3.2551942508110978E-14, 2.4840000000000003E-12
DataValue, -0.15, 0, 5, 7.0300000000000005E-12, -2.8600000000000003E-12, -2.478E-12, 7.0300000000000005E-12, 2.6514147167125704E-06, 1.4902380952607374E-12, 2.478E-12
DataValue, -0.1, 0, 5, 5.961E-12, -1.3970000000000002E-12, -2.516E-12, 5.961E-12, 2.4415159225366523E-06, 4.8648655318233891E-13, 2.516E-12
DataValue, -0.05, 0, 5, 6.665E-12, -1.755E-12, -2.5970000000000003E-12, 6.665E-12, 2.5816661286851172E-06, 4.8924781020531207E-12, 2.5970000000000003E-12
DataValue, 0, 0, 5, 7.0900000000000007E-12, -7.3700000000000009E-13, -2.394E-12, 7.0900000000000007E-12, 2.6627053911388695E-06, 1.0592423566789889E-12, 2.394E-12
DataValue, 0.05, 0, 5, 7.207E-12, -2.1710000000000003E-12, -2.243E-12, 7.207E-12, 2.6845856291055424E-06, 3.4802645843390661E-14, 2.243E-12
DataValue, 0.1, 0, 5, 6.991E-12, -2.4710000000000003E-12, -2.3660000000000002E-12, 6.991E-12, 2.6440499238857046E-06, 2.7647736264335919E-14, 2.3660000000000002E-12
DataValue, 0.15, 0, 5, 7.118E-12, -3.05E-12, -2.3670000000000003E-12, 7.118E-12, 2.6679580206592456E-06, 9.138756017594808E-12, 2.3670000000000003E-12
DataValue, 0.2, 0, 5, 8.6810000000000015E-12, -5.969E-12, -2.2590000000000004E-12, 8.6810000000000015E-12, 2.9463536787018631E-06, 8.9719719545192012E-12, 2.2590000000000004E-12
DataValue, 0.25, 0, 5, 8.806000000000001E-12, -4.601E-12, -2.038E-12, 8.806000000000001E-12, 2.9674905223100548E-06, 5.2306148950485813E-12, 2.038E-12
DataValue, 0.3, 0, 5, 1.0081000000000001E-11, -5.871E-12, -2.04E-12, 1.0081000000000001E-11, 3.1750590545689069E-06, 6.3512666762251946E-11, 2.04E-12
DataValue, 0.35000000000000003, 0, 5, 1.4171000000000002E-11, -6.1600000000000004E-12, -2.088E-12, 1.4171000000000002E-11, 3.7644388692074682E-06, 1.376301971809122E-10, 2.088E-12
DataValue, 0.4, 0, 5, 1.8907000000000003E-11, -1.3043000000000001E-11, -2.1000000000000003E-12, 1.8907000000000003E-11, 4.3482180258124136E-06, 2.0481507403778761E-10, 2.1000000000000003E-12
DataValue, 0.45, 0, 5, 2.6994E-11, -2.1080000000000003E-11, -1.863E-12, 2.6994E-11, 5.1955750403588632E-06, 3.9381407250490606E-10, 1.863E-12
DataValue, 0.5, 0, 5, 4.0103E-11, -3.4017E-11, -1.7230000000000002E-12, 4.0103E-11, 6.3326929500805583E-06, 7.4251058589067549E-10, 1.7230000000000002E-12
DataValue, 0.55, 0, 5, 6.2734000000000008E-11, -5.7676000000000006E-11, -1.7760000000000001E-12, 6.2734000000000008E-11, 7.9204797834474653E-06, 1.283356511566168E-09, 1.7760000000000001E-12
DataValue, 0.6, 0, 5, 9.8309000000000012E-11, -8.8760000000000012E-11, -1.5360000000000001E-12, 9.8309000000000012E-11, 9.9150895104381181E-06, 2.00169903662508E-09, 1.5360000000000001E-12
DataValue, 0.65, 0, 5, 1.5362400000000002E-10, -1.4213500000000002E-10, -1.6620000000000002E-12, 1.5362400000000002E-10, 1.2394514915881138E-05, 2.9340720292729377E-09, 1.6620000000000002E-12
DataValue, 0.70000000000000007, 0, 5, 2.35064E-10, -2.2015400000000002E-10, -1.5050000000000002E-12, 2.35064E-10, 1.5331797024484768E-05, 3.9895107321355532E-09, 1.5050000000000002E-12
DataValue, 0.75, 0, 5, 3.50093E-10, -3.3233100000000004E-10, -1.523E-12, 3.50093E-10, 1.8710772298331249E-05, 5.1961835854699675E-09, 1.523E-12
DataValue, 0.8, 0, 5, 5.08063E-10, -4.79823E-10, -1.4150000000000001E-12, 5.08063E-10, 2.2540252882343623E-05, 6.6577885606374405E-09, 1.4150000000000001E-12
DataValue, 0.85000000000000009, 0, 5, 7.220130000000001E-10, -6.86943E-10, -1.337E-12, 7.220130000000001E-10, 2.6870299588951369E-05, 8.4552001580049977E-09, 1.337E-12
DataValue, 0.9, 0, 5, 1.00714E-09, -9.8335E-10, -1.235E-12, 1.00714E-09, 3.1735469115801645E-05, 1.1009851178094245E-08, 1.235E-12
DataValue, 0.95000000000000007, 0, 5, 1.396E-09, -1.382E-09, -1.12E-12, 1.396E-09, 3.7363083384538811E-05, 1.4584222773114173E-08, 1.12E-12
DataValue, 1, 0, 5, 1.91949E-09, -1.87606E-09, -1.0480000000000002E-12, 1.91949E-09, 4.3811984661733827E-05, 1.7489430364454656E-08, 1.0480000000000002E-12
DataValue, 1.05, 0, 5, 2.55913E-09, -2.50709E-09, -9.94E-13, 2.55913E-09, 5.0587844389734574E-05, 1.9500673337915965E-08, 9.94E-13
DataValue, 1.1, 0, 5, 3.33812E-09, -3.28796E-09, -7.99E-13, 3.33812E-09, 5.7776465797070007E-05, 2.2425140969838714E-08, 7.99E-13
DataValue, 1.1500000000000001, 0, 5, 4.29849E-09, -4.20716E-09, -1.042E-12, 4.29849E-09, 6.55628705899917E-05, 2.4139534542721581E-08, 1.042E-12
DataValue, 1.2, 0, 5, 5.37485E-09, -5.28655E-09, -8.3600000000000007E-13, 5.37485E-09, 7.3313368494429449E-05, 2.4971832042389939E-08, 8.3600000000000007E-13
DataValue, 1.25, 0, 5, 6.62032E-09, -6.52267E-09, -7.51E-13, 6.62032E-09, 8.13653488900527E-05, 2.6586904092078944E-08, 7.51E-13
DataValue, 1.3, 0, 5, 8.03154E-09, -7.88945E-09, -5.7800000000000006E-13, 8.03154E-09, 8.9618859622291557E-05, 2.7155295939171761E-08, 5.7800000000000006E-13
DataValue, 1.35, 0, 5, 9.57349E-09, -9.37941E-09, -4.92E-13, 9.57349E-09, 9.7844212910115435E-05, 1.5857573348754025E-08, 4.92E-13
DataValue, 1.4000000000000001, 0, 5, 1.0447199999999998E-08, -1.0121799999999999E-08, -5.88E-13, 1.0447199999999998E-08, 0.00010221154533613118, 1.5747041495892972E-08, 5.88E-13
DataValue, 1.4500000000000002, 0, 5, 1.2186599999999998E-08, -1.1935399999999999E-08, -4.66E-13, 1.2186599999999998E-08, 0.0001103929345565195, 2.3771342166704447E-08, 4.66E-13
DataValue, 1.5, 0, 5, 1.3836699999999999E-08, -1.3506299999999998E-08, -4.1400000000000005E-13, 1.3836699999999999E-08, 0.00011762950310190041, 1.7585460023554374E-08, 4.1400000000000005E-13
DataValue, 1.55, 0, 5, 1.52903E-08, -1.50134E-08, -5.35E-13, 1.52903E-08, 0.00012365395262586634, 1.1519459640294163E-08, 5.35E-13
DataValue, 1.6, 0, 5, 1.6476899999999997E-08, -1.6188699999999997E-08, -5.3000000000000006E-13, 1.6476899999999997E-08, 0.00012836237766573194, 9.0594542046027848E-09, 5.3000000000000006E-13
DataValue, 1.6500000000000001, 0, 5, 1.77348E-08, -1.73796E-08, -2.7800000000000003E-13, 1.77348E-08, 0.00013317206914364589, 5.8805910373468831E-09, 2.7800000000000003E-13
DataValue, 1.7000000000000002, 0, 5, 1.8504399999999997E-08, -1.82034E-08, -2.46E-13, 1.8504399999999997E-08, 0.00013603087884741464, 3.6616209926064611E-09, 2.46E-13
DataValue, 1.75, 0, 5, 1.9383099999999998E-08, -1.9138099999999998E-08, -3.39E-13, 1.9383099999999998E-08, 0.00013922320208930694, 4.8998419045497673E-09, 3.39E-13
DataValue, 1.8, 0, 5, 2.04578E-08, -2.0019399999999997E-08, -2.1500000000000002E-13, 2.04578E-08, 0.00014303076592118215, 4.9425749078708114E-09, 2.1500000000000002E-13
DataValue, 1.85, 0, 5, 2.1390099999999997E-08, -2.1056299999999996E-08, -1.9100000000000002E-13, 2.1390099999999997E-08, 0.00014625354696553514, 4.4141157805853079E-09, 1.9100000000000002E-13
DataValue, 1.9000000000000001, 0, 5, 2.2402499999999998E-08, -2.1851299999999998E-08, -5.4000000000000003E-14, 2.2402499999999998E-08, 0.0001496746471517471, 3.6886236527721188E-09, 5.4000000000000003E-14
DataValue, 1.9500000000000002, 0, 5, 2.3203499999999997E-08, -2.2728999999999998E-08, 6.8E-14, 2.3203499999999997E-08, 0.00015232695099686068, 3.7620660001874552E-09, 6.8E-14
DataValue, 2, 0, 5, 2.4276199999999996E-08, -2.3699699999999997E-08, -6.0000000000000009E-14, 2.4276199999999996E-08, 0.00015580821544450087, 3.6856623997611857E-09, 6.0000000000000009E-14
DataValue, 2.05, 0, 5, 2.5089899999999996E-08, -2.4612599999999998E-08, 1.5100000000000001E-13, 2.5089899999999996E-08, 0.00015839791665296611, 2.4693649715277718E-09, 1.5100000000000001E-13
DataValue, 2.1, 0, 5, 2.5849399999999997E-08, -2.5407999999999998E-08, 1.3300000000000001E-13, 2.5849399999999997E-08, 0.00016077748598606709, 4.0578200618370782E-09, 1.3300000000000001E-13
DataValue, 2.15, 0, 5, 2.7148499999999997E-08, -2.6372499999999997E-08, 2.4000000000000004E-13, 2.7148499999999997E-08, 0.00016476801874150212, 5.7733923426970813E-09, 2.4000000000000004E-13
DataValue, 2.2, 0, 5, 2.8350399999999998E-08, -2.75095E-08, 4.5200000000000004E-13, 2.8350399999999998E-08, 0.00016837577022837935, 3.3825601995384324E-09, 4.5200000000000004E-13
