
SetupTitle, Transfer stab
PrimitiveTest, I/V Sweep
TestParameter, Context.MainFrame, 4155C
TestParameter, Channel.UnitType, SMU, SMU, SMU
TestParameter, Channel.Unit, SMU3:MP, SMU4:MP, SMU1:MP
TestParameter, Channel.IName, ID, IS, IG
TestParameter, Channel.VName, VD, VS, VG
TestParameter, Channel.Mode, V, COMMON, V
TestParameter, Channel.Func, CONST, CONST, VAR1
TestParameter, Channel.Index, 
TestParameter, Channel.Time, 
TestParameter, Measurement.Port.Unit, SMU3:MP, SMU4:MP, SMU1:MP
TestParameter, Measurement.Port.SeriesResistor, NONE, NONE, NONE
TestParameter, Measurement.Port.Filter, ON, ON, ON
TestParameter, Measurement.Primary.Locus, Single
TestParameter, Measurement.Primary.Scale, LINEAR
TestParameter, Measurement.Primary.Start, -2
TestParameter, Measurement.Primary.Stop, 3
TestParameter, Measurement.Primary.Step, 0.05
TestParameter, Measurement.Primary.Compliance, 0.1
TestParameter, Measurement.Primary.PowerCompliance, 0
TestParameter, Measurement.Aborting.Condition, CONTINUE AT ANY
TestParameter, Measurement.PostOutput.Value, START
TestParameter, Measurement.PostOutput.Retention, OFF
TestParameter, Measurement.Bias.Source, 3, 0, -2
TestParameter, Measurement.Bias.Compliance, 0.1, 0.1, 0.1
TestParameter, Measurement.Monitor.Unit, SMU3:MP, SMU4:MP, SMU1:MP
TestParameter, Measurement.Monitor.Adc, HR ADC, HR ADC, HR ADC
TestParameter, Measurement.Monitor.RangingMode, AUTO, AUTO, AUTO
TestParameter, Measurement.Monitor.RangeBoundary, , , 
TestParameter, Measurement.Monitor.RangeRating, BY FULL RANGE, BY FULL RANGE, BY FULL RANGE
TestParameter, Measurement.Monitor.RangeRatingCoeff, 50, 50, 50
TestParameter, Measurement.Timing.Hold, 0.5
TestParameter, Measurement.Timing.Delay, 0.05
TestParameter, Measurement.Adc.HighResolution.AutoZero, OFF
TestParameter, Measurement.Adc.HighResolution.Mode, AUTO
TestParameter, Measurement.Adc.HighResolution.Coeff, 1
TestParameter, Measurement.Ag16440ASelector.SemiconductorRelay.Channel1, DEFAULT
TestParameter, Measurement.Ag16440ASelector.SemiconductorRelay.Channel3, DEFAULT
TestParameter, Function.User.Name, absID, sqrtID, gm2, absIG
TestParameter, Function.User.Unit, A, A, A/V, A
TestParameter, Function.User.Definition, abs(ID), sqrt(abs(ID)), (delta(sqrtID)/delta(VG))^2, abs(IG)
TestParameter, Output.Graph.Enabled, true
TestParameter, Output.Graph.XAxis.Data, VG
TestParameter, Output.Graph.XAxis.Scale, Linear
TestParameter, Output.Graph.XAxis.Left, -5
TestParameter, Output.Graph.XAxis.Right, 7
TestParameter, Output.Graph.YAxis.Data, ID, absIG, gm2
TestParameter, Output.Graph.YAxis.Scale, Log, Log, Linear
TestParameter, Output.Graph.YAxis.Bottom, 1E-14, 1E-14, 0
TestParameter, Output.Graph.YAxis.Top, 0.01, 0.01, 1E-05
TestParameter, Output.Graph.YAxis.Group, , , 
TestParameter, Output.List.Data, VG, IG, VD, ID, VS, IS, sqrtID, gm2, absIG
TestParameter, AutoAnalysis.Interpolation, false
TestParameter, AutoAnalysis.Line1.Enabled, false
TestParameter, AutoAnalysis.Line1.Type, 1
TestParameter, AutoAnalysis.Line1.Fix, True
TestParameter, AutoAnalysis.Line1.YAxis, 0
TestParameter, AutoAnalysis.Line1.Point1.Type, 0
TestParameter, AutoAnalysis.Line1.Point1.XY.X, 
TestParameter, AutoAnalysis.Line1.Point1.XY.Y, 
TestParameter, AutoAnalysis.Line1.Point1.Data.Var, 
TestParameter, AutoAnalysis.Line1.Point1.Data.Condition, 
TestParameter, AutoAnalysis.Line1.Point1.Data.Start, false
TestParameter, AutoAnalysis.Line1.Point1.Data.StartVar, 
TestParameter, AutoAnalysis.Line1.Point1.Data.StartCondition, 
TestParameter, AutoAnalysis.Line1.Point2.Type, 0
TestParameter, AutoAnalysis.Line1.Point2.XY.X, 
TestParameter, AutoAnalysis.Line1.Point2.XY.Y, 
TestParameter, AutoAnalysis.Line1.Point2.Data.Var, 
TestParameter, AutoAnalysis.Line1.Point2.Data.Condition, 
TestParameter, AutoAnalysis.Line1.Point2.Data.Start, false
TestParameter, AutoAnalysis.Line1.Point2.Data.StartVar, 
TestParameter, AutoAnalysis.Line1.Point2.Data.StartCondition, 
TestParameter, AutoAnalysis.Line1.GradientExpr, 0
TestParameter, AutoAnalysis.Line2.Enabled, false
TestParameter, AutoAnalysis.Line2.Type, 1
TestParameter, AutoAnalysis.Line2.Fix, True
TestParameter, AutoAnalysis.Line2.YAxis, 0
TestParameter, AutoAnalysis.Line2.Point1.Type, 0
TestParameter, AutoAnalysis.Line2.Point1.XY.X, 
TestParameter, AutoAnalysis.Line2.Point1.XY.Y, 
TestParameter, AutoAnalysis.Line2.Point1.Data.Var, 
TestParameter, AutoAnalysis.Line2.Point1.Data.Condition, 
TestParameter, AutoAnalysis.Line2.Point1.Data.Start, false
TestParameter, AutoAnalysis.Line2.Point1.Data.StartVar, 
TestParameter, AutoAnalysis.Line2.Point1.Data.StartCondition, 
TestParameter, AutoAnalysis.Line2.Point2.Type, 0
TestParameter, AutoAnalysis.Line2.Point2.XY.X, 
TestParameter, AutoAnalysis.Line2.Point2.XY.Y, 
TestParameter, AutoAnalysis.Line2.Point2.Data.Var, 
TestParameter, AutoAnalysis.Line2.Point2.Data.Condition, 
TestParameter, AutoAnalysis.Line2.Point2.Data.Start, false
TestParameter, AutoAnalysis.Line2.Point2.Data.StartVar, 
TestParameter, AutoAnalysis.Line2.Point2.Data.StartCondition, 
TestParameter, AutoAnalysis.Line2.GradientExpr, 0
TestParameter, AutoAnalysis.Marker.Enabled, false
TestParameter, AutoAnalysis.Marker.Data.Var, 
TestParameter, AutoAnalysis.Marker.Data.Condition, 
TestParameter, AutoAnalysis.Marker.Data.Start, false
TestParameter, AutoAnalysis.Marker.Data.StartVar, 
TestParameter, AutoAnalysis.Marker.Data.StartCondition, 
MetaData, TestRecord.EntryPoint, true
MetaData, TestRecord.RecordTime, 06/18/2019 14:00:16
MetaData, TestRecord.TestTarget, 3-16
MetaData, TestRecord.IterationIndex, 1
MetaData, TestRecord.Preservation, true
MetaData, TestRecord.Flag, 
MetaData, TestRecord.Remarks, leak
MetaData, TestRecord.LinkKey, 0317e298-ab1e-4d0c-9197-bcd630d7c4f3
Dimension1, 101, 101, 101, 101, 101, 101, 101, 101, 101, 101
Dimension2, 1, 1, 1, 1, 1, 1, 1, 1, 1, 1
DataName, VG, VD, VS, ID, IS, IG, absID, sqrtID, gm2, absIG
DataValue, -2, 3, 0, 8.8211E-09, 1.71636E-10, -1.04422E-08, 8.8211E-09, 9.3920711240918532E-05, 1.1344155897213117E-08, 1.04422E-08
DataValue, -1.9500000000000002, 3, 0, 9.8498E-09, 1.3578900000000002E-10, -9.82449E-09, 9.8498E-09, 9.9246158615837619E-05, 1.0066989068242687E-09, 9.82449E-09
DataValue, -1.9000000000000001, 3, 0, 9.42716E-09, 1.1484100000000001E-10, -9.42094E-09, 9.42716E-09, 9.709356312341205E-05, 2.2582812158659509E-09, 9.42094E-09
DataValue, -1.85, 3, 0, 8.92912E-09, 1.01201E-10, -8.94423E-09, 8.92912E-09, 9.4494020974874392E-05, 1.8717109880215387E-09, 8.94423E-09
DataValue, -1.8, 3, 0, 8.60576E-09, 9.2399E-11, -8.81059E-09, 8.60576E-09, 9.27672355953329E-05, 4.99151805666276E-10, 8.81059E-09
DataValue, -1.75, 3, 0, 8.51188E-09, 8.2923000000000009E-11, -8.74094E-09, 8.51188E-09, 9.2259850422597156E-05, 1.5975872107580007E-10, 8.74094E-09
DataValue, -1.7000000000000002, 3, 0, 8.37285E-09, 7.5229E-11, -8.35956E-09, 8.37285E-09, 9.1503278629784631E-05, 5.6680418899329845E-10, 8.35956E-09
DataValue, -1.6500000000000001, 3, 0, 8.07825E-09, 6.8766E-11, -8.12854E-09, 8.07825E-09, 8.9879085442610057E-05, 8.5910436601546581E-10, 8.12854E-09
DataValue, -1.6, 3, 0, 7.84504E-09, 6.2020000000000009E-11, -8.23392E-09, 7.84504E-09, 8.8572230411117E-05, 1.6947640200337688E-10, 8.23392E-09
DataValue, -1.55, 3, 0, 7.84593E-09, 5.5375E-11, -8.1092E-09, 7.84593E-09, 8.8577254416695491E-05, 3.1037578925214441E-11, 8.1092E-09
DataValue, -1.5, 3, 0, 7.94404E-09, 4.7548E-11, -8.05788E-09, 7.94404E-09, 8.912934421390073E-05, 2.0540097672675971E-12, 8.05788E-09
DataValue, -1.4500000000000002, 3, 0, 7.87134E-09, 4.0026E-11, -7.87301E-09, 7.87134E-09, 8.8720572586069356E-05, 1.7641292369285894E-10, 7.87301E-09
DataValue, -1.4000000000000001, 3, 0, 7.70904E-09, 2.6088000000000003E-11, -7.73199E-09, 7.70904E-09, 8.78011389447768E-05, 7.7294357009185489E-10, 7.73199E-09
DataValue, -1.35, 3, 0, 7.38575E-09, 5.0230000000000007E-12, -7.47487E-09, 7.38575E-09, 8.594038631516617E-05, 2.4420014205277194E-10, 7.47487E-09
DataValue, -1.3, 3, 0, 7.43707E-09, -2.3669000000000002E-11, -7.2033E-09, 7.43707E-09, 8.623844850181385E-05, 8.9544012563282626E-10, 7.2033E-09
DataValue, -1.25, 3, 0, 6.88037E-09, -6.6482E-11, -6.61601E-09, 6.88037E-09, 8.2947995756377382E-05, 1.1915054166780028E-08, 6.61601E-09
DataValue, -1.2, 3, 0, 5.67353E-09, -1.2849600000000001E-10, -5.25209E-09, 5.67353E-09, 7.53228385020108E-05, 1.7912509205664661E-10, 5.25209E-09
DataValue, -1.1500000000000001, 3, 0, 6.66013E-09, -1.99572E-10, -6.40675E-09, 6.66013E-09, 8.1609619531033229E-05, 3.1698843054956829E-09, 6.40675E-09
DataValue, -1.1, 3, 0, 6.55339E-09, -2.88209E-10, -7.09677E-09, 6.55339E-09, 8.0953011061973476E-05, 2.4278143873855652E-11, 7.09677E-09
DataValue, -1.05, 3, 0, 6.57995E-09, -3.9563500000000005E-10, -5.90438E-09, 6.57995E-09, 8.1116890966062051E-05, 1.8126246520357805E-09, 5.90438E-09
DataValue, -1, 3, 0, 7.26083E-09, -5.11222E-10, -7.19672E-09, 7.26083E-09, 8.5210504047329746E-05, 1.49340505451357E-09, 7.19672E-09
DataValue, -0.95000000000000007, 3, 0, 7.22183E-09, -6.1717E-10, -6.73422E-09, 7.22183E-09, 8.4981350895358212E-05, 1.4256779574023817E-10, 6.73422E-09
DataValue, -0.9, 3, 0, 7.05877E-09, -7.63939E-10, -6.25143E-09, 7.05877E-09, 8.4016486477357519E-05, 1.4336299596766017E-10, 6.25143E-09
DataValue, -0.85000000000000009, 3, 0, 7.01976E-09, -8.4217100000000011E-10, -6.13806E-09, 7.01976E-09, 8.3784008020624078E-05, 1.2371326087035887E-10, 6.13806E-09
DataValue, -0.8, 3, 0, 6.87311E-09, -9.8706E-10, -5.82957E-09, 6.87311E-09, 8.29042218466587E-05, 4.0018090696748689E-10, 5.82957E-09
DataValue, -0.75, 3, 0, 6.68855E-09, -1.21907E-09, -5.40587E-09, 6.68855E-09, 8.1783555804330253E-05, 1.4448489407006602E-10, 5.40587E-09
DataValue, -0.70000000000000007, 3, 0, 6.67525E-09, -1.43824E-09, -5.15603E-09, 6.67525E-09, 8.1702203152669015E-05, 2.7312965649766617E-11, 5.15603E-09
DataValue, -0.65, 3, 0, 6.60334E-09, -1.70784E-09, -4.89109E-09, 6.60334E-09, 8.1260937725330238E-05, 7.6571602091567825E-12, 4.89109E-09
DataValue, -0.6, 3, 0, 6.63011E-09, -1.94458E-09, -4.7789E-09, 6.63011E-09, 8.1425487410269765E-05, 6.968801214015791E-09, 4.7789E-09
DataValue, -0.55, 3, 0, 8.02975E-09, -2.25046E-09, -5.60071E-09, 8.02975E-09, 8.9608872328581385E-05, 5.1414533696814335E-09, 5.60071E-09
DataValue, -0.5, 3, 0, 7.84923E-09, -2.59441E-09, -5.03029E-09, 7.84923E-09, 8.8595880265393835E-05, 1.9108796490957716E-10, 5.03029E-09
DataValue, -0.45, 3, 0, 7.78392E-09, -3.12273E-09, -4.61622E-09, 7.78392E-09, 8.8226526623232766E-05, 5.01740270797238E-12, 4.61622E-09
DataValue, -0.4, 3, 0, 7.80959E-09, -3.39169E-09, -4.30509E-09, 7.80959E-09, 8.8371884669277028E-05, 4.59170579058973E-10, 4.30509E-09
DataValue, -0.35000000000000003, 3, 0, 8.16662E-09, -3.9427E-09, -4.1535E-09, 8.16662E-09, 9.0369353212247782E-05, 2.105319117324508E-09, 4.1535E-09
DataValue, -0.3, 3, 0, 8.64161E-09, -4.49529E-09, -3.93537E-09, 8.64161E-09, 9.2960260326657872E-05, 3.17094621866259E-09, 3.93537E-09
DataValue, -0.25, 3, 0, 9.21609E-09, -5.18858E-09, -4.0759E-09, 9.21609E-09, 9.60004687488556E-05, 3.6782253927180815E-09, 4.0759E-09
DataValue, -0.2, 3, 0, 9.80597E-09, -5.77705E-09, -3.75356E-09, 9.80597E-09, 9.9025097828782789E-05, 7.8051052852653274E-10, 3.75356E-09
DataValue, -0.15, 3, 0, 9.7602999999999991E-09, -6.32844E-09, -3.29819E-09, 9.7602999999999991E-09, 9.8794230600779509E-05, 2.5443044814311198E-09, 3.29819E-09
DataValue, -0.1, 3, 0, 1.0830399999999999E-08, -7.64666E-09, -3.11159E-09, 1.0830399999999999E-08, 0.00010406920774177152, 1.319772288501534E-08, 3.11159E-09
DataValue, -0.05, 3, 0, 1.21622E-08, -8.89008E-09, -2.90529E-09, 1.21622E-08, 0.00011028236486401622, 1.2083538217472089E-08, 2.90529E-09
DataValue, 0, 3, 0, 1.32392E-08, -9.9474999999999986E-09, -2.60319E-09, 1.32392E-08, 0.00011506172256662943, 1.1164671322795186E-08, 2.60319E-09
DataValue, 0.05, 3, 0, 1.4604399999999998E-08, -1.2164199999999998E-08, -2.28468E-09, 1.4604399999999998E-08, 0.00012084866569391653, 2.0624485486853282E-08, 2.28468E-09
DataValue, 0.1, 3, 0, 1.6750299999999997E-08, -1.4343199999999999E-08, -2.06497E-09, 1.6750299999999997E-08, 0.00012942295005137226, 3.8156423933508453E-08, 2.06497E-09
DataValue, 0.15, 3, 0, 1.9707199999999997E-08, -1.74526E-08, -1.88904E-09, 1.9707199999999997E-08, 0.00014038233507104801, 4.5019002595485214E-08, 1.88904E-09
DataValue, 0.2, 3, 0, 2.2692599999999998E-08, -2.06347E-08, -1.72792E-09, 2.2692599999999998E-08, 0.0001506406319689346, 5.0835776747670895E-08, 1.72792E-09
DataValue, 0.25, 3, 0, 2.6545899999999996E-08, -2.4384E-08, -1.42642E-09, 2.6545899999999996E-08, 0.00016292912569580676, 6.3968655905628689E-08, 1.42642E-09
DataValue, 0.3, 3, 0, 3.0952299999999995E-08, -2.8863899999999997E-08, -1.49019E-09, 3.0952299999999995E-08, 0.00017593265757101493, 7.2914603303651151E-08, 1.49019E-09
DataValue, 0.35000000000000003, 3, 0, 3.6074099999999995E-08, -3.3632499999999994E-08, -1.42731E-09, 3.6074099999999995E-08, 0.0001899318298758794, 8.2207434924866476E-08, 1.42731E-09
DataValue, 0.4, 3, 0, 4.1862999999999996E-08, -3.9536E-08, -1.29489E-09, 4.1862999999999996E-08, 0.00020460449652927963, 8.18933862216431E-08, 1.29489E-09
DataValue, 0.45, 3, 0, 4.7763599999999995E-08, -4.61442E-08, -1.18806E-09, 4.7763599999999995E-08, 0.00021854885037446434, 8.8361203879520739E-08, 1.18806E-09
DataValue, 0.5, 3, 0, 5.4910599999999993E-08, -5.3072499999999994E-08, -1.07297E-09, 5.4910599999999993E-08, 0.00023433010903424253, 9.115555719159248E-08, 1.07297E-09
DataValue, 0.55, 3, 0, 6.1872E-08, -5.9805299999999988E-08, -1.00386E-09, 6.1872E-08, 0.000248740828976668, 9.356598639849395E-08, 1.00386E-09
DataValue, 0.6, 3, 0, 7.01819E-08, -6.8360799999999988E-08, -8.1701300000000008E-10, 7.01819E-08, 0.00026491866676397113, 8.781478316333596E-08, 8.1701300000000008E-10
DataValue, 0.65, 3, 0, 7.7492299999999993E-08, -7.5325199999999992E-08, -7.58306E-10, 7.7492299999999993E-08, 0.00027837438818971834, 8.6473187238854357E-08, 7.58306E-10
DataValue, 0.70000000000000007, 3, 0, 8.66272E-08, -8.4339599999999991E-08, -6.6379300000000007E-10, 8.66272E-08, 0.00029432499044423666, 5.5569997299371113E-08, 6.6379300000000007E-10
DataValue, 0.75, 3, 0, 9.1172399999999986E-08, -8.9089E-08, -5.18969E-10, 9.1172399999999986E-08, 0.00030194767758669709, 4.6467477580726475E-08, 5.18969E-10
DataValue, 0.8, 3, 0, 9.9781E-08, -9.6449099999999985E-08, -4.6797E-10, 9.9781E-08, 0.0003158813068226735, 1.21952745759373E-07, 4.6797E-10
DataValue, 0.85000000000000009, 3, 0, 1.13481E-07, -1.09722E-07, -4.2189900000000005E-10, 1.13481E-07, 0.00033686941089983223, 1.6071437620796674E-07, 4.2189900000000005E-10
DataValue, 0.9, 3, 0, 1.26715E-07, -1.23817E-07, -3.81137E-10, 1.26715E-07, 0.00035597050439608056, 1.6203773592534729E-07, 3.81137E-10
DataValue, 0.95000000000000007, 3, 0, 1.42222E-07, -1.39798E-07, -3.4148400000000003E-10, 1.42222E-07, 0.00037712332200488477, 1.8142847264031812E-07, 3.4148400000000003E-10
DataValue, 1, 3, 0, 1.58854E-07, -1.55273E-07, -3.0234900000000004E-10, 1.58854E-07, 0.00039856492570219975, 1.7031170339063125E-07, 3.0234900000000004E-10
DataValue, 1.05, 3, 0, 1.75052E-07, -1.72141E-07, -2.7709E-10, 1.75052E-07, 0.00041839216053841163, 1.7354623673668048E-07, 2.7709E-10
DataValue, 1.1, 3, 0, 1.93797E-07, -1.9077499999999999E-07, -2.59095E-10, 1.93797E-07, 0.00044022380671653819, 1.9485305112642004E-07, 2.59095E-10
DataValue, 1.1500000000000001, 3, 0, 2.13938E-07, -2.10018E-07, -2.3347100000000003E-10, 2.13938E-07, 0.00046253432305073315, 1.9995560517948768E-07, 2.3347100000000003E-10
DataValue, 1.2, 3, 0, 2.35167E-07, -2.3136699999999998E-07, -2.10706E-10, 2.35167E-07, 0.00048494020249923597, 2.0087079193640761E-07, 2.10706E-10
DataValue, 1.25, 3, 0, 2.57407E-07, -2.5271699999999997E-07, -2.00913E-10, 2.57407E-07, 0.00050735293435635116, 2.1194236134833533E-07, 2.00913E-10
DataValue, 1.3, 3, 0, 2.81937E-07, -2.7710999999999997E-07, -1.85783E-10, 2.81937E-07, 0.00053097740064902955, 2.2166216168727427E-07, 1.85783E-10
DataValue, 1.35, 3, 0, 3.07397E-07, -3.03264E-07, -1.73103E-10, 3.07397E-07, 0.00055443394556971347, 2.3010303611662911E-07, 1.73103E-10
DataValue, 1.4000000000000001, 3, 0, 3.35179E-07, -3.30744E-07, -1.5463100000000002E-10, 3.35179E-07, 0.00057894645693708148, 2.6143873256494646E-07, 1.5463100000000002E-10
DataValue, 1.4500000000000002, 3, 0, 3.66709E-07, -3.61112E-07, -1.3261300000000002E-10, 3.66709E-07, 0.00060556502541015366, 2.8560338032177823E-07, 1.3261300000000002E-10
DataValue, 1.5, 3, 0, 3.99915E-07, -3.93249E-07, -1.0973100000000001E-10, 3.99915E-07, 0.00063238833006310294, 2.7413834521668E-07, 1.0973100000000001E-10
DataValue, 1.55, 3, 0, 4.32863E-07, -4.2776799999999997E-07, -8.6056E-11, 4.32863E-07, 0.00065792324780326774, 2.9245071042728136E-07, 8.6056E-11
DataValue, 1.6, 3, 0, 4.71237E-07, -4.64949E-07, -6.2540000000000011E-11, 4.71237E-07, 0.00068646704218046774, 3.4894035238367517E-07, 6.2540000000000011E-11
DataValue, 1.6500000000000001, 3, 0, 5.14081E-07, -5.0606299999999994E-07, -4.2972000000000006E-11, 5.14081E-07, 0.00071699442117773829, 3.6040967594838062E-07, 4.2972000000000006E-11
DataValue, 1.7000000000000002, 3, 0, 5.57264E-07, -5.48986E-07, -2.3333000000000002E-11, 5.57264E-07, 0.00074650117213571746, 3.7897927896004149E-07, 2.3333000000000002E-11
DataValue, 1.75, 3, 0, 6.06149E-07, -5.97482E-07, -9.457E-12, 6.06149E-07, 0.00077855571412712658, 3.8972238876680988E-07, 9.457E-12
DataValue, 1.8, 3, 0, 6.5436599999999994E-07, -6.4513699999999994E-07, 1.813E-12, 6.5436599999999994E-07, 0.0008089289214757993, 3.9741654915172297E-07, 1.813E-12
DataValue, 1.85, 3, 0, 7.08285E-07, -7.00074E-07, 1.048E-11, 7.08285E-07, 0.00084159669676157824, 4.4407422318214051E-07, 1.048E-11
DataValue, 1.9000000000000001, 3, 0, 7.66619E-07, -7.57058E-07, 1.624E-11, 7.66619E-07, 0.00087556781576300527, 4.6873590333810825E-07, 1.624E-11
DataValue, 1.9500000000000002, 3, 0, 8.28211E-07, -8.2075799999999994E-07, 2.1108E-11, 8.28211E-07, 0.000910060986967357, 4.95034865734278E-07, 2.1108E-11
DataValue, 2, 3, 0, 8.94777E-07, -8.84521E-07, 2.4104E-11, 8.94777E-07, 0.00094592652991656813, 5.2435589094398019E-07, 2.4104E-11
DataValue, 2.05, 3, 0, 9.6525399999999989E-07, -9.54471E-07, 2.6021000000000003E-11, 9.6525399999999989E-07, 0.00098247340930938173, 3.8307308666822225E-07, 2.6021000000000003E-11
DataValue, 2.1, 3, 0, 1.0157E-06, -1.007475E-06, 2.7731000000000003E-11, 1.0157E-06, 0.0010078194282707592, 4.2479554682465003E-07, 2.7731000000000003E-11
DataValue, 2.15, 3, 0, 1.0975700000000001E-06, -1.0770800000000001E-06, 2.9542E-11, 1.0975700000000001E-06, 0.0010476497506323381, 6.7242719087011E-07, 2.9542E-11
DataValue, 2.2, 3, 0, 1.1877100000000001E-06, -1.1753300000000002E-06, 3.0924000000000004E-11, 1.1877100000000001E-06, 0.0010898210862338828, 7.2546365918364773E-07, 3.0924000000000004E-11
DataValue, 2.25, 3, 0, 1.2832900000000002E-06, -1.27299E-06, 3.2406000000000006E-11, 1.2832900000000002E-06, 0.0011328239051150008, 7.66182948849607E-07, 3.2406000000000006E-11
DataValue, 2.3000000000000003, 3, 0, 1.3861600000000001E-06, -1.3688300000000001E-06, 3.3671E-11, 1.3861600000000001E-06, 0.0011773529632187624, 7.9703372700062617E-07, 3.3671E-11
DataValue, 2.35, 3, 0, 1.4935300000000002E-06, -1.4785800000000002E-06, 3.4783E-11, 1.4935300000000002E-06, 0.0012221006505194244, 7.656732968928165E-07, 3.4783E-11
DataValue, 2.4, 3, 0, 1.59986E-06, -1.5802200000000003E-06, 3.5923000000000004E-11, 1.59986E-06, 0.0012648557229976865, 7.7645860689086868E-07, 3.5923000000000004E-11
DataValue, 2.45, 3, 0, 1.7166700000000002E-06, -1.69454E-06, 3.7075000000000005E-11, 1.7166700000000002E-06, 0.0013102175391895806, 8.4445200470298259E-07, 3.7075000000000005E-11
DataValue, 2.5, 3, 0, 1.8407700000000003E-06, -1.8173800000000003E-06, 3.8140000000000003E-11, 1.8407700000000003E-06, 0.0013567497927031351, 9.00024986828442E-07, 3.8140000000000003E-11
DataValue, 2.5500000000000003, 3, 0, 1.9742700000000003E-06, -1.95387E-06, 3.9483E-11, 1.9742700000000003E-06, 0.0014050871859069814, 9.0664366334126473E-07, 3.9483E-11
