
SetupTitle, Transfer lin
PrimitiveTest, I/V Sweep
TestParameter, Context.MainFrame, 4155C
TestParameter, Channel.UnitType, SMU, SMU, SMU
TestParameter, Channel.Unit, SMU3:MP, SMU4:MP, SMU1:MP
TestParameter, Channel.IName, ID, IS, IG
TestParameter, Channel.VName, VD, VS, VG
TestParameter, Channel.Mode, V, COMMON, V
TestParameter, Channel.Func, CONST, CONST, VAR1
TestParameter, Channel.Index, 
TestParameter, Channel.Time, 
TestParameter, Measurement.Port.Unit, SMU3:MP, SMU4:MP, SMU1:MP
TestParameter, Measurement.Port.SeriesResistor, NONE, NONE, NONE
TestParameter, Measurement.Port.Filter, ON, ON, ON
TestParameter, Measurement.Primary.Locus, Double
TestParameter, Measurement.Primary.Scale, LINEAR
TestParameter, Measurement.Primary.Start, -2
TestParameter, Measurement.Primary.Stop, 3
TestParameter, Measurement.Primary.Step, 0.05
TestParameter, Measurement.Primary.Compliance, 0.001
TestParameter, Measurement.Primary.PowerCompliance, 0
TestParameter, Measurement.Aborting.Condition, CONTINUE AT ANY
TestParameter, Measurement.PostOutput.Value, START
TestParameter, Measurement.PostOutput.Retention, OFF
TestParameter, Measurement.Bias.Source, 0.1, 0, -2
TestParameter, Measurement.Bias.Compliance, 0.001, 0.1, 0.001
TestParameter, Measurement.Monitor.Unit, SMU3:MP, SMU4:MP, SMU1:MP
TestParameter, Measurement.Monitor.Adc, HR ADC, HR ADC, HR ADC
TestParameter, Measurement.Monitor.RangingMode, AUTO, AUTO, AUTO
TestParameter, Measurement.Monitor.RangeBoundary, , , 
TestParameter, Measurement.Monitor.RangeRating, BY FULL RANGE, BY FULL RANGE, BY FULL RANGE
TestParameter, Measurement.Monitor.RangeRatingCoeff, 50, 50, 50
TestParameter, Measurement.Timing.Hold, 0.5
TestParameter, Measurement.Timing.Delay, 0.05
TestParameter, Measurement.Adc.HighResolution.AutoZero, OFF
TestParameter, Measurement.Adc.HighResolution.Mode, AUTO
TestParameter, Measurement.Adc.HighResolution.Coeff, 1
TestParameter, Measurement.Ag16440ASelector.SemiconductorRelay.Channel1, DEFAULT
TestParameter, Measurement.Ag16440ASelector.SemiconductorRelay.Channel3, DEFAULT
TestParameter, Function.User.Name, absID, sqrtID, gm2, absIG
TestParameter, Function.User.Unit, A, A, A/V, A
TestParameter, Function.User.Definition, abs(ID), sqrt(abs(ID)), (delta(sqrtID)/delta(VG))^2, abs(IG)
TestParameter, Output.Graph.Enabled, true
TestParameter, Output.Graph.XAxis.Data, VG
TestParameter, Output.Graph.XAxis.Scale, Linear
TestParameter, Output.Graph.XAxis.Left, -5
TestParameter, Output.Graph.XAxis.Right, 7
TestParameter, Output.Graph.YAxis.Data, ID, absIG, gm2
TestParameter, Output.Graph.YAxis.Scale, Log, Log, Linear
TestParameter, Output.Graph.YAxis.Bottom, 1E-14, 1E-14, 0
TestParameter, Output.Graph.YAxis.Top, 0.01, 0.01, 1E-05
TestParameter, Output.Graph.YAxis.Group, , , 
TestParameter, Output.List.Data, VG, IG, VD, ID, VS, IS, sqrtID, gm2, absIG
TestParameter, AutoAnalysis.Interpolation, false
TestParameter, AutoAnalysis.Line1.Enabled, false
TestParameter, AutoAnalysis.Line1.Type, 1
TestParameter, AutoAnalysis.Line1.Fix, True
TestParameter, AutoAnalysis.Line1.YAxis, 0
TestParameter, AutoAnalysis.Line1.Point1.Type, 0
TestParameter, AutoAnalysis.Line1.Point1.XY.X, 
TestParameter, AutoAnalysis.Line1.Point1.XY.Y, 
TestParameter, AutoAnalysis.Line1.Point1.Data.Var, 
TestParameter, AutoAnalysis.Line1.Point1.Data.Condition, 
TestParameter, AutoAnalysis.Line1.Point1.Data.Start, false
TestParameter, AutoAnalysis.Line1.Point1.Data.StartVar, 
TestParameter, AutoAnalysis.Line1.Point1.Data.StartCondition, 
TestParameter, AutoAnalysis.Line1.Point2.Type, 0
TestParameter, AutoAnalysis.Line1.Point2.XY.X, 
TestParameter, AutoAnalysis.Line1.Point2.XY.Y, 
TestParameter, AutoAnalysis.Line1.Point2.Data.Var, 
TestParameter, AutoAnalysis.Line1.Point2.Data.Condition, 
TestParameter, AutoAnalysis.Line1.Point2.Data.Start, false
TestParameter, AutoAnalysis.Line1.Point2.Data.StartVar, 
TestParameter, AutoAnalysis.Line1.Point2.Data.StartCondition, 
TestParameter, AutoAnalysis.Line1.GradientExpr, 0
TestParameter, AutoAnalysis.Line2.Enabled, false
TestParameter, AutoAnalysis.Line2.Type, 1
TestParameter, AutoAnalysis.Line2.Fix, True
TestParameter, AutoAnalysis.Line2.YAxis, 0
TestParameter, AutoAnalysis.Line2.Point1.Type, 0
TestParameter, AutoAnalysis.Line2.Point1.XY.X, 
TestParameter, AutoAnalysis.Line2.Point1.XY.Y, 
TestParameter, AutoAnalysis.Line2.Point1.Data.Var, 
TestParameter, AutoAnalysis.Line2.Point1.Data.Condition, 
TestParameter, AutoAnalysis.Line2.Point1.Data.Start, false
TestParameter, AutoAnalysis.Line2.Point1.Data.StartVar, 
TestParameter, AutoAnalysis.Line2.Point1.Data.StartCondition, 
TestParameter, AutoAnalysis.Line2.Point2.Type, 0
TestParameter, AutoAnalysis.Line2.Point2.XY.X, 
TestParameter, AutoAnalysis.Line2.Point2.XY.Y, 
TestParameter, AutoAnalysis.Line2.Point2.Data.Var, 
TestParameter, AutoAnalysis.Line2.Point2.Data.Condition, 
TestParameter, AutoAnalysis.Line2.Point2.Data.Start, false
TestParameter, AutoAnalysis.Line2.Point2.Data.StartVar, 
TestParameter, AutoAnalysis.Line2.Point2.Data.StartCondition, 
TestParameter, AutoAnalysis.Line2.GradientExpr, 0
TestParameter, AutoAnalysis.Marker.Enabled, false
TestParameter, AutoAnalysis.Marker.Data.Var, 
TestParameter, AutoAnalysis.Marker.Data.Condition, 
TestParameter, AutoAnalysis.Marker.Data.Start, false
TestParameter, AutoAnalysis.Marker.Data.StartVar, 
TestParameter, AutoAnalysis.Marker.Data.StartCondition, 
MetaData, TestRecord.EntryPoint, true
MetaData, TestRecord.RecordTime, 06/18/2019 15:59:07
MetaData, TestRecord.TestTarget, 11-13
MetaData, TestRecord.IterationIndex, 1
MetaData, TestRecord.Preservation, true
MetaData, TestRecord.Flag, 
MetaData, TestRecord.Remarks, good
MetaData, TestRecord.LinkKey, 0a11c096-0daf-4539-a155-c1c1f2946c7c
Dimension1, 202, 202, 202, 202, 202, 202, 202, 202, 202, 202
Dimension2, 1, 1, 1, 1, 1, 1, 1, 1, 1, 1
DataName, VG, VD, VS, ID, IS, IG, absID, sqrtID, gm2, absIG
DataValue, -2, 0.1, 0, 8.4930000000000011E-12, 3.217E-12, -1.1423000000000001E-11, 8.4930000000000011E-12, 2.9142752100651032E-06, 8.2664622133717011E-11, 1.1423000000000001E-11
DataValue, -1.9500000000000002, 0.1, 0, 6.05E-12, 1.232E-12, -1.0293E-11, 6.05E-12, 2.4596747752497689E-06, 2.7443187288741414E-12, 1.0293E-11
DataValue, -1.9000000000000001, 0.1, 0, 9.486E-12, 1.1710000000000002E-12, -9.4970000000000012E-12, 9.486E-12, 3.0799350642505435E-06, 1.8098856393802217E-14, 9.4970000000000012E-12
DataValue, -1.85, 0.1, 0, 5.984E-12, -2.636E-12, -8.4130000000000014E-12, 5.984E-12, 2.446221576227305E-06, 3.60987459896445E-11, 8.4130000000000014E-12
DataValue, -1.8, 0.1, 0, 6.1460000000000007E-12, 3.99E-13, -7.587E-12, 6.1460000000000007E-12, 2.4791127445116331E-06, 1.9209192835281632E-14, 7.587E-12
DataValue, -1.75, 0.1, 0, 6.0520000000000005E-12, 7.53E-13, -6.6960000000000005E-12, 6.0520000000000005E-12, 2.4600812994695929E-06, 3.66121395541159E-11, 6.6960000000000005E-12
DataValue, -1.7000000000000002, 0.1, 0, 3.5120000000000004E-12, -3.208E-12, -5.8720000000000008E-12, 3.5120000000000004E-12, 1.8740330840195967E-06, 7.465556657623387E-12, 5.8720000000000008E-12
DataValue, -1.6500000000000001, 0.1, 0, 7.471E-12, -5.38E-13, -5.7440000000000006E-12, 7.471E-12, 2.7333130080545111E-06, 1.0414976712425993E-13, 5.7440000000000006E-12
DataValue, -1.6, 0.1, 0, 3.6340000000000005E-12, 3.4900000000000003E-13, -5.2600000000000006E-12, 3.6340000000000005E-12, 1.9063053270659453E-06, 2.2930954388586826E-10, 5.2600000000000006E-12
DataValue, -1.55, 0.1, 0, 1.4860000000000001E-12, 2.159E-12, -4.3900000000000005E-12, 1.4860000000000001E-12, 1.2190159966136621E-06, 5.1133313906696624E-12, 4.3900000000000005E-12
DataValue, -1.5, 0.1, 0, 2.8230000000000004E-12, 3.5600000000000005E-13, -3.6400000000000006E-12, 2.8230000000000004E-12, 1.6801785619391769E-06, 9.8200445434482833E-11, 3.6400000000000006E-12
DataValue, -1.4500000000000002, 0.1, 0, 4.8840000000000006E-12, -2.3491000000000003E-11, -2.674E-12, 4.8840000000000006E-12, 2.2099773754498031E-06, 5.44769877735434E-11, 2.674E-12
DataValue, -1.4000000000000001, 0.1, 0, 5.848E-12, 9.185E-12, -5.438E-12, 5.848E-12, 2.4182638400306943E-06, 9.8363151335274785E-11, 5.438E-12
DataValue, -1.35, 0.1, 0, 1.4840000000000001E-12, -2.1420000000000004E-12, -3.413E-12, 1.4840000000000001E-12, 1.2181953866272849E-06, 8.95919359827396E-11, 3.413E-12
DataValue, -1.3, 0.1, 0, 2.1660000000000003E-12, -4.504E-12, -1.6350000000000002E-12, 2.1660000000000003E-12, 1.4717336715588184E-06, 1.0489898991256802E-11, 1.6350000000000002E-12
DataValue, -1.25, 0.1, 0, 2.378E-12, -2.048E-12, -2.9050000000000002E-12, 2.378E-12, 1.5420765220960988E-06, 2.9516850135248867E-11, 2.9050000000000002E-12
DataValue, -1.2, 0.1, 0, 8.6200000000000006E-13, -4.4550000000000007E-12, -1.6510000000000001E-12, 8.6200000000000006E-13, 9.2843955107481289E-07, 4.2308363763550195E-11, 1.6510000000000001E-12
DataValue, -1.1500000000000001, 0.1, 0, 7.95E-13, -1.918E-12, -1.902E-12, 7.95E-13, 8.9162772500635037E-07, 2.4241212121257246E-13, 1.902E-12
DataValue, -1.1, 0.1, 0, 7.73E-13, -2.323E-12, -1.6200000000000002E-12, 7.73E-13, 8.7920418561333065E-07, 6.2313846154940048E-13, 1.6200000000000002E-12
DataValue, -1.05, 0.1, 0, 9.42E-13, 2.5300000000000003E-13, -1.7200000000000001E-12, 9.42E-13, 9.7056684468407427E-07, 7.0929930785810487E-13, 1.7200000000000001E-12
DataValue, -1, 0.1, 0, 6.32E-13, -1.6370000000000002E-12, -9.73E-13, 6.32E-13, 7.9498427657407165E-07, 6.2575171845122056E-12, 9.73E-13
DataValue, -0.95000000000000007, 0.1, 0, 5.19E-13, -2.448E-12, -1.1580000000000001E-12, 5.19E-13, 7.20416546173115E-07, 3.5442903303241612E-11, 1.1580000000000001E-12
DataValue, -0.9, 0.1, 0, 1.9330000000000003E-12, 4.543E-12, -3.05E-13, 1.9330000000000003E-12, 1.3903237033151669E-06, 6.7370541265278571E-13, 3.05E-13
DataValue, -0.85000000000000009, 0.1, 0, -6.4400000000000008E-13, -3.1860000000000004E-12, -5.9600000000000009E-13, 6.4400000000000008E-13, 8.024961059095552E-07, 1.2292891820349741E-11, 5.9600000000000009E-13
DataValue, -0.8, 0.1, 0, 1.0810000000000001E-12, -7.7800000000000012E-12, -6.2400000000000007E-13, 1.0810000000000001E-12, 1.0397114984456026E-06, 3.2666924365419172E-13, 6.2400000000000007E-13
DataValue, -0.75, 0.1, 0, 7.3900000000000008E-13, 4.9860000000000008E-12, -2.623E-12, 7.3900000000000008E-13, 8.5965109201349825E-07, 1.0829231578095944E-11, 2.623E-12
DataValue, -0.70000000000000007, 0.1, 0, -5.0500000000000007E-13, 2.8720000000000003E-12, -7.8000000000000011E-13, 5.0500000000000007E-13, 7.1063352017759482E-07, 7.3950004227972363E-11, 7.8000000000000011E-13
DataValue, -0.65, 0.1, 0, 2.9570000000000004E-12, -3.2730000000000003E-12, 2.36E-13, 2.9570000000000004E-12, 1.7195929750961419E-06, 2.457558169935566E-13, 2.36E-13
DataValue, -0.6, 0.1, 0, 4.3700000000000006E-13, -3.54E-13, -1.0600000000000001E-12, 4.3700000000000006E-13, 6.6105975524153645E-07, 1.1699179596013287E-10, 1.0600000000000001E-12
DataValue, -0.55, 0.1, 0, 4.0700000000000003E-13, -4.472E-12, 2.2500000000000003E-13, 4.0700000000000003E-13, 6.379655163094633E-07, 6.836422241067991E-15, 2.2500000000000003E-13
DataValue, -0.5, 0.1, 0, 4.48E-13, 1.479E-12, -4.21E-13, 4.48E-13, 6.6932802122726042E-07, 4.7861399455677409E-12, 4.21E-13
DataValue, -0.45, 0.1, 0, -7.340000000000001E-13, 4.8320000000000004E-12, -1.0660000000000001E-12, 7.340000000000001E-13, 8.567379996241559E-07, 6.0058023181720866E-11, 1.0660000000000001E-12
DataValue, -0.4, 0.1, 0, 2.086E-12, -3.601E-12, 1.331E-12, 2.086E-12, 1.4442991379904649E-06, 1.3247941922030314E-10, 1.331E-12
DataValue, -0.35000000000000003, 0.1, 0, 4.031E-12, -1.0492E-11, 4.64E-13, 4.031E-12, 2.0077350422802308E-06, 6.2783069469091508E-12, 4.64E-13
DataValue, -0.3, 0.1, 0, 1.425E-12, 2.925E-12, -1.7460000000000002E-12, 1.425E-12, 1.1937336386313321E-06, 1.0002678957981577E-11, 1.7460000000000002E-12
DataValue, -0.25, 0.1, 0, 5.401E-12, -6.1730000000000005E-12, 7.28E-13, 5.401E-12, 2.3240051635054516E-06, 2.9054624431975248E-10, 7.28E-13
DataValue, -0.2, 0.1, 0, 8.4000000000000014E-12, -1.1149000000000001E-11, 1.2790000000000001E-12, 8.4000000000000014E-12, 2.898275349237888E-06, 4.3333624409454897E-10, 1.2790000000000001E-12
DataValue, -0.15, 0.1, 0, 1.941E-11, -1.5035E-11, 1.7800000000000002E-13, 1.941E-11, 4.4056781543821382E-06, 3.3948253280660526E-10, 1.7800000000000002E-13
DataValue, -0.1, 0.1, 0, 2.2475000000000002E-11, -2.2071000000000003E-11, -3.2200000000000004E-13, 2.2475000000000002E-11, 4.7407805264534238E-06, 1.3736904093418366E-10, 3.2200000000000004E-13
DataValue, -0.05, 0.1, 0, 3.1111000000000005E-11, -3.0476000000000005E-11, 5.1E-13, 3.1111000000000005E-11, 5.5777235499798669E-06, 5.0223187442529177E-10, 5.1E-13
DataValue, 0, 0.1, 0, 4.8746000000000004E-11, -5.095E-11, 1.345E-12, 4.8746000000000004E-11, 6.9818335700587996E-06, 7.7541785907418831E-10, 1.345E-12
DataValue, 0.05, 0.1, 0, 6.9929E-11, -6.7544E-11, 2.0100000000000003E-13, 6.9929E-11, 8.3623561273124463E-06, 1.141768265802905E-09, 2.0100000000000003E-13
DataValue, 0.1, 0.1, 0, 1.0734700000000001E-10, -1.06542E-10, 1.6490000000000001E-12, 1.0734700000000001E-10, 1.0360839734307254E-05, 1.9147755653954873E-09, 1.6490000000000001E-12
DataValue, 0.15, 0.1, 0, 1.6226100000000003E-10, -1.5640900000000002E-10, 6.83E-13, 1.6226100000000003E-10, 1.2738170983308398E-05, 3.025789374404628E-09, 6.83E-13
DataValue, 0.2, 0.1, 0, 2.51589E-10, -2.43926E-10, 1.3710000000000001E-12, 2.51589E-10, 1.5861557300593155E-05, 4.8713225917468266E-09, 1.3710000000000001E-12
DataValue, 0.25, 0.1, 0, 3.8878600000000003E-10, -3.72753E-10, 1.4920000000000001E-12, 3.8878600000000003E-10, 1.9717657061628798E-05, 7.7636190925607332E-09, 1.4920000000000001E-12
DataValue, 0.3, 0.1, 0, 6.08742E-10, -5.7949400000000007E-10, 1.0330000000000001E-12, 6.08742E-10, 2.4672697460958742E-05, 9.681491683382329E-09, 1.0330000000000001E-12
DataValue, 0.35000000000000003, 0.1, 0, 8.7362300000000006E-10, -8.0498400000000008E-10, 1.0940000000000002E-12, 8.7362300000000006E-10, 2.9557114202844635E-05, 1.3169593210880915E-08, 1.0940000000000002E-12
DataValue, 0.4, 0.1, 0, 1.30672E-09, -1.24425E-09, 1.4970000000000002E-12, 1.30672E-09, 3.6148582268188607E-05, 2.81695823226164E-08, 1.4970000000000002E-12
DataValue, 0.45, 0.1, 0, 2.14748E-09, -2.09707E-09, 2.0750000000000003E-12, 2.14748E-09, 4.6340910651388804E-05, 4.737855005158997E-08, 2.0750000000000003E-12
DataValue, 0.5, 0.1, 0, 3.35417E-09, -3.27293E-09, 1.7350000000000002E-12, 3.35417E-09, 5.7915196624029514E-05, 5.8010470385814818E-08, 1.7350000000000002E-12
DataValue, 0.55, 0.1, 0, 4.95986E-09, -4.83566E-09, 2.136E-12, 4.95986E-09, 7.0426273506412362E-05, 6.8114064252069677E-08, 2.136E-12
DataValue, 0.6, 0.1, 0, 7.05833E-09, -6.87921E-09, 1.6780000000000001E-12, 7.05833E-09, 8.40138679028647E-05, 5.8470895254566022E-08, 1.6780000000000001E-12
DataValue, 0.65, 0.1, 0, 8.95049E-09, -8.82024E-09, 1.5130000000000001E-12, 8.95049E-09, 9.4607029337148092E-05, 6.0475864234416369E-08, 1.5130000000000001E-12
DataValue, 0.70000000000000007, 0.1, 0, 1.1795199999999998E-08, -1.13605E-08, 1.473E-12, 1.1795199999999998E-08, 0.00010860570887388931, 9.9935777362165878E-08, 1.473E-12
DataValue, 0.75, 0.1, 0, 1.5931399999999997E-08, -1.56707E-08, 1.312E-12, 1.5931399999999997E-08, 0.0001262196498172927, 1.2855570966308154E-07, 1.312E-12
DataValue, 0.8, 0.1, 0, 2.08688E-08, -2.0500299999999998E-08, 2.1160000000000003E-12, 2.08688E-08, 0.0001444603751898769, 1.3406754985367079E-07, 2.1160000000000003E-12
DataValue, 0.85000000000000009, 0.1, 0, 2.6515199999999997E-08, -2.6099799999999998E-08, 2.4670000000000003E-12, 2.6515199999999997E-08, 0.000162834885697138, 1.41673928887188E-07, 2.4670000000000003E-12
DataValue, 0.9, 0.1, 0, 3.3160399999999996E-08, -3.26198E-08, 2.599E-12, 3.3160399999999996E-08, 0.00018209997254255695, 1.5194311117608833E-07, 2.599E-12
DataValue, 0.95000000000000007, 0.1, 0, 4.07292E-08, -4.01829E-08, 2.7270000000000004E-12, 4.07292E-08, 0.00020181476655586924, 1.5971738642208829E-07, 2.7270000000000004E-12
DataValue, 1, 0.1, 0, 4.9312699999999997E-08, -4.86132E-08, 2.2580000000000003E-12, 4.9312699999999997E-08, 0.00022206463023183138, 1.6484740491499104E-07, 2.2580000000000003E-12
DataValue, 1.05, 0.1, 0, 5.8765599999999997E-08, -5.8017499999999997E-08, 2.5960000000000002E-12, 5.8765599999999997E-08, 0.00024241617107775628, 1.665910805051851E-07, 2.5960000000000002E-12
DataValue, 1.1, 0.1, 0, 6.9106E-08, -6.82219E-08, 3.2850000000000002E-12, 6.9106E-08, 0.00026288020085202306, 1.6591264960005003E-07, 3.2850000000000002E-12
DataValue, 1.1500000000000001, 0.1, 0, 8.0173099999999991E-08, -7.92788E-08, 3.5570000000000003E-12, 8.0173099999999991E-08, 0.00028314854758589172, 1.6517552375739467E-07, 3.5570000000000003E-12
DataValue, 1.2, 0.1, 0, 9.2125599999999992E-08, -9.10512E-08, 3.3820000000000003E-12, 9.2125599999999992E-08, 0.00030352199261338543, 1.3853276701313922E-07, 3.3820000000000003E-12
DataValue, 1.25, 0.1, 0, 1.02636E-07, -1.0182519999999999E-07, 3.2190000000000003E-12, 1.02636E-07, 0.00032036853778109984, 1.3479684406716111E-07, 3.2190000000000003E-12
DataValue, 1.3, 0.1, 0, 1.15761E-07, -1.13189E-07, 2.7630000000000002E-12, 1.15761E-07, 0.00034023668232570104, 1.574728380986779E-07, 2.7630000000000002E-12
DataValue, 1.35, 0.1, 0, 1.2963699999999999E-07, -1.28323E-07, 2.9390000000000003E-12, 1.2963699999999999E-07, 0.00036005138522160972, 1.6000068813988591E-07, 2.9390000000000003E-12
DataValue, 1.4000000000000001, 0.1, 0, 1.4458E-07, -1.43019E-07, 2.8630000000000002E-12, 1.4458E-07, 0.00038023676834309433, 1.6156210648599118E-07, 2.8630000000000002E-12
DataValue, 1.4500000000000002, 0.1, 0, 1.60197E-07, -1.58865E-07, 2.5510000000000003E-12, 1.60197E-07, 0.00040024617424779961, 1.602862261689352E-07, 2.5510000000000003E-12
DataValue, 1.5, 0.1, 0, 1.7662899999999999E-07, -1.75192E-07, 2.761E-12, 1.7662899999999999E-07, 0.0004202725306274489, 1.6372932736454439E-07, 2.761E-12
DataValue, 1.55, 0.1, 0, 1.94225E-07, -1.9259E-07, 3.6240000000000003E-12, 1.94225E-07, 0.00044070965498840619, 1.6360927355846368E-07, 3.6240000000000003E-12
DataValue, 1.6, 0.1, 0, 2.12264E-07, -2.102E-07, 5.0730000000000007E-12, 2.12264E-07, 0.00046072117381340311, 1.5947805979102175E-07, 5.0730000000000007E-12
DataValue, 1.6500000000000001, 0.1, 0, 2.3101899999999999E-07, -2.29254E-07, 5.369E-12, 2.3101899999999999E-07, 0.00048064435916798188, 1.5857543835388259E-07, 5.369E-12
DataValue, 1.7000000000000002, 0.1, 0, 2.50543E-07, -2.4884E-07, 4.954E-12, 2.50543E-07, 0.000500542705470772, 1.6286552058563477E-07, 4.954E-12
DataValue, 1.75, 0.1, 0, 2.71442E-07, -2.69313E-07, 4.307E-12, 2.71442E-07, 0.00052100095969201442, 1.6681142796901934E-07, 4.307E-12
DataValue, 1.8, 0.1, 0, 2.93098E-07, -2.9081099999999997E-07, 3.9580000000000007E-12, 2.93098E-07, 0.0005413852602352598, 1.7044879026581516E-07, 3.9580000000000007E-12
DataValue, 1.85, 0.1, 0, 3.16166E-07, -3.14095E-07, 4.3400000000000005E-12, 3.16166E-07, 0.00056228640389040176, 1.7160448807558933E-07, 4.3400000000000005E-12
DataValue, 1.9000000000000001, 0.1, 0, 3.3966799999999997E-07, -3.3750099999999997E-07, 4.2790000000000006E-12, 3.3966799999999997E-07, 0.00058281043230196214, 1.7150386092890026E-07, 4.2790000000000006E-12
DataValue, 1.9500000000000002, 0.1, 0, 3.64453E-07, -3.62017E-07, 4.2270000000000005E-12, 3.64453E-07, 0.00060369942852383086, 1.7272045298379306E-07, 4.2270000000000005E-12
DataValue, 2, 0.1, 0, 3.89838E-07, -3.87812E-07, 4.373E-12, 3.89838E-07, 0.00062437008256321827, 1.7974009493464185E-07, 4.373E-12
DataValue, 2.05, 0.1, 0, 4.17439E-07, -4.1462E-07, 4.7020000000000008E-12, 4.17439E-07, 0.00064609519422450439, 1.8563632347857159E-07, 4.7020000000000008E-12
DataValue, 2.1, 0.1, 0, 4.45497E-07, -4.43005E-07, 4.977E-12, 4.45497E-07, 0.00066745561650195134, 1.8697597005329912E-07, 4.977E-12
