
SetupTitle, Transfer stab
PrimitiveTest, I/V Sweep
TestParameter, Context.MainFrame, 4155C
TestParameter, Channel.UnitType, SMU, SMU, SMU
TestParameter, Channel.Unit, SMU3:MP, SMU4:MP, SMU1:MP
TestParameter, Channel.IName, ID, IS, IG
TestParameter, Channel.VName, VD, VS, VG
TestParameter, Channel.Mode, V, COMMON, V
TestParameter, Channel.Func, CONST, CONST, VAR1
TestParameter, Channel.Index, 
TestParameter, Channel.Time, 
TestParameter, Measurement.Port.Unit, SMU3:MP, SMU4:MP, SMU1:MP
TestParameter, Measurement.Port.SeriesResistor, NONE, NONE, NONE
TestParameter, Measurement.Port.Filter, ON, ON, ON
TestParameter, Measurement.Primary.Locus, Single
TestParameter, Measurement.Primary.Scale, LINEAR
TestParameter, Measurement.Primary.Start, -2
TestParameter, Measurement.Primary.Stop, 3
TestParameter, Measurement.Primary.Step, 0.05
TestParameter, Measurement.Primary.Compliance, 0.1
TestParameter, Measurement.Primary.PowerCompliance, 0
TestParameter, Measurement.Aborting.Condition, CONTINUE AT ANY
TestParameter, Measurement.PostOutput.Value, START
TestParameter, Measurement.PostOutput.Retention, OFF
TestParameter, Measurement.Bias.Source, 3, 0, -2
TestParameter, Measurement.Bias.Compliance, 0.1, 0.1, 0.1
TestParameter, Measurement.Monitor.Unit, SMU3:MP, SMU4:MP, SMU1:MP
TestParameter, Measurement.Monitor.Adc, HR ADC, HR ADC, HR ADC
TestParameter, Measurement.Monitor.RangingMode, AUTO, AUTO, AUTO
TestParameter, Measurement.Monitor.RangeBoundary, , , 
TestParameter, Measurement.Monitor.RangeRating, BY FULL RANGE, BY FULL RANGE, BY FULL RANGE
TestParameter, Measurement.Monitor.RangeRatingCoeff, 50, 50, 50
TestParameter, Measurement.Timing.Hold, 0.5
TestParameter, Measurement.Timing.Delay, 0.05
TestParameter, Measurement.Adc.HighResolution.AutoZero, OFF
TestParameter, Measurement.Adc.HighResolution.Mode, AUTO
TestParameter, Measurement.Adc.HighResolution.Coeff, 1
TestParameter, Measurement.Ag16440ASelector.SemiconductorRelay.Channel1, DEFAULT
TestParameter, Measurement.Ag16440ASelector.SemiconductorRelay.Channel3, DEFAULT
TestParameter, Function.User.Name, absID, sqrtID, gm2, absIG
TestParameter, Function.User.Unit, A, A, A/V, A
TestParameter, Function.User.Definition, abs(ID), sqrt(abs(ID)), (delta(sqrtID)/delta(VG))^2, abs(IG)
TestParameter, Output.Graph.Enabled, true
TestParameter, Output.Graph.XAxis.Data, VG
TestParameter, Output.Graph.XAxis.Scale, Linear
TestParameter, Output.Graph.XAxis.Left, -5
TestParameter, Output.Graph.XAxis.Right, 7
TestParameter, Output.Graph.YAxis.Data, ID, absIG, gm2
TestParameter, Output.Graph.YAxis.Scale, Log, Log, Linear
TestParameter, Output.Graph.YAxis.Bottom, 1E-14, 1E-14, 0
TestParameter, Output.Graph.YAxis.Top, 0.01, 0.01, 1E-05
TestParameter, Output.Graph.YAxis.Group, , , 
TestParameter, Output.List.Data, VG, IG, VD, ID, VS, IS, sqrtID, gm2, absIG
TestParameter, AutoAnalysis.Interpolation, false
TestParameter, AutoAnalysis.Line1.Enabled, false
TestParameter, AutoAnalysis.Line1.Type, 1
TestParameter, AutoAnalysis.Line1.Fix, True
TestParameter, AutoAnalysis.Line1.YAxis, 0
TestParameter, AutoAnalysis.Line1.Point1.Type, 0
TestParameter, AutoAnalysis.Line1.Point1.XY.X, 
TestParameter, AutoAnalysis.Line1.Point1.XY.Y, 
TestParameter, AutoAnalysis.Line1.Point1.Data.Var, 
TestParameter, AutoAnalysis.Line1.Point1.Data.Condition, 
TestParameter, AutoAnalysis.Line1.Point1.Data.Start, false
TestParameter, AutoAnalysis.Line1.Point1.Data.StartVar, 
TestParameter, AutoAnalysis.Line1.Point1.Data.StartCondition, 
TestParameter, AutoAnalysis.Line1.Point2.Type, 0
TestParameter, AutoAnalysis.Line1.Point2.XY.X, 
TestParameter, AutoAnalysis.Line1.Point2.XY.Y, 
TestParameter, AutoAnalysis.Line1.Point2.Data.Var, 
TestParameter, AutoAnalysis.Line1.Point2.Data.Condition, 
TestParameter, AutoAnalysis.Line1.Point2.Data.Start, false
TestParameter, AutoAnalysis.Line1.Point2.Data.StartVar, 
TestParameter, AutoAnalysis.Line1.Point2.Data.StartCondition, 
TestParameter, AutoAnalysis.Line1.GradientExpr, 0
TestParameter, AutoAnalysis.Line2.Enabled, false
TestParameter, AutoAnalysis.Line2.Type, 1
TestParameter, AutoAnalysis.Line2.Fix, True
TestParameter, AutoAnalysis.Line2.YAxis, 0
TestParameter, AutoAnalysis.Line2.Point1.Type, 0
TestParameter, AutoAnalysis.Line2.Point1.XY.X, 
TestParameter, AutoAnalysis.Line2.Point1.XY.Y, 
TestParameter, AutoAnalysis.Line2.Point1.Data.Var, 
TestParameter, AutoAnalysis.Line2.Point1.Data.Condition, 
TestParameter, AutoAnalysis.Line2.Point1.Data.Start, false
TestParameter, AutoAnalysis.Line2.Point1.Data.StartVar, 
TestParameter, AutoAnalysis.Line2.Point1.Data.StartCondition, 
TestParameter, AutoAnalysis.Line2.Point2.Type, 0
TestParameter, AutoAnalysis.Line2.Point2.XY.X, 
TestParameter, AutoAnalysis.Line2.Point2.XY.Y, 
TestParameter, AutoAnalysis.Line2.Point2.Data.Var, 
TestParameter, AutoAnalysis.Line2.Point2.Data.Condition, 
TestParameter, AutoAnalysis.Line2.Point2.Data.Start, false
TestParameter, AutoAnalysis.Line2.Point2.Data.StartVar, 
TestParameter, AutoAnalysis.Line2.Point2.Data.StartCondition, 
TestParameter, AutoAnalysis.Line2.GradientExpr, 0
TestParameter, AutoAnalysis.Marker.Enabled, false
TestParameter, AutoAnalysis.Marker.Data.Var, 
TestParameter, AutoAnalysis.Marker.Data.Condition, 
TestParameter, AutoAnalysis.Marker.Data.Start, false
TestParameter, AutoAnalysis.Marker.Data.StartVar, 
TestParameter, AutoAnalysis.Marker.Data.StartCondition, 
MetaData, TestRecord.EntryPoint, true
MetaData, TestRecord.RecordTime, 06/18/2019 12:55:46
MetaData, TestRecord.TestTarget, 6-15
MetaData, TestRecord.IterationIndex, 13
MetaData, TestRecord.Preservation, true
MetaData, TestRecord.Flag, 
MetaData, TestRecord.Remarks, leak
MetaData, TestRecord.LinkKey, 2c1fccab-7cae-4a30-b669-7a8c6aa4a641
Dimension1, 101, 101, 101, 101, 101, 101, 101, 101, 101, 101
Dimension2, 1, 1, 1, 1, 1, 1, 1, 1, 1, 1
DataName, VG, VD, VS, ID, IS, IG, absID, sqrtID, gm2, absIG
DataValue, -2, 3, 0, 2.5867399999999998E-08, 6.33036E-07, -7.02797E-07, 2.5867399999999998E-08, 0.00016083345423138805, 3.8584991352806916E-09, 7.02797E-07
DataValue, -1.9500000000000002, 3, 0, 2.4877999999999996E-08, 7.37231E-07, -7.8963499999999994E-07, 2.4877999999999996E-08, 0.0001577276133085136, 2.4367776383369395E-09, 7.8963499999999994E-07
DataValue, -1.9000000000000001, 3, 0, 2.43039E-08, 8.23239E-07, -8.6172E-07, 2.43039E-08, 0.00015589708143515707, 1.6765823205617712E-09, 8.6172E-07
DataValue, -1.85, 3, 0, 2.36031E-08, 8.44903E-07, -8.86764E-07, 2.36031E-08, 0.0001536330042666614, 1.3233320846852428E-09, 8.86764E-07
DataValue, -1.8, 3, 0, 2.3182899999999998E-08, 8.9761699999999993E-07, -9.32314E-07, 2.3182899999999998E-08, 0.00015225931826985171, 1.1611104613200795E-09, 9.32314E-07
DataValue, -1.75, 3, 0, 2.2567699999999998E-08, 9.46331E-07, -9.64882E-07, 2.2567699999999998E-08, 0.0001502254971700876, 8.9487029162090527E-10, 9.64882E-07
DataValue, -1.7000000000000002, 3, 0, 2.2280899999999997E-08, 9.98723E-07, -1.035296E-06, 2.2280899999999997E-08, 0.00014926788000102365, 9.7987148969865362E-10, 1.035296E-06
DataValue, -1.6500000000000001, 3, 0, 2.1636999999999997E-08, 1.055888E-06, -1.082839E-06, 2.1636999999999997E-08, 0.000147095207263867, 1.8724681310482661E-09, 1.082839E-06
DataValue, -1.6, 3, 0, 2.1007799999999998E-08, 1.072019E-06, -1.086711E-06, 2.1007799999999998E-08, 0.00014494067752014958, 1.5806006023551843E-09, 1.086711E-06
DataValue, -1.55, 3, 0, 2.0483199999999996E-08, 1.134206E-06, -1.1712400000000002E-06, 2.0483199999999996E-08, 0.00014311953046317611, 1.4057385548722285E-09, 1.1712400000000002E-06
DataValue, -1.5, 3, 0, 1.9935E-08, 1.1449600000000002E-06, -1.17815E-06, 1.9935E-08, 0.00014119135950900111, 9.2193660218397817E-10, 1.17815E-06
DataValue, -1.4500000000000002, 3, 0, 1.96233E-08, 1.1404400000000002E-06, -1.18065E-06, 1.96233E-08, 0.00014008318956962681, 5.9578171367457663E-10, 1.18065E-06
DataValue, -1.4000000000000001, 3, 0, 1.92517E-08, 1.1643300000000002E-06, -1.1640300000000002E-06, 1.92517E-08, 0.00013875049549461077, 6.2597080032928469E-10, 1.1640300000000002E-06
DataValue, -1.35, 3, 0, 1.89286E-08, 1.1443000000000002E-06, -1.1648800000000001E-06, 1.89286E-08, 0.00013758124872234587, 4.11784026903158E-10, 1.1648800000000001E-06
DataValue, -1.3, 3, 0, 1.8692699999999998E-08, 1.15501E-06, -1.17106E-06, 1.8692699999999998E-08, 0.00013672124926287062, 3.0013334492820769E-10, 1.17106E-06
DataValue, -1.25, 3, 0, 1.8454899999999997E-08, 1.1082600000000002E-06, -1.1260100000000002E-06, 1.8454899999999997E-08, 0.00013584881302389063, 6.8535621177883554E-10, 1.1260100000000002E-06
DataValue, -1.2, 3, 0, 1.7983699999999998E-08, 1.1106500000000001E-06, -1.1490700000000002E-06, 1.7983699999999998E-08, 0.00013410331837803268, 5.6309985490308165E-10, 1.1490700000000002E-06
DataValue, -1.1500000000000001, 3, 0, 1.7815799999999998E-08, 1.12711E-06, -1.1455500000000002E-06, 1.7815799999999998E-08, 0.00013347584051055829, 5.0573404999947269E-10, 1.1455500000000002E-06
DataValue, -1.1, 3, 0, 1.73856E-08, 1.0920800000000002E-06, -1.1147400000000002E-06, 1.73856E-08, 0.0001318544652258694, 1.0749757778075906E-09, 1.1147400000000002E-06
DataValue, -1.05, 3, 0, 1.6951299999999997E-08, 1.0794200000000001E-06, -1.08517E-06, 1.6951299999999997E-08, 0.0001301971581871125, 9.55020000000071E-10, 1.08517E-06
DataValue, -1, 3, 0, 1.6580199999999998E-08, 1.0347500000000001E-06, -1.0618600000000001E-06, 1.6580199999999998E-08, 0.00012876412543872613, 6.6855255784729519E-10, 1.0618600000000001E-06
DataValue, -0.95000000000000007, 3, 0, 1.6284699999999997E-08, 1.01082E-06, -1.01181E-06, 1.6284699999999997E-08, 0.00012761151985616346, 9.2986509694459335E-10, 1.01181E-06
DataValue, -0.9, 3, 0, 1.5804199999999998E-08, 9.52633E-07, -9.74882E-07, 1.5804199999999998E-08, 0.000125714756492625, 1.8873206498253316E-09, 9.74882E-07
DataValue, -0.85000000000000009, 3, 0, 1.5194799999999997E-08, 9.2778899999999994E-07, -9.42451E-07, 1.5194799999999997E-08, 0.00012326718947067787, 1.7668909071021826E-09, 9.42451E-07
DataValue, -0.8, 3, 0, 1.4764999999999999E-08, 8.62996E-07, -8.79166E-07, 1.4764999999999999E-08, 0.00012151131634543343, 1.4465755879462069E-09, 8.79166E-07
DataValue, -0.75, 3, 0, 1.4271599999999999E-08, 8.12114E-07, -8.3153E-07, 1.4271599999999999E-08, 0.00011946380204898887, 1.7623711856313508E-09, 8.3153E-07
DataValue, -0.70000000000000007, 3, 0, 1.3762399999999998E-08, 7.63668E-07, -7.62526E-07, 1.3762399999999998E-08, 0.00011731325585798051, 1.8159287223569985E-09, 7.62526E-07
DataValue, -0.65, 3, 0, 1.32716E-08, 6.86656E-07, -6.96388E-07, 1.32716E-08, 0.00011520243052991547, 1.4421903755374154E-09, 6.96388E-07
DataValue, -0.6, 3, 0, 1.28858E-08, 6.21096E-07, -6.31384E-07, 1.28858E-08, 0.00011351563768926289, 1.3822798667783639E-09, 6.31384E-07
DataValue, -0.55, 3, 0, 1.2428799999999999E-08, 5.49814E-07, -5.61637E-07, 1.2428799999999999E-08, 0.000111484528074527, 1.3135751644932445E-09, 5.61637E-07
DataValue, -0.5, 3, 0, 1.2076099999999999E-08, 4.77236E-07, -4.81112E-07, 1.2076099999999999E-08, 0.00010989130993850242, 1.0556887674162691E-09, 4.81112E-07
DataValue, -0.45, 3, 0, 1.1714899999999999E-08, 3.99592E-07, -4.11454E-07, 1.1714899999999999E-08, 0.000108235391623997, 1.1426276964507298E-09, 4.11454E-07
DataValue, -0.4, 3, 0, 1.1344599999999998E-08, 3.3147E-07, -3.39488E-07, 1.1344599999999998E-08, 0.00010651103229243438, 1.0043968068950463E-09, 3.39488E-07
DataValue, -0.35000000000000003, 3, 0, 1.1038899999999998E-08, 2.6065299999999997E-07, -2.65311E-07, 1.1038899999999998E-08, 0.0001050661696265739, 7.4819349586399163E-10, 2.65311E-07
DataValue, -0.3, 3, 0, 1.0769399999999999E-08, 1.97677E-07, -2.05682E-07, 1.0769399999999999E-08, 0.00010377571970359925, 6.250466826282349E-10, 2.05682E-07
DataValue, -0.25, 3, 0, 1.0519799999999998E-08, 1.37067E-07, -1.45618E-07, 1.0519799999999998E-08, 0.00010256607626306077, 4.7093757726499751E-10, 1.45618E-07
DataValue, -0.2, 3, 0, 1.0323699999999999E-08, 8.2743699999999987E-08, -9.221929999999999E-08, 1.0323699999999999E-08, 0.0001016056100813336, 4.1695590093123416E-10, 9.221929999999999E-08
DataValue, -0.15, 3, 0, 1.0105099999999999E-08, 4.29795E-08, -5.1618999999999994E-08, 1.0105099999999999E-08, 0.00010052412645728387, 4.3734917888748091E-10, 5.1618999999999994E-08
DataValue, -0.1, 3, 0, 9.9031E-09, 1.8271E-08, -2.7556699999999997E-08, 9.9031E-09, 9.9514320577492771E-05, 4.3138595405182206E-10, 2.7556699999999997E-08
DataValue, -0.05, 3, 0, 9.69184E-09, 5.12463E-09, -1.45071E-08, 9.69184E-09, 9.8447143178458972E-05, 4.3133202574924766E-10, 1.45071E-08
DataValue, 0, 3, 0, 9.49406E-09, -1.02038E-09, -8.36938E-09, 9.49406E-09, 9.74374671263575E-05, 4.5939621435163369E-10, 8.36938E-09
DataValue, 0.05, 3, 0, 9.27442E-09, -5.02446E-09, -4.36865E-09, 9.27442E-09, 9.6303790164250548E-05, 5.4382209919342532E-10, 4.36865E-09
DataValue, 0.1, 3, 0, 9.04505E-09, -9.22737E-09, -6.62511E-10, 9.04505E-09, 9.5105467771311653E-05, 7.6028748969978488E-10, 6.62511E-10
DataValue, 0.15, 3, 0, 8.75094E-09, -1.2182899999999999E-08, 2.00553E-09, 8.75094E-09, 9.3546459045759726E-05, 1.1605010882418288E-09, 2.00553E-09
DataValue, 0.2, 3, 0, 8.40868E-09, -1.8429699999999997E-08, 9.30608E-09, 8.40868E-09, 9.1698854954683047E-05, 1.0134473817422237E-09, 9.30608E-09
DataValue, 0.25, 3, 0, 8.16547E-09, -2.7688399999999998E-08, 1.68724E-08, 8.16547E-09, 9.0362990211701155E-05, 7.1741695715394034E-10, 1.68724E-08
DataValue, 0.3, 3, 0, 7.92463E-09, -4.24732E-08, 3.24296E-08, 7.92463E-09, 8.9020390922529656E-05, 5.9936926515242985E-10, 3.24296E-08
DataValue, 0.35000000000000003, 3, 0, 7.72901E-09, -6.4972699999999993E-08, 5.5152099999999995E-08, 7.72901E-09, 8.7914788289570486E-05, 4.6862013838227821E-10, 5.5152099999999995E-08
DataValue, 0.4, 3, 0, 7.5439E-09, -9.2326799999999993E-08, 8.3236499999999992E-08, 7.5439E-09, 8.6855627336402343E-05, 5.0873768927280049E-10, 8.3236499999999992E-08
DataValue, 0.45, 3, 0, 7.33751E-09, -1.18154E-07, 1.02636E-07, 7.33751E-09, 8.5659266865879724E-05, 5.2345001221975151E-10, 1.02636E-07
DataValue, 0.5, 3, 0, 7.1517E-09, -1.5485E-07, 1.43627E-07, 7.1517E-09, 8.4567724339726673E-05, 3.7129266028356023E-10, 1.43627E-07
DataValue, 0.55, 3, 0, 7.01111E-09, -2.06255E-07, 1.97453E-07, 7.01111E-09, 8.37323712789743E-05, 2.9363405796449803E-10, 1.97453E-07
DataValue, 0.6, 3, 0, 6.8648099999999996E-09, -2.81421E-07, 2.6424E-07, 6.8648099999999996E-09, 8.2854148960688744E-05, 3.15844199475494E-10, 2.6424E-07
DataValue, 0.65, 3, 0, 6.71665E-09, -3.58682E-07, 3.46131E-07, 6.71665E-09, 8.1955170672752553E-05, 2.681286657791914E-10, 3.46131E-07
DataValue, 0.70000000000000007, 3, 0, 6.59615E-09, -4.5374699999999997E-07, 4.40125E-07, 6.59615E-09, 8.1216685477800677E-05, 2.4447406174716792E-10, 4.40125E-07
DataValue, 0.75, 3, 0, 6.46281E-09, -5.77024E-07, 5.6577299999999994E-07, 6.46281E-09, 8.039160403922788E-05, 3.3744409465748836E-10, 5.6577299999999994E-07
DataValue, 0.8, 3, 0, 6.30114E-09, -7.16164E-07, 6.8955E-07, 6.30114E-09, 7.937972033208482E-05, 6.1337972229884059E-10, 6.8955E-07
DataValue, 0.85000000000000009, 3, 0, 6.07074E-09, -8.8796E-07, 8.61015E-07, 6.07074E-09, 7.7914953635358086E-05, 1.1996859216714033E-09, 8.61015E-07
DataValue, 0.9, 3, 0, 5.76325E-09, -1.092739E-06, 1.04644E-06, 5.76325E-09, 7.5916072079632786E-05, 2.0342386754804829E-09, 1.04644E-06
DataValue, 0.95000000000000007, 3, 0, 5.38825E-09, -1.2773200000000002E-06, 1.24838E-06, 5.38825E-09, 7.3404700121994915E-05, 1.5490498054713989E-09, 1.24838E-06
DataValue, 1, 3, 0, 5.18116E-09, -1.5692300000000001E-06, 1.5373800000000002E-06, 5.18116E-09, 7.19802750758845E-05, 7.22958954937159E-10, 1.5373800000000002E-06
DataValue, 1.05, 3, 0, 5.00074E-09, -1.9090500000000004E-06, 1.8884400000000003E-06, 5.00074E-09, 7.0715910515244029E-05, 5.5220007573801679E-10, 1.8884400000000003E-06
DataValue, 1.1, 3, 0, 4.84839E-09, -2.31832E-06, 2.27713E-06, 4.84839E-09, 6.9630381300119268E-05, 4.1544943391628216E-10, 2.27713E-06
DataValue, 1.1500000000000001, 3, 0, 4.71662E-09, -2.7507500000000003E-06, 2.7246400000000004E-06, 4.71662E-09, 6.8677652842828E-05, 3.4200464232291119E-10, 2.7246400000000004E-06
DataValue, 1.2, 3, 0, 4.59427E-09, -3.28277E-06, 3.26775E-06, 4.59427E-09, 6.77810445478675E-05, 3.1105608590758272E-10, 3.26775E-06
DataValue, 1.25, 3, 0, 4.47748E-09, -3.9143800000000005E-06, 3.92208E-06, 4.47748E-09, 6.6913974624139614E-05, 2.5493896907171017E-10, 3.92208E-06
DataValue, 1.3, 3, 0, 4.38037E-09, -4.6678400000000007E-06, 4.64036E-06, 4.38037E-09, 6.6184363712284793E-05, 2.5709199829324811E-10, 4.64036E-06
DataValue, 1.35, 3, 0, 4.26547E-09, -5.3984500000000008E-06, 5.3759900000000009E-06, 4.26547E-09, 6.531056576083229E-05, 3.1232970894666903E-10, 5.3759900000000009E-06
DataValue, 1.4000000000000001, 3, 0, 4.14956E-09, -6.2601E-06, 6.28492E-06, 4.14956E-09, 6.4417078480787993E-05, 3.3850990170819142E-10, 6.28492E-06
DataValue, 1.4500000000000002, 3, 0, 4.02853E-09, -7.3741800000000008E-06, 7.2977300000000009E-06, 4.02853E-09, 6.3470701902531377E-05, 3.9083200530816425E-10, 7.2977300000000009E-06
DataValue, 1.5, 3, 0, 3.89877E-09, -8.4167200000000016E-06, 8.43779E-06, 3.89877E-09, 6.2440131325934927E-05, 3.4066342321206875E-10, 8.43779E-06
DataValue, 1.55, 3, 0, 3.79764E-09, -9.6643000000000016E-06, 9.67005E-06, 3.79764E-09, 6.1624994929005873E-05, 3.1790178854955071E-10, 9.67005E-06
DataValue, 1.6, 3, 0, 3.67929E-09, -1.0895790000000001E-05, 1.0986560000000001E-05, 3.67929E-09, 6.0657151268420118E-05, 3.9421887897666776E-10, 1.0986560000000001E-05
DataValue, 1.6500000000000001, 3, 0, 3.55687E-09, -1.2426900000000001E-05, 1.2400500000000001E-05, 3.55687E-09, 5.963950033325229E-05, 3.0081615226960241E-10, 1.2400500000000001E-05
DataValue, 1.7000000000000002, 3, 0, 3.47189E-09, -1.39899E-05, 1.40791E-05, 3.47189E-09, 5.8922746032410947E-05, 1.6011415578841899E-10, 1.40791E-05
DataValue, 1.75, 3, 0, 3.40754E-09, -1.58099E-05, 1.5899200000000002E-05, 3.40754E-09, 5.83741381092689E-05, 1.3988390160299157E-10, 1.5899200000000002E-05
DataValue, 1.8, 3, 0, 3.33391E-09, -1.76934E-05, 1.76245E-05, 3.33391E-09, 5.7740020782815796E-05, 1.3342221388954077E-10, 1.76245E-05
DataValue, 1.85, 3, 0, 3.27402E-09, -1.95964E-05, 1.97489E-05, 3.27402E-09, 5.7219052770908393E-05, 1.7081525316073317E-10, 1.97489E-05
DataValue, 1.9000000000000001, 3, 0, 3.18469E-09, -2.17813E-05, 2.1753900000000002E-05, 3.18469E-09, 5.6433057687848178E-05, 1.8945230145588538E-10, 2.1753900000000002E-05
DataValue, 1.9500000000000002, 3, 0, 3.1184E-09, -2.3954500000000002E-05, 2.39367E-05, 3.1184E-09, 5.5842636040932018E-05, 1.6830290737185652E-10, 2.39367E-05
DataValue, 2, 3, 0, 3.03995E-09, -2.6354200000000003E-05, 2.63178E-05, 3.03995E-09, 5.5135741583840153E-05, 2.2206221120283445E-10, 2.63178E-05
DataValue, 2.05, 3, 0, 2.95419E-09, -2.8807900000000002E-05, 2.8647300000000003E-05, 2.95419E-09, 5.4352460845853155E-05, 2.6321128626050052E-10, 2.8647300000000003E-05
DataValue, 2.1, 3, 0, 2.86368E-09, -3.14233E-05, 3.15921E-05, 2.86368E-09, 5.3513362817150632E-05, 1.8826230682643858E-10, 3.15921E-05
DataValue, 2.15, 3, 0, 2.80692E-09, -3.41827E-05, 3.42045E-05, 2.80692E-09, 5.2980373724616173E-05, 1.8169768093600019E-10, 3.42045E-05
DataValue, 2.2, 3, 0, 2.72123E-09, -3.71661E-05, 3.71641E-05, 2.72123E-09, 5.2165409995513315E-05, 2.3163132351892824E-10, 3.71641E-05
DataValue, 2.25, 3, 0, 2.64797E-09, -4.01465E-05, 4.01492E-05, 2.64797E-09, 5.1458429824470938E-05, 2.2288467287088477E-10, 4.01492E-05
DataValue, 2.3000000000000003, 3, 0, 2.5677E-09, -4.336E-05, 4.31644E-05, 2.5677E-09, 5.0672477736933291E-05, 2.4496748110080604E-10, 4.31644E-05
DataValue, 2.35, 3, 0, 2.48934E-09, -4.65466E-05, 4.66471E-05, 2.48934E-09, 4.9893286121481317E-05, 2.0577451398075139E-10, 4.66471E-05
DataValue, 2.4, 3, 0, 2.42438E-09, -5.0677600000000004E-05, 5.01719E-05, 2.42438E-09, 4.9237993460335078E-05, 2.1915090170770478E-10, 5.01719E-05
DataValue, 2.45, 3, 0, 2.34381E-09, -5.36975E-05, 5.4223E-05, 2.34381E-09, 4.8412911500962223E-05, 3.295767906705222E-10, 5.4223E-05
