
SetupTitle, Transfer stab
PrimitiveTest, I/V Sweep
TestParameter, Context.MainFrame, 4155C
TestParameter, Channel.UnitType, SMU, SMU, SMU
TestParameter, Channel.Unit, SMU3:MP, SMU4:MP, SMU1:MP
TestParameter, Channel.IName, ID, IS, IG
TestParameter, Channel.VName, VD, VS, VG
TestParameter, Channel.Mode, V, COMMON, V
TestParameter, Channel.Func, CONST, CONST, VAR1
TestParameter, Channel.Index, 
TestParameter, Channel.Time, 
TestParameter, Measurement.Port.Unit, SMU3:MP, SMU4:MP, SMU1:MP
TestParameter, Measurement.Port.SeriesResistor, NONE, NONE, NONE
TestParameter, Measurement.Port.Filter, ON, ON, ON
TestParameter, Measurement.Primary.Locus, Single
TestParameter, Measurement.Primary.Scale, LINEAR
TestParameter, Measurement.Primary.Start, -2
TestParameter, Measurement.Primary.Stop, 3
TestParameter, Measurement.Primary.Step, 0.05
TestParameter, Measurement.Primary.Compliance, 0.1
TestParameter, Measurement.Primary.PowerCompliance, 0
TestParameter, Measurement.Aborting.Condition, CONTINUE AT ANY
TestParameter, Measurement.PostOutput.Value, START
TestParameter, Measurement.PostOutput.Retention, OFF
TestParameter, Measurement.Bias.Source, 3, 0, -2
TestParameter, Measurement.Bias.Compliance, 0.1, 0.1, 0.1
TestParameter, Measurement.Monitor.Unit, SMU3:MP, SMU4:MP, SMU1:MP
TestParameter, Measurement.Monitor.Adc, HR ADC, HR ADC, HR ADC
TestParameter, Measurement.Monitor.RangingMode, AUTO, AUTO, AUTO
TestParameter, Measurement.Monitor.RangeBoundary, , , 
TestParameter, Measurement.Monitor.RangeRating, BY FULL RANGE, BY FULL RANGE, BY FULL RANGE
TestParameter, Measurement.Monitor.RangeRatingCoeff, 50, 50, 50
TestParameter, Measurement.Timing.Hold, 0.5
TestParameter, Measurement.Timing.Delay, 0.05
TestParameter, Measurement.Adc.HighResolution.AutoZero, OFF
TestParameter, Measurement.Adc.HighResolution.Mode, AUTO
TestParameter, Measurement.Adc.HighResolution.Coeff, 1
TestParameter, Measurement.Ag16440ASelector.SemiconductorRelay.Channel1, DEFAULT
TestParameter, Measurement.Ag16440ASelector.SemiconductorRelay.Channel3, DEFAULT
TestParameter, Function.User.Name, absID, sqrtID, gm2, absIG
TestParameter, Function.User.Unit, A, A, A/V, A
TestParameter, Function.User.Definition, abs(ID), sqrt(abs(ID)), (delta(sqrtID)/delta(VG))^2, abs(IG)
TestParameter, Output.Graph.Enabled, true
TestParameter, Output.Graph.XAxis.Data, VG
TestParameter, Output.Graph.XAxis.Scale, Linear
TestParameter, Output.Graph.XAxis.Left, -5
TestParameter, Output.Graph.XAxis.Right, 7
TestParameter, Output.Graph.YAxis.Data, ID, absIG, gm2
TestParameter, Output.Graph.YAxis.Scale, Log, Log, Linear
TestParameter, Output.Graph.YAxis.Bottom, 1E-14, 1E-14, 0
TestParameter, Output.Graph.YAxis.Top, 0.01, 0.01, 1E-05
TestParameter, Output.Graph.YAxis.Group, , , 
TestParameter, Output.List.Data, VG, IG, VD, ID, VS, IS, sqrtID, gm2, absIG
TestParameter, AutoAnalysis.Interpolation, false
TestParameter, AutoAnalysis.Line1.Enabled, false
TestParameter, AutoAnalysis.Line1.Type, 1
TestParameter, AutoAnalysis.Line1.Fix, True
TestParameter, AutoAnalysis.Line1.YAxis, 0
TestParameter, AutoAnalysis.Line1.Point1.Type, 0
TestParameter, AutoAnalysis.Line1.Point1.XY.X, 
TestParameter, AutoAnalysis.Line1.Point1.XY.Y, 
TestParameter, AutoAnalysis.Line1.Point1.Data.Var, 
TestParameter, AutoAnalysis.Line1.Point1.Data.Condition, 
TestParameter, AutoAnalysis.Line1.Point1.Data.Start, false
TestParameter, AutoAnalysis.Line1.Point1.Data.StartVar, 
TestParameter, AutoAnalysis.Line1.Point1.Data.StartCondition, 
TestParameter, AutoAnalysis.Line1.Point2.Type, 0
TestParameter, AutoAnalysis.Line1.Point2.XY.X, 
TestParameter, AutoAnalysis.Line1.Point2.XY.Y, 
TestParameter, AutoAnalysis.Line1.Point2.Data.Var, 
TestParameter, AutoAnalysis.Line1.Point2.Data.Condition, 
TestParameter, AutoAnalysis.Line1.Point2.Data.Start, false
TestParameter, AutoAnalysis.Line1.Point2.Data.StartVar, 
TestParameter, AutoAnalysis.Line1.Point2.Data.StartCondition, 
TestParameter, AutoAnalysis.Line1.GradientExpr, 0
TestParameter, AutoAnalysis.Line2.Enabled, false
TestParameter, AutoAnalysis.Line2.Type, 1
TestParameter, AutoAnalysis.Line2.Fix, True
TestParameter, AutoAnalysis.Line2.YAxis, 0
TestParameter, AutoAnalysis.Line2.Point1.Type, 0
TestParameter, AutoAnalysis.Line2.Point1.XY.X, 
TestParameter, AutoAnalysis.Line2.Point1.XY.Y, 
TestParameter, AutoAnalysis.Line2.Point1.Data.Var, 
TestParameter, AutoAnalysis.Line2.Point1.Data.Condition, 
TestParameter, AutoAnalysis.Line2.Point1.Data.Start, false
TestParameter, AutoAnalysis.Line2.Point1.Data.StartVar, 
TestParameter, AutoAnalysis.Line2.Point1.Data.StartCondition, 
TestParameter, AutoAnalysis.Line2.Point2.Type, 0
TestParameter, AutoAnalysis.Line2.Point2.XY.X, 
TestParameter, AutoAnalysis.Line2.Point2.XY.Y, 
TestParameter, AutoAnalysis.Line2.Point2.Data.Var, 
TestParameter, AutoAnalysis.Line2.Point2.Data.Condition, 
TestParameter, AutoAnalysis.Line2.Point2.Data.Start, false
TestParameter, AutoAnalysis.Line2.Point2.Data.StartVar, 
TestParameter, AutoAnalysis.Line2.Point2.Data.StartCondition, 
TestParameter, AutoAnalysis.Line2.GradientExpr, 0
TestParameter, AutoAnalysis.Marker.Enabled, false
TestParameter, AutoAnalysis.Marker.Data.Var, 
TestParameter, AutoAnalysis.Marker.Data.Condition, 
TestParameter, AutoAnalysis.Marker.Data.Start, false
TestParameter, AutoAnalysis.Marker.Data.StartVar, 
TestParameter, AutoAnalysis.Marker.Data.StartCondition, 
MetaData, TestRecord.EntryPoint, true
MetaData, TestRecord.RecordTime, 06/18/2019 13:01:21
MetaData, TestRecord.TestTarget, 6-12
MetaData, TestRecord.IterationIndex, 2
MetaData, TestRecord.Preservation, true
MetaData, TestRecord.Flag, 
MetaData, TestRecord.Remarks, small
MetaData, TestRecord.LinkKey, 786483c8-6762-479d-a4b6-7ec90cffbb0d
Dimension1, 101, 101, 101, 101, 101, 101, 101, 101, 101, 101
Dimension2, 1, 1, 1, 1, 1, 1, 1, 1, 1, 1
DataName, VG, VD, VS, ID, IS, IG, absID, sqrtID, gm2, absIG
DataValue, -2, 3, 0, 4.9659200000000006E-10, -4.65964E-10, -1.1833000000000001E-11, 4.9659200000000006E-10, 2.228434428023405E-05, 1.9996301109079885E-10, 1.1833000000000001E-11
DataValue, -1.9500000000000002, 3, 0, 4.6558000000000006E-10, -4.48406E-10, -1.1113000000000001E-11, 4.6558000000000006E-10, 2.1577302889842375E-05, 1.130492668745373E-10, 1.1113000000000001E-11
DataValue, -1.9000000000000001, 3, 0, 4.5033500000000003E-10, -4.3288400000000004E-10, -1.0297000000000001E-11, 4.5033500000000003E-10, 2.1221097992328294E-05, 2.3419696006419785E-11, 1.0297000000000001E-11
DataValue, -1.85, 3, 0, 4.4493000000000003E-10, -4.32387E-10, -1.0263E-11, 4.4493000000000003E-10, 2.1093363885355034E-05, 1.71740930371684E-11, 1.0263E-11
DataValue, -1.8, 3, 0, 4.32918E-10, -4.2187400000000005E-10, -9.625E-12, 4.32918E-10, 2.0806681619133793E-05, 1.9972980442902008E-11, 9.625E-12
DataValue, -1.75, 3, 0, 4.26276E-10, -4.13976E-10, -9.496E-12, 4.26276E-10, 2.0646452479784511E-05, 1.1060681045134022E-11, 9.496E-12
DataValue, -1.7000000000000002, 3, 0, 4.19189E-10, -4.06124E-10, -1.0054E-11, 4.19189E-10, 2.0474105597070656E-05, 1.1275509550652842E-11, 1.0054E-11
DataValue, -1.6500000000000001, 3, 0, 4.12523E-10, -4.0714900000000003E-10, -9.6420000000000011E-12, 4.12523E-10, 2.0310662224555852E-05, 9.4952833754494885E-12, 9.6420000000000011E-12
DataValue, -1.6, 3, 0, 4.06666E-10, -3.9804900000000003E-10, -9.173E-12, 4.06666E-10, 2.0165961420175335E-05, 1.4472997267321982E-11, 9.173E-12
DataValue, -1.55, 3, 0, 3.9721400000000005E-10, -3.89284E-10, -8.8190000000000011E-12, 3.9721400000000005E-10, 1.9930228297739092E-05, 7.87589222731539E-12, 8.8190000000000011E-12
DataValue, -1.5, 3, 0, 3.95426E-10, -3.8455800000000005E-10, -8.4870000000000013E-12, 3.95426E-10, 1.9885321219432188E-05, 9.9242722916834249E-13, 8.4870000000000013E-12
DataValue, -1.4500000000000002, 3, 0, 3.9325300000000004E-10, -3.81004E-10, -7.7480000000000013E-12, 3.9325300000000004E-10, 1.9830607655843532E-05, 6.8360387754998151E-12, 7.7480000000000013E-12
DataValue, -1.4000000000000001, 3, 0, 3.85096E-10, -3.7858500000000004E-10, -7.905E-12, 3.85096E-10, 1.9623863024389466E-05, 6.6867138175621863E-12, 7.905E-12
DataValue, -1.35, 3, 0, 3.8306400000000005E-10, -3.7615000000000004E-10, -7.065E-12, 3.8306400000000005E-10, 1.9572020846095583E-05, 2.3775884033179919E-12, 7.065E-12
DataValue, -1.3, 3, 0, 3.7906800000000005E-10, -3.74183E-10, -6.3940000000000004E-12, 3.7906800000000005E-10, 1.9469668718291024E-05, 4.1450080525702315E-12, 6.3940000000000004E-12
DataValue, -1.25, 3, 0, 3.7513600000000003E-10, -3.68866E-10, -6.7880000000000006E-12, 3.7513600000000003E-10, 1.9368427917618923E-05, 2.1620613856762523E-12, 6.7880000000000006E-12
DataValue, -1.2, 3, 0, 3.73364E-10, -3.6483800000000004E-10, -6.3900000000000008E-12, 3.73364E-10, 1.9322629220683196E-05, 1.3317663468930672E-12, 6.3900000000000008E-12
DataValue, -1.1500000000000001, 3, 0, 3.7067900000000005E-10, -3.6642800000000003E-10, -6.8450000000000008E-12, 3.7067900000000005E-10, 1.9253025736231695E-05, 9.7234960812948962E-13, 6.8450000000000008E-12
DataValue, -1.1, 3, 0, 3.6956300000000004E-10, -3.63491E-10, -6.686E-12, 3.6956300000000004E-10, 1.9224021431531958E-05, 1.9957203993522726E-15, 6.686E-12
DataValue, -1.05, 3, 0, 3.70507E-10, -3.6409700000000004E-10, -6.6300000000000006E-12, 3.70507E-10, 1.9248558387578017E-05, 1.7290248854805088E-13, 6.6300000000000006E-12
DataValue, -1, 3, 0, 3.6796600000000004E-10, -3.6092600000000003E-10, -6.523E-12, 3.6796600000000004E-10, 1.9182439886521215E-05, 2.1497809434580009E-12, 6.523E-12
DataValue, -0.95000000000000007, 3, 0, 3.64884E-10, -3.589E-10, -6.0360000000000005E-12, 3.64884E-10, 1.9101937074548226E-05, 1.5182280641698333E-12, 6.0360000000000005E-12
DataValue, -0.9, 3, 0, 3.6325400000000005E-10, -3.5481600000000004E-10, -5.7800000000000008E-12, 3.6325400000000005E-10, 1.9059223488904264E-05, 2.286491615106224E-12, 5.7800000000000008E-12
DataValue, -0.85000000000000009, 3, 0, 3.5913000000000003E-10, -3.5723900000000004E-10, -5.672E-12, 3.5913000000000003E-10, 1.8950725579776624E-05, 2.923182585181157E-12, 5.672E-12
DataValue, -0.8, 3, 0, 3.56766E-10, -3.5301400000000004E-10, -5.5200000000000007E-12, 3.56766E-10, 1.8888250316003334E-05, 1.4395067174114759E-12, 5.5200000000000007E-12
DataValue, -0.75, 3, 0, 3.54597E-10, -3.5194700000000004E-10, -5.398E-12, 3.54597E-10, 1.8830746134978297E-05, 6.84686786390436E-13, 5.398E-12
DataValue, -0.70000000000000007, 3, 0, 3.5364700000000004E-10, -3.51426E-10, -5.07E-12, 3.5364700000000004E-10, 1.8805504513306736E-05, 2.1030104659378928E-13, 5.07E-12
DataValue, -0.65, 3, 0, 3.52872E-10, -3.4960400000000005E-10, -4.9340000000000006E-12, 3.52872E-10, 1.8784887542915981E-05, 2.7623515784225409E-13, 4.9340000000000006E-12
DataValue, -0.6, 3, 0, 3.51673E-10, -3.4616300000000005E-10, -5.0020000000000007E-12, 3.51673E-10, 1.8752946435160531E-05, 5.3201689481911692E-13, 5.0020000000000007E-12
DataValue, -0.55, 3, 0, 3.50137E-10, -3.46755E-10, -5.212E-12, 3.50137E-10, 1.8711948054652139E-05, 4.194939656194519E-13, 5.212E-12
DataValue, -0.5, 3, 0, 3.4924800000000004E-10, -3.4618100000000005E-10, -4.82E-12, 3.4924800000000004E-10, 1.8688178081343296E-05, 1.6062744150825848E-12, 4.82E-12
DataValue, -0.45, 3, 0, 3.4541000000000005E-10, -3.4334300000000005E-10, -4.6210000000000006E-12, 3.4541000000000005E-10, 1.8585209172887994E-05, 6.9769476573261906E-13, 4.6210000000000006E-12
DataValue, -0.4, 3, 0, 3.4613300000000005E-10, -3.383E-10, -4.4550000000000007E-12, 3.4613300000000005E-10, 1.8604649956395311E-05, 6.8755184561331863E-13, 4.4550000000000007E-12
DataValue, -0.35000000000000003, 3, 0, 3.4849900000000003E-10, -3.4264100000000003E-10, -4.205E-12, 3.4849900000000003E-10, 1.8668127918996056E-05, 1.3868056254695273E-12, 4.205E-12
DataValue, -0.3, 3, 0, 3.41765E-10, -3.48309E-10, -3.938E-12, 3.41765E-10, 1.8486887244747289E-05, 1.1371134573711857E-12, 3.938E-12
DataValue, -0.25, 3, 0, 3.4452900000000004E-10, -3.41011E-10, -3.7380000000000004E-12, 3.4452900000000004E-10, 1.8561492396895248E-05, 5.6709203865094612E-13, 3.7380000000000004E-12
DataValue, -0.2, 3, 0, 3.44555E-10, -3.4170300000000005E-10, -3.6190000000000002E-12, 3.44555E-10, 1.8562192758400072E-05, 1.9184356117823715E-12, 3.6190000000000002E-12
DataValue, -0.15, 3, 0, 3.4969E-10, -3.4460600000000003E-10, -3.627E-12, 3.4969E-10, 1.87E-05, 1.6021620242818851E-11, 3.627E-12
DataValue, -0.1, 3, 0, 3.59575E-10, -3.5743700000000003E-10, -3.4250000000000005E-12, 3.59575E-10, 1.8962462920201059E-05, 5.3976276561708911E-11, 3.4250000000000005E-12
DataValue, -0.05, 3, 0, 3.77707E-10, -3.72116E-10, -3.4480000000000003E-12, 3.77707E-10, 1.9434685487550346E-05, 1.6710334071019687E-10, 3.4480000000000003E-12
DataValue, 0, 3, 0, 4.1027100000000003E-10, -4.0404100000000004E-10, -3.296E-12, 4.1027100000000003E-10, 2.02551474939088E-05, 3.8767997875103003E-10, 3.296E-12
DataValue, 0.05, 3, 0, 4.5811600000000003E-10, -4.5066800000000004E-10, -3.1E-12, 4.5811600000000003E-10, 2.1403644549468674E-05, 6.432363788609344E-10, 3.1E-12
DataValue, 0.1, 3, 0, 5.1944600000000007E-10, -5.10558E-10, -2.907E-12, 5.1944600000000007E-10, 2.2791358011316484E-05, 8.4513140510794946E-10, 2.907E-12
DataValue, 0.15, 3, 0, 5.91013E-10, -5.7463500000000005E-10, -2.828E-12, 5.91013E-10, 2.43107589350888E-05, 8.78973106423428E-10, 2.828E-12
DataValue, 0.2, 3, 0, 6.63377E-10, -6.5288600000000008E-10, -2.6250000000000002E-12, 6.63377E-10, 2.5756106072153067E-05, 7.639535580833893E-10, 2.6250000000000002E-12
DataValue, 0.25, 3, 0, 7.330410000000001E-10, -7.13952E-10, -2.477E-12, 7.330410000000001E-10, 2.7074729915550407E-05, 5.5680539112600871E-10, 2.477E-12
DataValue, 0.3, 3, 0, 7.9049700000000009E-10, -7.7477800000000007E-10, -2.344E-12, 7.9049700000000009E-10, 2.8115778488243929E-05, 3.5926440546123264E-10, 2.344E-12
DataValue, 0.35000000000000003, 3, 0, 8.3927E-10, -8.2058000000000008E-10, -2.214E-12, 8.3927E-10, 2.8970157058600841E-05, 2.3667626593720164E-10, 2.214E-12
DataValue, 0.4, 3, 0, 8.7937200000000005E-10, -8.550430000000001E-10, -2.113E-12, 8.7937200000000005E-10, 2.9654207121418708E-05, 1.4459570715685059E-10, 2.113E-12
DataValue, 0.45, 3, 0, 9.1038800000000008E-10, -8.8400500000000009E-10, -1.9150000000000002E-12, 9.1038800000000008E-10, 3.0172636610014712E-05, 6.8746085284030717E-11, 1.9150000000000002E-12
DataValue, 0.5, 3, 0, 9.29234E-10, -8.8329100000000007E-10, -1.834E-12, 9.29234E-10, 3.0483339712045989E-05, 1.4007186465514921E-11, 1.834E-12
DataValue, 0.55, 3, 0, 9.33113E-10, -8.9869700000000009E-10, -1.803E-12, 9.33113E-10, 3.0546898369556279E-05, 1.2566613338567129E-11, 1.803E-12
DataValue, 0.6, 3, 0, 9.50972E-10, -9.1166300000000006E-10, -1.6700000000000002E-12, 9.50972E-10, 3.0837833905772305E-05, 2.571044484438463E-11, 1.6700000000000002E-12
DataValue, 0.65, 3, 0, 9.64348E-10, -9.2891700000000011E-10, -1.533E-12, 9.64348E-10, 3.1053953049491142E-05, 1.8302839036907657E-11, 1.533E-12
DataValue, 0.70000000000000007, 3, 0, 9.77541E-10, -9.44798E-10, -1.423E-12, 9.77541E-10, 3.1265652080198167E-05, 2.5028605020640957E-11, 1.423E-12
DataValue, 0.75, 3, 0, 9.9567000000000014E-10, -9.60368E-10, -1.3110000000000002E-12, 9.9567000000000014E-10, 3.1554239017919609E-05, 3.8615568673687652E-11, 1.3110000000000002E-12
DataValue, 0.8, 3, 0, 1.016785E-09, -9.76743E-10, -1.0730000000000002E-12, 1.016785E-09, 3.1887066343582004E-05, 3.34429742884698E-11, 1.0730000000000002E-12
DataValue, 0.85000000000000009, 3, 0, 1.0325000000000001E-09, -1.00143E-09, -1.136E-12, 1.0325000000000001E-09, 3.2132538026119259E-05, 1.2013966824023433E-11, 1.136E-12
DataValue, 0.9, 3, 0, 1.03901E-09, -1.03043E-09, -8.540000000000001E-13, 1.03901E-09, 3.2233678040211293E-05, 1.836623773029675E-10, 8.540000000000001E-13
DataValue, 0.95000000000000007, 3, 0, 1.12143E-09, -1.10833E-09, -7.33E-13, 1.12143E-09, 3.3487758957565373E-05, 3.6609348952865978E-10, 7.33E-13
DataValue, 1, 3, 0, 1.16602E-09, -1.15234E-09, -7.110000000000001E-13, 1.16602E-09, 3.4147035010378281E-05, 1.7480896761293238E-10, 7.110000000000001E-13
DataValue, 1.05, 3, 0, 1.21173E-09, -1.19646E-09, -5.65E-13, 1.21173E-09, 3.4809912381389296E-05, 1.7967460555434827E-10, 5.65E-13
DataValue, 1.1, 3, 0, 1.25936E-09, -1.23453E-09, -5.9800000000000008E-13, 1.25936E-09, 3.5487462574830566E-05, 1.40212809859308E-10, 5.9800000000000008E-13
DataValue, 1.1500000000000001, 3, 0, 1.29557E-09, -1.27777E-09, -5.0600000000000007E-13, 1.29557E-09, 3.5994027282314491E-05, 1.2967687380153857E-10, 5.0600000000000007E-13
DataValue, 1.2, 3, 0, 1.34148E-09, -1.32617E-09, -1.81E-13, 1.34148E-09, 3.6626220116195444E-05, 1.5328483153027338E-10, 1.81E-13
DataValue, 1.25, 3, 0, 1.38623E-09, -1.36735E-09, 2.7800000000000003E-13, 1.38623E-09, 3.7232109797861306E-05, 1.261913914413367E-10, 2.7800000000000003E-13
DataValue, 1.3, 3, 0, 1.42503E-09, -1.40057E-09, 3.18E-13, 1.42503E-09, 3.7749569533969526E-05, 1.2051079854130502E-10, 3.18E-13
DataValue, 1.35, 3, 0, 1.46918E-09, -1.45414E-09, 8.1000000000000008E-14, 1.46918E-09, 3.8329883902772263E-05, 1.3122752728843118E-10, 8.1000000000000008E-14
DataValue, 1.4000000000000001, 3, 0, 1.51283E-09, -1.48325E-09, -5.3100000000000006E-13, 1.51283E-09, 3.8895115374555714E-05, 9.9391272946199356E-11, 5.3100000000000006E-13
DataValue, 1.4500000000000002, 3, 0, 1.5466E-09, -1.53308E-09, -2.73E-13, 1.5466E-09, 3.9326835621493884E-05, 1.506931725391977E-10, 2.73E-13
DataValue, 1.5, 3, 0, 1.60983E-09, -1.58648E-09, 4.0200000000000005E-13, 1.60983E-09, 4.0122686849212881E-05, 1.96395028385273E-10, 4.0200000000000005E-13
DataValue, 1.55, 3, 0, 1.65879E-09, -1.63761E-09, 7.1600000000000008E-13, 1.65879E-09, 4.072824572701358E-05, 1.1333060084490348E-10, 7.1600000000000008E-13
DataValue, 1.6, 3, 0, 1.69639E-09, -1.67651E-09, 5.3300000000000005E-13, 1.69639E-09, 4.1187255310350556E-05, 1.5004840579035044E-10, 5.3300000000000005E-13
DataValue, 1.6500000000000001, 3, 0, 1.76007E-09, -1.73308E-09, 6.32E-13, 1.76007E-09, 4.1953188198276417E-05, 1.9050087302775604E-10, 6.32E-13
DataValue, 1.7000000000000002, 3, 0, 1.81199E-09, -1.78458E-09, 1.0500000000000002E-12, 1.81199E-09, 4.2567475847177031E-05, 1.6310488794834036E-10, 1.0500000000000002E-12
DataValue, 1.75, 3, 0, 1.86886E-09, -1.84791E-09, 1.26E-12, 1.86886E-09, 4.3230313438604632E-05, 1.8628386879853722E-10, 1.26E-12
DataValue, 1.8, 3, 0, 1.93005E-09, -1.91045E-09, 1.149E-12, 1.93005E-09, 4.3932334333609E-05, 2.001464026557151E-10, 1.149E-12
DataValue, 1.85, 3, 0, 1.99318E-09, -1.97495E-09, 8.6100000000000007E-13, 1.99318E-09, 4.4645044517840949E-05, 2.69436464015828E-10, 8.6100000000000007E-13
DataValue, 1.9000000000000001, 3, 0, 2.07697E-09, -2.036E-09, 8.01E-13, 2.07697E-09, 4.5573786325035581E-05, 1.9649857017773323E-10, 8.01E-13
DataValue, 1.9500000000000002, 3, 0, 2.12031E-09, -2.09318E-09, 1.2520000000000001E-12, 2.12031E-09, 4.6046823994712163E-05, 1.6639769936482169E-10, 1.2520000000000001E-12
DataValue, 2, 3, 0, 2.19621E-09, -2.15977E-09, 1.235E-12, 2.19621E-09, 4.6863738647273969E-05, 1.72582896384328E-10, 1.235E-12
DataValue, 2.05, 3, 0, 2.24302E-09, -2.22298E-09, 1.101E-12, 2.24302E-09, 4.7360532091605559E-05, 2.1185156907953411E-10, 1.101E-12
DataValue, 2.1, 3, 0, 2.33475E-09, -2.30717E-09, 1.1900000000000002E-12, 2.33475E-09, 4.8319250822006749E-05, 3.0980775285739936E-10, 1.1900000000000002E-12
DataValue, 2.15, 3, 0, 2.41284E-09, -2.37501E-09, 1.5840000000000001E-12, 2.41284E-09, 4.9120667747904243E-05, 2.2185606553807315E-10, 1.5840000000000001E-12
DataValue, 2.2, 3, 0, 2.48091E-09, -2.44417E-09, 1.889E-12, 2.48091E-09, 4.9808734173837422E-05, 1.9644953660820093E-10, 1.889E-12
DataValue, 2.25, 3, 0, 2.5525E-09, -2.52152E-09, 1.74E-12, 2.5525E-09, 5.0522272316276511E-05, 2.3312054159483353E-10, 1.74E-12
DataValue, 2.3000000000000003, 3, 0, 2.63534E-09, -2.59758E-09, 1.4930000000000002E-12, 2.63534E-09, 5.1335562722151979E-05, 3.1135763644682777E-10, 1.4930000000000002E-12
DataValue, 2.35, 3, 0, 2.73391E-09, -2.69721E-09, 1.851E-12, 2.73391E-09, 5.2286805218907767E-05, 3.5667568239936428E-10, 1.851E-12
