
SetupTitle, Transfer sat
PrimitiveTest, I/V Sweep
TestParameter, Context.MainFrame, 4155C
TestParameter, Channel.UnitType, SMU, SMU, SMU
TestParameter, Channel.Unit, SMU3:MP, SMU4:MP, SMU1:MP
TestParameter, Channel.IName, IS, ID, IG
TestParameter, Channel.VName, VS, VD, VG
TestParameter, Channel.Mode, COMMON, V, V
TestParameter, Channel.Func, CONST, CONST, VAR1
TestParameter, Channel.Index, 
TestParameter, Channel.Time, 
TestParameter, Measurement.Port.Unit, SMU3:MP, SMU4:MP, SMU1:MP
TestParameter, Measurement.Port.SeriesResistor, NONE, NONE, NONE
TestParameter, Measurement.Port.Filter, ON, ON, ON
TestParameter, Measurement.Primary.Locus, Double
TestParameter, Measurement.Primary.Scale, LINEAR
TestParameter, Measurement.Primary.Start, -2
TestParameter, Measurement.Primary.Stop, 3
TestParameter, Measurement.Primary.Step, 0.05
TestParameter, Measurement.Primary.Compliance, 0.001
TestParameter, Measurement.Primary.PowerCompliance, 0
TestParameter, Measurement.Aborting.Condition, CONTINUE AT ANY
TestParameter, Measurement.PostOutput.Value, START
TestParameter, Measurement.PostOutput.Retention, OFF
TestParameter, Measurement.Bias.Source, 0, 5, -2
TestParameter, Measurement.Bias.Compliance, 0.1, 0.001, 0.001
TestParameter, Measurement.Monitor.Unit, SMU4:MP, SMU3:MP, SMU1:MP
TestParameter, Measurement.Monitor.Adc, HR ADC, HR ADC, HR ADC
TestParameter, Measurement.Monitor.RangingMode, AUTO, AUTO, AUTO
TestParameter, Measurement.Monitor.RangeBoundary, , , 
TestParameter, Measurement.Monitor.RangeRating, BY FULL RANGE, BY FULL RANGE, BY FULL RANGE
TestParameter, Measurement.Monitor.RangeRatingCoeff, 50, 50, 50
TestParameter, Measurement.Timing.Hold, 0.5
TestParameter, Measurement.Timing.Delay, 0.05
TestParameter, Measurement.Adc.HighResolution.AutoZero, OFF
TestParameter, Measurement.Adc.HighResolution.Mode, AUTO
TestParameter, Measurement.Adc.HighResolution.Coeff, 1
TestParameter, Measurement.Ag16440ASelector.SemiconductorRelay.Channel1, DEFAULT
TestParameter, Measurement.Ag16440ASelector.SemiconductorRelay.Channel3, DEFAULT
TestParameter, Function.User.Name, absID, sqrtID, gm2, absIG
TestParameter, Function.User.Unit, A, A, A/V, A
TestParameter, Function.User.Definition, abs(ID), sqrt(abs(ID)), (delta(sqrtID)/delta(VG))^2, abs(IG)
TestParameter, Output.Graph.Enabled, true
TestParameter, Output.Graph.XAxis.Data, VG
TestParameter, Output.Graph.XAxis.Scale, Linear
TestParameter, Output.Graph.XAxis.Left, -5
TestParameter, Output.Graph.XAxis.Right, 7
TestParameter, Output.Graph.YAxis.Data, ID, absIG, gm2
TestParameter, Output.Graph.YAxis.Scale, Log, Log, Linear
TestParameter, Output.Graph.YAxis.Bottom, 1E-14, 1E-14, 0
TestParameter, Output.Graph.YAxis.Top, 0.01, 0.01, 1E-05
TestParameter, Output.Graph.YAxis.Group, , , 
TestParameter, Output.List.Data, VG, IG, VD, ID, VS, IS, sqrtID, gm2, absIG
TestParameter, AutoAnalysis.Interpolation, false
TestParameter, AutoAnalysis.Line1.Enabled, false
TestParameter, AutoAnalysis.Line1.Type, 1
TestParameter, AutoAnalysis.Line1.Fix, True
TestParameter, AutoAnalysis.Line1.YAxis, 0
TestParameter, AutoAnalysis.Line1.Point1.Type, 0
TestParameter, AutoAnalysis.Line1.Point1.XY.X, 
TestParameter, AutoAnalysis.Line1.Point1.XY.Y, 
TestParameter, AutoAnalysis.Line1.Point1.Data.Var, 
TestParameter, AutoAnalysis.Line1.Point1.Data.Condition, 
TestParameter, AutoAnalysis.Line1.Point1.Data.Start, false
TestParameter, AutoAnalysis.Line1.Point1.Data.StartVar, 
TestParameter, AutoAnalysis.Line1.Point1.Data.StartCondition, 
TestParameter, AutoAnalysis.Line1.Point2.Type, 0
TestParameter, AutoAnalysis.Line1.Point2.XY.X, 
TestParameter, AutoAnalysis.Line1.Point2.XY.Y, 
TestParameter, AutoAnalysis.Line1.Point2.Data.Var, 
TestParameter, AutoAnalysis.Line1.Point2.Data.Condition, 
TestParameter, AutoAnalysis.Line1.Point2.Data.Start, false
TestParameter, AutoAnalysis.Line1.Point2.Data.StartVar, 
TestParameter, AutoAnalysis.Line1.Point2.Data.StartCondition, 
TestParameter, AutoAnalysis.Line1.GradientExpr, 0
TestParameter, AutoAnalysis.Line2.Enabled, false
TestParameter, AutoAnalysis.Line2.Type, 1
TestParameter, AutoAnalysis.Line2.Fix, True
TestParameter, AutoAnalysis.Line2.YAxis, 0
TestParameter, AutoAnalysis.Line2.Point1.Type, 0
TestParameter, AutoAnalysis.Line2.Point1.XY.X, 
TestParameter, AutoAnalysis.Line2.Point1.XY.Y, 
TestParameter, AutoAnalysis.Line2.Point1.Data.Var, 
TestParameter, AutoAnalysis.Line2.Point1.Data.Condition, 
TestParameter, AutoAnalysis.Line2.Point1.Data.Start, false
TestParameter, AutoAnalysis.Line2.Point1.Data.StartVar, 
TestParameter, AutoAnalysis.Line2.Point1.Data.StartCondition, 
TestParameter, AutoAnalysis.Line2.Point2.Type, 0
TestParameter, AutoAnalysis.Line2.Point2.XY.X, 
TestParameter, AutoAnalysis.Line2.Point2.XY.Y, 
TestParameter, AutoAnalysis.Line2.Point2.Data.Var, 
TestParameter, AutoAnalysis.Line2.Point2.Data.Condition, 
TestParameter, AutoAnalysis.Line2.Point2.Data.Start, false
TestParameter, AutoAnalysis.Line2.Point2.Data.StartVar, 
TestParameter, AutoAnalysis.Line2.Point2.Data.StartCondition, 
TestParameter, AutoAnalysis.Line2.GradientExpr, 0
TestParameter, AutoAnalysis.Marker.Enabled, false
TestParameter, AutoAnalysis.Marker.Data.Var, 
TestParameter, AutoAnalysis.Marker.Data.Condition, 
TestParameter, AutoAnalysis.Marker.Data.Start, false
TestParameter, AutoAnalysis.Marker.Data.StartVar, 
TestParameter, AutoAnalysis.Marker.Data.StartCondition, 
MetaData, TestRecord.EntryPoint, true
MetaData, TestRecord.RecordTime, 06/18/2019 16:00:01
MetaData, TestRecord.TestTarget, 11-13
MetaData, TestRecord.IterationIndex, 1
MetaData, TestRecord.Preservation, true
MetaData, TestRecord.Flag, 
MetaData, TestRecord.Remarks, high start
MetaData, TestRecord.LinkKey, 930c7201-835b-4e42-93fc-338ebfa2df86
Dimension1, 202, 202, 202, 202, 202, 202, 202, 202, 202, 202
Dimension2, 1, 1, 1, 1, 1, 1, 1, 1, 1, 1
DataName, VG, VS, VD, ID, IS, IG, absID, sqrtID, gm2, absIG
DataValue, -2, 0, 5, 4.79137E-10, 5.5360000000000006E-12, -1.2525000000000002E-11, 4.79137E-10, 2.1889198249364916E-05, 4.4080218191704288E-10, 1.2525000000000002E-11
DataValue, -1.9500000000000002, 0, 5, 4.3428200000000004E-10, 4.601E-12, -1.1131E-11, 4.3428200000000004E-10, 2.0839433773497781E-05, 3.3173642301941966E-10, 1.1131E-11
DataValue, -1.9000000000000001, 0, 5, 4.02718E-10, 3.2410000000000004E-12, -1.0271000000000001E-11, 4.02718E-10, 2.0067834960453506E-05, 1.4601374289562582E-10, 1.0271000000000001E-11
DataValue, -1.85, 0, 5, 3.85379E-10, 3.4070000000000003E-12, -8.6960000000000009E-12, 3.85379E-10, 1.9631072308969778E-05, 1.0277504436514795E-10, 8.6960000000000009E-12
DataValue, -1.8, 0, 5, 3.63057E-10, 3.1530000000000004E-12, -8.728E-12, 3.63057E-10, 1.9054054686601484E-05, 1.0572426710589985E-10, 8.728E-12
DataValue, -1.75, 0, 5, 3.4606600000000004E-10, 3.7060000000000006E-12, -8.2150000000000008E-12, 3.4606600000000004E-10, 1.8602849244134623E-05, 8.2763466156633555E-11, 8.2150000000000008E-12
DataValue, -1.7000000000000002, 0, 5, 3.2921600000000004E-10, -1.65E-13, -7.3700000000000011E-12, 3.2921600000000004E-10, 1.8144310402988592E-05, 7.5312438698804335E-11, 7.3700000000000011E-12
DataValue, -1.6500000000000001, 0, 5, 3.14531E-10, -2.0910000000000003E-12, -7.094E-12, 3.14531E-10, 1.7735021849436782E-05, 9.885662135902145E-11, 7.094E-12
DataValue, -1.6, 0, 5, 2.9412400000000005E-10, 1.942E-12, -6.9640000000000006E-12, 2.9412400000000005E-10, 1.715004373172267E-05, 1.0039453297459798E-10, 6.9640000000000006E-12
DataValue, -1.55, 0, 5, 2.79995E-10, 2.7840000000000003E-12, -5.94E-12, 2.79995E-10, 1.673305112643836E-05, 6.8701084995491328E-11, 5.94E-12
DataValue, -1.5, 0, 5, 2.66381E-10, 1.329E-12, -6.05E-12, 2.66381E-10, 1.6321182555194951E-05, 6.9917130322472226E-11, 6.05E-12
DataValue, -1.4500000000000002, 0, 5, 2.52711E-10, 1.2900000000000002E-12, -5.8930000000000008E-12, 2.52711E-10, 1.589688648761134E-05, 8.028890088362385E-11, 5.8930000000000008E-12
DataValue, -1.4000000000000001, 0, 5, 2.37935E-10, 1.028E-12, -5.9680000000000004E-12, 2.37935E-10, 1.54251418145831E-05, 6.1270386869602766E-11, 5.9680000000000004E-12
DataValue, -1.35, 0, 5, 2.2843700000000002E-10, 4.67E-13, -4.7370000000000005E-12, 2.2843700000000002E-10, 1.5114132459390451E-05, 4.4732171056339552E-11, 4.7370000000000005E-12
DataValue, -1.3, 0, 5, 2.1774900000000002E-10, 7.47E-13, -4.6370000000000005E-12, 2.1774900000000002E-10, 1.4756320679627425E-05, 6.001775543902105E-11, 4.6370000000000005E-12
DataValue, -1.25, 0, 5, 2.0561900000000003E-10, 5.7800000000000006E-13, -4.3530000000000005E-12, 2.0561900000000003E-10, 1.4339421187760683E-05, 5.41034350759055E-11, 4.3530000000000005E-12
DataValue, -1.2, 0, 5, 1.9658200000000003E-10, 3.9000000000000005E-13, -4.433E-12, 1.9658200000000003E-10, 1.4020770306941056E-05, 5.6700017066904848E-11, 4.433E-12
DataValue, -1.1500000000000001, 0, 5, 1.8459100000000001E-10, -3.004E-12, -4.375E-12, 1.8459100000000001E-10, 1.3586427050553064E-05, 5.3849446873414771E-11, 4.375E-12
DataValue, -1.1, 0, 5, 1.7654300000000002E-10, -2.9400000000000004E-12, -3.852E-12, 1.7654300000000002E-10, 1.3286948483380223E-05, 2.28077956522335E-11, 3.852E-12
DataValue, -1.05, 0, 5, 1.7184200000000002E-10, -2.9700000000000005E-13, -3.251E-12, 1.7184200000000002E-10, 1.3108851971091902E-05, 2.4178363715970644E-11, 3.251E-12
DataValue, -1, 0, 5, 1.6371800000000001E-10, -2.04E-12, -3.204E-12, 1.6371800000000001E-10, 1.2795233487514013E-05, 2.1369485241629968E-11, 3.204E-12
DataValue, -0.95000000000000007, 0, 5, 1.59936E-10, -6.5430000000000007E-12, -3.1280000000000004E-12, 1.59936E-10, 1.2646580565512561E-05, 8.9945863038093045E-13, 3.1280000000000004E-12
DataValue, -0.9, 0, 5, 1.613E-10, -1.641E-11, -2.6850000000000004E-12, 1.613E-10, 1.2700393694685216E-05, 2.7628166216842222E-11, 2.6850000000000004E-12
DataValue, -0.85000000000000009, 0, 5, 1.73507E-10, -3.6654000000000006E-11, -3.242E-12, 1.73507E-10, 1.3172205586005709E-05, 1.4473512314897359E-10, 3.242E-12
DataValue, -0.8, 0, 5, 1.9330600000000002E-10, -6.461300000000001E-11, -3.1510000000000002E-12, 1.9330600000000002E-10, 1.3903452808565217E-05, 4.2121280137433008E-10, 3.1510000000000002E-12
DataValue, -0.75, 0, 5, 2.31787E-10, -1.01543E-10, -2.729E-12, 2.31787E-10, 1.5224552538580567E-05, 6.1367033652194466E-10, 2.729E-12
DataValue, -0.70000000000000007, 0, 5, 2.68327E-10, -1.3839800000000002E-10, -2.841E-12, 2.68327E-10, 1.6380689851163168E-05, 5.8893243580131472E-10, 2.841E-12
DataValue, -0.65, 0, 5, 3.1157000000000004E-10, -1.83635E-10, -2.0240000000000003E-12, 3.1157000000000004E-10, 1.7651345557775476E-05, 6.4186788124868956E-10, 2.0240000000000003E-12
DataValue, -0.6, 0, 5, 3.57747E-10, -2.35576E-10, -2.461E-12, 3.57747E-10, 1.8914201014052905E-05, 7.64547339052167E-10, 2.461E-12
DataValue, -0.55, 0, 5, 4.1682900000000004E-10, -3.061E-10, -1.5140000000000002E-12, 4.1682900000000004E-10, 2.0416390474322342E-05, 1.1850947876896909E-09, 1.5140000000000002E-12
DataValue, -0.5, 0, 5, 4.9982300000000006E-10, -3.8499800000000005E-10, -2.1530000000000002E-12, 4.9982300000000006E-10, 2.2356721584346844E-05, 1.5733716364852804E-09, 2.1530000000000002E-12
DataValue, -0.45, 0, 5, 5.94529E-10, -4.75965E-10, -1.1750000000000001E-12, 5.94529E-10, 2.4382965365188871E-05, 1.6545097114232187E-09, 1.1750000000000001E-12
DataValue, -0.4, 0, 5, 6.9824300000000009E-10, -5.88085E-10, -2.5760000000000003E-12, 6.9824300000000009E-10, 2.6424288069879955E-05, 1.8335637621177348E-09, 2.5760000000000003E-12
DataValue, -0.35000000000000003, 0, 5, 8.2168100000000011E-10, -7.16715E-10, -1.977E-12, 8.2168100000000011E-10, 2.866497863247067E-05, 1.8653794527318598E-09, 1.977E-12
DataValue, -0.3, 0, 5, 9.4515E-10, -8.31147E-10, -1.9320000000000002E-12, 9.4515E-10, 3.0743291951253368E-05, 2.1687053638507719E-09, 1.9320000000000002E-12
DataValue, -0.25, 0, 5, 1.11035E-09, -9.7708E-10, -2.052E-12, 1.11035E-09, 3.3321914710892589E-05, 3.0413135859996129E-09, 2.052E-12
DataValue, -0.2, 0, 5, 1.31465E-09, -1.20921E-09, -1.6350000000000002E-12, 1.31465E-09, 3.6258102542742083E-05, 4.6274234123880975E-09, 1.6350000000000002E-12
DataValue, -0.15, 0, 5, 1.60997E-09, -1.49691E-09, -1.6350000000000002E-12, 1.60997E-09, 4.0124431460146572E-05, 4.8494049739558331E-09, 1.6350000000000002E-12
DataValue, -0.1, 0, 5, 1.86813E-09, -1.78732E-09, -1.435E-12, 1.86813E-09, 4.3221869464427381E-05, 4.1945495180095227E-09, 1.435E-12
DataValue, -0.05, 0, 5, 2.17165E-09, -2.10575E-09, -1.0290000000000002E-12, 2.17165E-09, 4.6600965655230794E-05, 4.90590890383361E-09, 1.0290000000000002E-12
DataValue, 0, 0, 5, 2.52266E-09, -2.42282E-09, -7.6600000000000007E-13, 2.52266E-09, 5.022608883837164E-05, 6.1660325467581949E-09, 7.6600000000000007E-13
DataValue, 0.05, 0, 5, 2.96517E-09, -2.8188E-09, -4.89E-13, 2.96517E-09, 5.44533745510781E-05, 6.3879495261795537E-09, 4.89E-13
DataValue, 0.1, 0, 5, 3.3894E-09, -3.21804E-09, -5.7E-13, 3.3894E-09, 5.8218553743630563E-05, 5.89729775317339E-09, 5.7E-13
DataValue, 0.15, 0, 5, 3.86048E-09, -3.75857E-09, -7.78E-13, 3.86048E-09, 6.2132761084632323E-05, 7.8074477256894741E-09, 7.78E-13
DataValue, 0.2, 0, 5, 4.49631E-09, -4.37812E-09, -7.56E-13, 4.49631E-09, 6.7054530048312166E-05, 9.8151787651763245E-09, 7.56E-13
DataValue, 0.25, 0, 5, 5.18975E-09, -5.0659E-09, 1.5000000000000002E-14, 5.18975E-09, 7.2039919489127693E-05, 1.2059447005212357E-08, 1.5000000000000002E-14
DataValue, 0.3, 0, 5, 6.08963E-09, -5.93666E-09, 3.43E-13, 6.08963E-09, 7.8036081398286518E-05, 1.5809724767094913E-08, 3.43E-13
DataValue, 0.35000000000000003, 0, 5, 7.15946E-09, -7.00904E-09, 1.441E-12, 7.15946E-09, 8.4613592288709734E-05, 2.4299929395889253E-08, 1.441E-12
DataValue, 0.4, 0, 5, 8.76555E-09, -8.55583E-09, 7.6000000000000009E-13, 8.76555E-09, 9.3624516020110888E-05, 2.2864632405251378E-08, 7.6000000000000009E-13
DataValue, 0.45, 0, 5, 9.947E-09, -9.40593E-09, 2.47E-13, 9.947E-09, 9.9734647941425046E-05, 3.1329828889524846E-08, 2.47E-13
DataValue, 0.5, 0, 5, 1.2393199999999998E-08, -1.17441E-08, 8.1000000000000008E-13, 1.2393199999999998E-08, 0.00011132475016814544, 6.4595585896962742E-08, 8.1000000000000008E-13
DataValue, 0.55, 0, 5, 1.5662599999999998E-08, -1.5246399999999998E-08, 1.4110000000000002E-12, 1.5662599999999998E-08, 0.00012515030962806283, 8.9051296889286613E-08, 1.4110000000000002E-12
DataValue, 0.6, 0, 5, 1.99279E-08, -1.94472E-08, 1.172E-12, 1.99279E-08, 0.00014116621408821588, 1.0603514396496855E-07, 1.172E-12
DataValue, 0.65, 0, 5, 2.4873499999999998E-08, -2.4329099999999998E-08, 1.1500000000000002E-12, 2.4873499999999998E-08, 0.00015771334756449753, 1.1865563899540522E-07, 1.1500000000000002E-12
DataValue, 0.70000000000000007, 0, 5, 3.08398E-08, -3.0155999999999996E-08, 8.1000000000000008E-13, 3.08398E-08, 0.0001756126419139579, 1.3421081069976302E-07, 8.1000000000000008E-13
DataValue, 0.75, 0, 5, 3.77712E-08, -3.6948599999999994E-08, 5.64E-13, 3.77712E-08, 0.00019434814123114221, 1.4073238715645174E-07, 5.64E-13
DataValue, 0.8, 0, 5, 4.5423099999999995E-08, -4.46535E-08, 4.5800000000000007E-13, 4.5423099999999995E-08, 0.00021312695746901657, 1.3905234179832452E-07, 4.5800000000000007E-13
DataValue, 0.85000000000000009, 0, 5, 5.3656099999999993E-08, -5.2697199999999996E-08, 6.9000000000000009E-14, 5.3656099999999993E-08, 0.0002316378639169339, 1.4654104341968533E-07, 6.9000000000000009E-14
DataValue, 0.9, 0, 5, 6.3205799999999993E-08, -6.177979999999999E-08, 7.350000000000001E-13, 6.3205799999999993E-08, 0.00025140763711550211, 1.4263069385099929E-07, 7.350000000000001E-13
DataValue, 0.95000000000000007, 0, 5, 7.2578699999999988E-08, -7.11358E-08, 2.5050000000000003E-12, 7.2578699999999988E-08, 0.00026940434294940384, 7.6417922708445928E-08, 2.5050000000000003E-12
DataValue, 1, 0, 5, 7.7869699999999992E-08, -7.5019999999999993E-08, 7.27E-13, 7.7869699999999992E-08, 0.00027905142895172564, 5.3125972671549068E-08, 7.27E-13
DataValue, 1.05, 0, 5, 8.5529E-08, -8.2462499999999988E-08, 3.87E-13, 8.5529E-08, 0.0002924534150937547, 8.1730921961551653E-08, 3.87E-13
DataValue, 1.1, 0, 5, 9.464239999999999E-08, -9.14805E-08, 1.5360000000000001E-12, 9.464239999999999E-08, 0.00030764004940839543, 6.8151496357280587E-08, 1.5360000000000001E-12
DataValue, 1.1500000000000001, 0, 5, 1.0147999999999999E-07, -9.9303E-08, 1.0520000000000002E-12, 1.0147999999999999E-07, 0.00031855925665408, 1.2160050720223271E-07, 1.0520000000000002E-12
DataValue, 1.2, 0, 5, 1.17314E-07, -1.15041E-07, 2.6600000000000003E-13, 1.17314E-07, 0.00034251131368175271, 2.0975560444326416E-07, 2.6600000000000003E-13
DataValue, 1.25, 0, 5, 1.32757E-07, -1.2965E-07, 1.2000000000000001E-14, 1.32757E-07, 0.00036435834009941365, 1.7498310278835876E-07, 1.2000000000000001E-14
DataValue, 1.3, 0, 5, 1.47719E-07, -1.44247E-07, 7.3900000000000008E-13, 1.47719E-07, 0.00038434229535662607, 1.5575556119614761E-07, 7.3900000000000008E-13
DataValue, 1.35, 0, 5, 1.63074E-07, -1.59651E-07, 1.3050000000000002E-12, 1.63074E-07, 0.00040382421918453576, 1.4146244494989017E-07, 1.3050000000000002E-12
DataValue, 1.4000000000000001, 0, 5, 1.78045E-07, -1.7352199999999998E-07, -8.4000000000000008E-14, 1.78045E-07, 0.0004219537889390259, 1.3597822100517424E-07, 8.4000000000000008E-14
DataValue, 1.4500000000000002, 0, 5, 1.94216E-07, -1.89558E-07, -2.12E-13, 1.94216E-07, 0.0004406994440659076, 1.5746094086054416E-07, 2.12E-13
DataValue, 1.5, 0, 5, 2.13107E-07, -2.0778E-07, 2.816E-12, 2.13107E-07, 0.00046163513731084207, 1.7071071451403689E-07, 2.816E-12
DataValue, 1.55, 0, 5, 2.3234E-07, -2.26424E-07, 3.662E-12, 2.3234E-07, 0.00048201659722461838, 1.6380168525028841E-07, 3.662E-12
DataValue, 1.6, 0, 5, 2.52112E-07, -2.46325E-07, 2.069E-12, 2.52112E-07, 0.00050210755819844017, 1.7950307957692868E-07, 2.069E-12
DataValue, 1.6500000000000001, 0, 5, 2.74979E-07, -2.68535E-07, 1.347E-12, 2.74979E-07, 0.00052438440098843519, 2.0531630491376414E-07, 1.347E-12
DataValue, 1.7000000000000002, 0, 5, 2.99668E-07, -2.92962E-07, 2.8880000000000002E-12, 2.99668E-07, 0.00054741940046001286, 2.4190049207035487E-07, 2.8880000000000002E-12
DataValue, 1.75, 0, 5, 3.2897999999999997E-07, -3.187E-07, 3.5920000000000004E-12, 3.2897999999999997E-07, 0.00057356778152194, 2.3435545501776251E-07, 3.5920000000000004E-12
DataValue, 1.8, 0, 5, 3.55013E-07, -3.4777099999999997E-07, 2.3090000000000004E-12, 3.55013E-07, 0.00059582967364843454, 2.3768428572802228E-07, 2.3090000000000004E-12
DataValue, 1.85, 0, 5, 3.87283E-07, -3.7673E-07, 1.3670000000000001E-12, 3.87283E-07, 0.00062232065689642668, 2.6965970480656047E-07, 1.3670000000000001E-12
DataValue, 1.9000000000000001, 0, 5, 4.19591E-07, -4.1044599999999997E-07, 1.913E-12, 4.19591E-07, 0.00064775844263120178, 2.7466170715154467E-07, 1.913E-12
DataValue, 1.9500000000000002, 0, 5, 4.55259E-07, -4.43817E-07, 3.183E-12, 4.55259E-07, 0.00067472883442165122, 3.1652701051526761E-07, 3.183E-12
DataValue, 2, 0, 5, 4.95643E-07, -4.84091E-07, 3.175E-12, 4.95643E-07, 0.000704019175875203, 3.5820987628216457E-07, 3.175E-12
DataValue, 2.05, 0, 5, 5.39607E-07, -5.27293E-07, 2.5090000000000003E-12, 5.39607E-07, 0.00073457947153456439, 3.9049742808594668E-07, 2.5090000000000003E-12
DataValue, 2.1, 0, 5, 5.87536E-07, -5.74002E-07, 2.8090000000000002E-12, 5.87536E-07, 0.00076650896928868355, 4.0530538650325394E-07, 2.8090000000000002E-12
DataValue, 2.15, 0, 5, 6.37192E-07, -6.23439E-07, 3.6110000000000003E-12, 6.37192E-07, 0.000798243070749756, 3.9851062768551206E-07, 3.6110000000000003E-12
DataValue, 2.2, 0, 5, 6.88297E-07, -6.72743E-07, 3.867E-12, 6.88297E-07, 0.00082963666746353488, 4.8956448595349309E-07, 3.867E-12
DataValue, 2.25, 0, 5, 7.53792E-07, -7.35854E-07, 3.5420000000000005E-12, 7.53792E-07, 0.00086821195568824092, 5.3596145021950166E-07, 3.5420000000000005E-12
