
SetupTitle, Transfer stab
PrimitiveTest, I/V Sweep
TestParameter, Context.MainFrame, 4155C
TestParameter, Channel.UnitType, SMU, SMU, SMU
TestParameter, Channel.Unit, SMU3:MP, SMU4:MP, SMU1:MP
TestParameter, Channel.IName, ID, IS, IG
TestParameter, Channel.VName, VD, VS, VG
TestParameter, Channel.Mode, V, COMMON, V
TestParameter, Channel.Func, CONST, CONST, VAR1
TestParameter, Channel.Index, 
TestParameter, Channel.Time, 
TestParameter, Measurement.Port.Unit, SMU3:MP, SMU4:MP, SMU1:MP
TestParameter, Measurement.Port.SeriesResistor, NONE, NONE, NONE
TestParameter, Measurement.Port.Filter, ON, ON, ON
TestParameter, Measurement.Primary.Locus, Single
TestParameter, Measurement.Primary.Scale, LINEAR
TestParameter, Measurement.Primary.Start, -2
TestParameter, Measurement.Primary.Stop, 3
TestParameter, Measurement.Primary.Step, 0.05
TestParameter, Measurement.Primary.Compliance, 0.1
TestParameter, Measurement.Primary.PowerCompliance, 0
TestParameter, Measurement.Aborting.Condition, CONTINUE AT ANY
TestParameter, Measurement.PostOutput.Value, START
TestParameter, Measurement.PostOutput.Retention, OFF
TestParameter, Measurement.Bias.Source, 3, 0, -2
TestParameter, Measurement.Bias.Compliance, 0.1, 0.1, 0.1
TestParameter, Measurement.Monitor.Unit, SMU3:MP, SMU4:MP, SMU1:MP
TestParameter, Measurement.Monitor.Adc, HR ADC, HR ADC, HR ADC
TestParameter, Measurement.Monitor.RangingMode, AUTO, AUTO, AUTO
TestParameter, Measurement.Monitor.RangeBoundary, , , 
TestParameter, Measurement.Monitor.RangeRating, BY FULL RANGE, BY FULL RANGE, BY FULL RANGE
TestParameter, Measurement.Monitor.RangeRatingCoeff, 50, 50, 50
TestParameter, Measurement.Timing.Hold, 0.5
TestParameter, Measurement.Timing.Delay, 0.05
TestParameter, Measurement.Adc.HighResolution.AutoZero, OFF
TestParameter, Measurement.Adc.HighResolution.Mode, AUTO
TestParameter, Measurement.Adc.HighResolution.Coeff, 1
TestParameter, Measurement.Ag16440ASelector.SemiconductorRelay.Channel1, DEFAULT
TestParameter, Measurement.Ag16440ASelector.SemiconductorRelay.Channel3, DEFAULT
TestParameter, Function.User.Name, absID, sqrtID, gm2, absIG
TestParameter, Function.User.Unit, A, A, A/V, A
TestParameter, Function.User.Definition, abs(ID), sqrt(abs(ID)), (delta(sqrtID)/delta(VG))^2, abs(IG)
TestParameter, Output.Graph.Enabled, true
TestParameter, Output.Graph.XAxis.Data, VG
TestParameter, Output.Graph.XAxis.Scale, Linear
TestParameter, Output.Graph.XAxis.Left, -5
TestParameter, Output.Graph.XAxis.Right, 7
TestParameter, Output.Graph.YAxis.Data, ID, absIG, gm2
TestParameter, Output.Graph.YAxis.Scale, Log, Log, Linear
TestParameter, Output.Graph.YAxis.Bottom, 1E-14, 1E-14, 0
TestParameter, Output.Graph.YAxis.Top, 0.01, 0.01, 1E-05
TestParameter, Output.Graph.YAxis.Group, , , 
TestParameter, Output.List.Data, VG, IG, VD, ID, VS, IS, sqrtID, gm2, absIG
TestParameter, AutoAnalysis.Interpolation, false
TestParameter, AutoAnalysis.Line1.Enabled, false
TestParameter, AutoAnalysis.Line1.Type, 1
TestParameter, AutoAnalysis.Line1.Fix, True
TestParameter, AutoAnalysis.Line1.YAxis, 0
TestParameter, AutoAnalysis.Line1.Point1.Type, 0
TestParameter, AutoAnalysis.Line1.Point1.XY.X, 
TestParameter, AutoAnalysis.Line1.Point1.XY.Y, 
TestParameter, AutoAnalysis.Line1.Point1.Data.Var, 
TestParameter, AutoAnalysis.Line1.Point1.Data.Condition, 
TestParameter, AutoAnalysis.Line1.Point1.Data.Start, false
TestParameter, AutoAnalysis.Line1.Point1.Data.StartVar, 
TestParameter, AutoAnalysis.Line1.Point1.Data.StartCondition, 
TestParameter, AutoAnalysis.Line1.Point2.Type, 0
TestParameter, AutoAnalysis.Line1.Point2.XY.X, 
TestParameter, AutoAnalysis.Line1.Point2.XY.Y, 
TestParameter, AutoAnalysis.Line1.Point2.Data.Var, 
TestParameter, AutoAnalysis.Line1.Point2.Data.Condition, 
TestParameter, AutoAnalysis.Line1.Point2.Data.Start, false
TestParameter, AutoAnalysis.Line1.Point2.Data.StartVar, 
TestParameter, AutoAnalysis.Line1.Point2.Data.StartCondition, 
TestParameter, AutoAnalysis.Line1.GradientExpr, 0
TestParameter, AutoAnalysis.Line2.Enabled, false
TestParameter, AutoAnalysis.Line2.Type, 1
TestParameter, AutoAnalysis.Line2.Fix, True
TestParameter, AutoAnalysis.Line2.YAxis, 0
TestParameter, AutoAnalysis.Line2.Point1.Type, 0
TestParameter, AutoAnalysis.Line2.Point1.XY.X, 
TestParameter, AutoAnalysis.Line2.Point1.XY.Y, 
TestParameter, AutoAnalysis.Line2.Point1.Data.Var, 
TestParameter, AutoAnalysis.Line2.Point1.Data.Condition, 
TestParameter, AutoAnalysis.Line2.Point1.Data.Start, false
TestParameter, AutoAnalysis.Line2.Point1.Data.StartVar, 
TestParameter, AutoAnalysis.Line2.Point1.Data.StartCondition, 
TestParameter, AutoAnalysis.Line2.Point2.Type, 0
TestParameter, AutoAnalysis.Line2.Point2.XY.X, 
TestParameter, AutoAnalysis.Line2.Point2.XY.Y, 
TestParameter, AutoAnalysis.Line2.Point2.Data.Var, 
TestParameter, AutoAnalysis.Line2.Point2.Data.Condition, 
TestParameter, AutoAnalysis.Line2.Point2.Data.Start, false
TestParameter, AutoAnalysis.Line2.Point2.Data.StartVar, 
TestParameter, AutoAnalysis.Line2.Point2.Data.StartCondition, 
TestParameter, AutoAnalysis.Line2.GradientExpr, 0
TestParameter, AutoAnalysis.Marker.Enabled, false
TestParameter, AutoAnalysis.Marker.Data.Var, 
TestParameter, AutoAnalysis.Marker.Data.Condition, 
TestParameter, AutoAnalysis.Marker.Data.Start, false
TestParameter, AutoAnalysis.Marker.Data.StartVar, 
TestParameter, AutoAnalysis.Marker.Data.StartCondition, 
MetaData, TestRecord.EntryPoint, true
MetaData, TestRecord.RecordTime, 06/18/2019 17:25:46
MetaData, TestRecord.TestTarget, 8-42-2
MetaData, TestRecord.IterationIndex, 2
MetaData, TestRecord.Preservation, true
MetaData, TestRecord.Flag, 
MetaData, TestRecord.Remarks, stab 42 sort of good
MetaData, TestRecord.LinkKey, fcda827c-6b64-40bb-83b5-968804a7f90b
Dimension1, 101, 101, 101, 101, 101, 101, 101, 101, 101, 101
Dimension2, 1, 1, 1, 1, 1, 1, 1, 1, 1, 1
DataName, VG, VD, VS, ID, IS, IG, absID, sqrtID, gm2, absIG
DataValue, -2, 3, 0, 2.06776E-09, 8.3875800000000009E-10, -2.45493E-09, 2.06776E-09, 4.54726291300602E-05, 1.4773550890920256E-08, 2.45493E-09
DataValue, -1.9500000000000002, 3, 0, 1.55199E-09, 7.49703E-10, -2.31044E-09, 1.55199E-09, 3.9395304288709333E-05, 3.9530144343554069E-09, 2.31044E-09
DataValue, -1.9000000000000001, 3, 0, 1.53549E-09, 6.726200000000001E-10, -2.24016E-09, 1.53549E-09, 3.9185328887225131E-05, 2.2620718368674205E-11, 2.24016E-09
DataValue, -1.85, 3, 0, 1.58969E-09, 6.1510000000000008E-10, -2.1745E-09, 1.58969E-09, 3.9870916718831531E-05, 2.3210610879989053E-09, 2.1745E-09
DataValue, -1.8, 3, 0, 1.93627E-09, 5.62255E-10, -2.44957E-09, 1.93627E-09, 4.4003068074851324E-05, 1.6050426268657084E-09, 2.44957E-09
DataValue, -1.75, 3, 0, 1.92521E-09, 5.0798E-10, -1.9545E-09, 1.92521E-09, 4.3877215043801492E-05, 5.289611333053463E-09, 1.9545E-09
DataValue, -1.7000000000000002, 3, 0, 1.3491E-09, 4.5764500000000003E-10, -1.77404E-09, 1.3491E-09, 3.6730096651111609E-05, 5.6386539830042308E-09, 1.77404E-09
DataValue, -1.6500000000000001, 3, 0, 1.32264E-09, 4.0777200000000005E-10, -1.82448E-09, 1.32264E-09, 3.6368117905660172E-05, 4.5064121614343543E-10, 1.82448E-09
DataValue, -1.6, 3, 0, 1.50955E-09, 3.6706900000000005E-10, -1.5284E-09, 1.50955E-09, 3.8852927817604687E-05, 6.1773226507811669E-11, 1.5284E-09
DataValue, -1.55, 3, 0, 1.26609E-09, 3.2978900000000005E-10, -1.75074E-09, 1.26609E-09, 3.5582158450549338E-05, 3.6394821046622015E-09, 1.75074E-09
DataValue, -1.5, 3, 0, 1.07716E-09, 2.89009E-10, -1.58249E-09, 1.07716E-09, 3.2820115782854883E-05, 3.6018874217216234E-12, 1.58249E-09
DataValue, -1.4500000000000002, 3, 0, 1.25262E-09, 2.5288300000000004E-10, -1.21885E-09, 1.25262E-09, 3.5392372059527179E-05, 2.9099612760300663E-11, 1.21885E-09
DataValue, -1.4000000000000001, 3, 0, 1.11286E-09, 2.2183200000000002E-10, -1.09717E-09, 1.11286E-09, 3.3359556351966074E-05, 6.9332080441017474E-10, 1.09717E-09
DataValue, -1.35, 3, 0, 1.07317E-09, 1.9152000000000003E-10, -1.0187E-09, 1.07317E-09, 3.2759273496217829E-05, 3.1486134354663361E-10, 1.0187E-09
DataValue, -1.3, 3, 0, 9.9762E-10, 1.6393800000000001E-10, -1.1468160000000002E-09, 9.9762E-10, 3.1585123080336413E-05, 3.9602417354491763E-10, 1.1468160000000002E-09
DataValue, -1.25, 3, 0, 9.46746E-10, 1.4074000000000002E-10, -1.0208160000000002E-09, 9.46746E-10, 3.0769237884614564E-05, 1.0412976494575571E-09, 1.0208160000000002E-09
DataValue, -1.2, 3, 0, 8.0418800000000008E-10, 1.1798300000000002E-10, -8.4268900000000011E-10, 8.0418800000000008E-10, 2.8358208688138258E-05, 9.960211017868958E-10, 8.4268900000000011E-10
DataValue, -1.1500000000000001, 3, 0, 7.62492E-10, 9.585900000000001E-11, -9.47317E-10, 7.62492E-10, 2.7613257685394529E-05, 1.0022849549775671E-09, 9.47317E-10
DataValue, -1.1, 3, 0, 6.34653E-10, 7.7895E-11, -8.7127400000000007E-10, 6.34653E-10, 2.5192320258364453E-05, 8.5302998359189079E-10, 8.7127400000000007E-10
DataValue, -1.05, 3, 0, 6.0972400000000008E-10, 6.0745E-11, -6.9794100000000008E-10, 6.0972400000000008E-10, 2.4692589981611895E-05, 6.4728109089046257E-10, 6.9794100000000008E-10
DataValue, -1, 3, 0, 7.69313E-10, 4.3977000000000006E-11, -6.20314E-10, 7.69313E-10, 2.7736492207919876E-05, 1.1698974024771803E-10, 6.20314E-10
DataValue, -0.95000000000000007, 3, 0, 5.57478E-10, 3.1543E-11, -6.6859000000000007E-10, 5.57478E-10, 2.3610972025734136E-05, 2.1569626933995945E-10, 6.6859000000000007E-10
DataValue, -0.9, 3, 0, 6.8999900000000009E-10, 1.9297E-11, -5.04653E-10, 6.8999900000000009E-10, 2.6267832038445809E-05, 4.3382677946447553E-10, 5.04653E-10
DataValue, -0.85000000000000009, 3, 0, 4.6346E-10, 8.327E-12, -4.68416E-10, 4.6346E-10, 2.152812114421507E-05, 2.7020146942452417E-09, 4.68416E-10
DataValue, -0.8, 3, 0, 4.43934E-10, -7.04E-13, -4.4535400000000005E-10, 4.43934E-10, 2.10697413368081E-05, 6.9558219333932971E-11, 4.4535400000000005E-10
DataValue, -0.75, 3, 0, 4.28246E-10, -8.8290000000000013E-12, -4.2354800000000004E-10, 4.28246E-10, 2.0694105440922061E-05, 7.1762962562468674E-11, 4.2354800000000004E-10
DataValue, -0.70000000000000007, 3, 0, 4.0895400000000005E-10, -1.5504E-11, -3.9303200000000005E-10, 4.0895400000000005E-10, 2.0222611107371867E-05, 1.0436909841917067E-10, 3.9303200000000005E-10
DataValue, -0.65, 3, 0, 3.87007E-10, -2.1004E-11, -3.6578600000000005E-10, 3.87007E-10, 1.9672493487100207E-05, 1.3498718934829566E-10, 3.6578600000000005E-10
DataValue, -0.6, 3, 0, 3.6331300000000004E-10, -2.6587000000000002E-11, -3.44603E-10, 3.6331300000000004E-10, 1.9060771233084984E-05, 5.8031217599104393E-11, 3.44603E-10
DataValue, -0.55, 3, 0, 3.57615E-10, -3.1145E-11, -3.26898E-10, 3.57615E-10, 1.8910711250505625E-05, 3.3982683849301212E-11, 3.26898E-10
DataValue, -0.5, 3, 0, 3.4143000000000003E-10, -3.4539E-11, -3.08776E-10, 3.4143000000000003E-10, 1.8477824547278287E-05, 7.4375951496445707E-11, 3.08776E-10
DataValue, -0.45, 3, 0, 3.25741E-10, -3.8690000000000004E-11, -2.9037500000000004E-10, 3.25741E-10, 1.8048296318489454E-05, 6.249550405816811E-11, 2.9037500000000004E-10
DataValue, -0.4, 3, 0, 3.1284000000000003E-10, -4.1278E-11, -2.7468600000000003E-10, 3.1284000000000003E-10, 1.7687283567580409E-05, 4.5513656181225912E-11, 2.7468600000000003E-10
DataValue, -0.35000000000000003, 3, 0, 3.0184400000000005E-10, -4.4630000000000005E-11, -2.58498E-10, 3.0184400000000005E-10, 1.7373658221572107E-05, 4.7397728021116156E-11, 2.58498E-10
DataValue, -0.3, 3, 0, 2.8896E-10, -4.6867E-11, -2.44942E-10, 2.8896E-10, 1.6998823488700623E-05, 4.2642506530201544E-11, 2.44942E-10
DataValue, -0.25, 3, 0, 2.7958000000000003E-10, -5.0593E-11, -2.3307900000000003E-10, 2.7958000000000003E-10, 1.6720645920537881E-05, 2.3555894010937672E-11, 2.3307900000000003E-10
DataValue, -0.2, 3, 0, 2.72695E-10, -5.4142000000000004E-11, -2.2298900000000001E-10, 2.72695E-10, 1.6513479342646118E-05, 1.3891294614152929E-11, 2.2298900000000001E-10
DataValue, -0.15, 3, 0, 2.67255E-10, -5.8044E-11, -2.1404100000000003E-10, 2.67255E-10, 1.63479356494941E-05, 8.865282446703168E-12, 2.1404100000000003E-10
DataValue, -0.1, 3, 0, 2.6295E-10, -6.1916000000000009E-11, -2.03568E-10, 2.6295E-10, 1.6215733100911597E-05, 1.0295422017340497E-11, 2.03568E-10
DataValue, -0.05, 3, 0, 2.5686700000000004E-10, -6.6389000000000007E-11, -1.9449100000000003E-10, 2.5686700000000004E-10, 1.6027070849035393E-05, 1.0526532377245219E-11, 1.9449100000000003E-10
DataValue, 0, 3, 0, 2.5253300000000003E-10, -7.097700000000001E-11, -1.8632500000000003E-10, 2.5253300000000003E-10, 1.5891286920825512E-05, 2.7082591720101504E-12, 1.8632500000000003E-10
DataValue, 0.05, 3, 0, 2.51619E-10, -7.5194000000000009E-11, -1.78208E-10, 2.51619E-10, 1.5862502955082467E-05, 2.4791217094859411E-13, 1.78208E-10
DataValue, 0.1, 3, 0, 2.50953E-10, -8.0823000000000011E-11, -1.7332200000000002E-10, 2.50953E-10, 1.5841496141463406E-05, 1.9281623653329105E-13, 1.7332200000000002E-10
DataValue, 0.15, 3, 0, 2.53014E-10, -8.6837000000000007E-11, -1.6935700000000002E-10, 2.53014E-10, 1.5906413800728309E-05, 3.7404835270761856E-12, 1.6935700000000002E-10
DataValue, 0.2, 3, 0, 2.57118E-10, -9.436900000000001E-11, -1.64865E-10, 2.57118E-10, 1.6034899438412455E-05, 3.95226109685345E-11, 1.64865E-10
DataValue, 0.25, 3, 0, 2.7340900000000003E-10, -1.0740100000000001E-10, -1.64491E-10, 2.7340900000000003E-10, 1.6535083912699082E-05, 9.0923434705929983E-11, 1.64491E-10
DataValue, 0.3, 3, 0, 2.88607E-10, -1.2994900000000002E-10, -1.62849E-10, 2.88607E-10, 1.698843724419642E-05, 3.2858640492996289E-10, 1.62849E-10
DataValue, 0.35000000000000003, 3, 0, 3.3664100000000005E-10, -1.6869000000000001E-10, -1.47186E-10, 3.3664100000000005E-10, 1.8347779157162318E-05, 5.654774529301098E-10, 1.47186E-10
DataValue, 0.4, 3, 0, 3.7505800000000003E-10, -2.38248E-10, -1.3074500000000002E-10, 3.7505800000000003E-10, 1.9366414226696693E-05, 1.3727181488824695E-09, 1.3074500000000002E-10
DataValue, 0.45, 3, 0, 4.8632600000000008E-10, -3.5337100000000005E-10, -1.23771E-10, 4.8632600000000008E-10, 2.2052800275701953E-05, 4.030522642236593E-09, 1.23771E-10
DataValue, 0.5, 3, 0, 6.6126400000000009E-10, -5.3165600000000007E-10, -1.17286E-10, 6.6126400000000009E-10, 2.5715053956777926E-05, 6.6459163286333758E-09, 1.17286E-10
DataValue, 0.55, 3, 0, 9.1234500000000012E-10, -7.821940000000001E-10, -1.1222300000000001E-10, 9.1234500000000012E-10, 3.02050492467733E-05, 7.8367835285548982E-09, 1.1222300000000001E-10
DataValue, 0.6, 3, 0, 1.19492E-09, -1.05369E-09, -1.3354400000000002E-10, 1.19492E-09, 3.4567614901812359E-05, 1.1366110000186525E-08, 1.3354400000000002E-10
DataValue, 0.65, 3, 0, 1.67005E-09, -1.53926E-09, -1.1400500000000001E-10, 1.67005E-09, 4.0866245239806406E-05, 1.6215670175781937E-08, 1.1400500000000001E-10
DataValue, 0.70000000000000007, 3, 0, 2.23745E-09, -2.11053E-09, -9.5131000000000007E-11, 2.23745E-09, 4.7301691301686034E-05, 1.6315223654734914E-08, 9.5131000000000007E-11
DataValue, 0.75, 3, 0, 2.87718E-09, -2.7719E-09, -7.3964E-11, 2.87718E-09, 5.3639351226501617E-05, 1.7203218650153012E-08, 7.3964E-11
DataValue, 0.8, 3, 0, 3.65031E-09, -3.54037E-09, -6.450900000000001E-11, 3.65031E-09, 6.0417795391755234E-05, 1.7395198514660033E-08, 6.450900000000001E-11
DataValue, 0.85000000000000009, 3, 0, 4.46604E-09, -4.38022E-09, -5.5209000000000007E-11, 4.46604E-09, 6.682843706088E-05, 1.8054736491355856E-08, 5.5209000000000007E-11
DataValue, 0.9, 3, 0, 5.4545E-09, -5.37724E-09, -4.6740000000000005E-11, 5.4545E-09, 7.3854586858231093E-05, 1.9592271508822047E-08, 4.6740000000000005E-11
DataValue, 0.95000000000000007, 3, 0, 6.53279E-09, -6.48243E-09, -3.8028000000000006E-11, 6.53279E-09, 8.082567661331392E-05, 2.1802335677146662E-08, 3.8028000000000006E-11
DataValue, 1, 3, 0, 7.85354E-09, -7.73842E-09, -3.7336E-11, 7.85354E-09, 8.86202008573666E-05, 2.4360740047569167E-08, 3.7336E-11
DataValue, 1.05, 3, 0, 9.29944E-09, -9.22112E-09, -2.3588000000000002E-11, 9.29944E-09, 9.6433604101474915E-05, 2.5865363129353462E-08, 2.3588000000000002E-11
DataValue, 1.1, 3, 0, 1.0962699999999999E-08, -1.08131E-08, -1.1414000000000001E-11, 1.0962699999999999E-08, 0.00010470291304448029, 3.2476330589326937E-08, 1.1414000000000001E-11
DataValue, 1.1500000000000001, 3, 0, 1.30999E-08, -1.3005499999999999E-08, -1.9100000000000002E-13, 1.30999E-08, 0.00011445479456973394, 3.9416145738735044E-08, 1.9100000000000002E-13
DataValue, 1.2, 3, 0, 1.55143E-08, -1.54607E-08, 1.0575000000000001E-11, 1.55143E-08, 0.00012455641292201698, 4.2942185798066566E-08, 1.0575000000000001E-11
DataValue, 1.25, 3, 0, 1.82729E-08, -1.8185199999999998E-08, 2.1330000000000002E-11, 1.82729E-08, 0.0001351772909922373, 4.56278941843468E-08, 2.1330000000000002E-11
DataValue, 1.3, 3, 0, 2.12918E-08, -2.1181999999999997E-08, 3.0930000000000003E-11, 2.12918E-08, 0.00014591709975187965, 5.0904614358959858E-08, 3.0930000000000003E-11
DataValue, 1.35, 3, 0, 2.4881699999999998E-08, -2.4888399999999996E-08, 4.0821E-11, 2.4881699999999998E-08, 0.00015773934195374343, 5.90210071467698E-08, 4.0821E-11
DataValue, 1.4000000000000001, 3, 0, 2.8971899999999998E-08, -2.8952199999999998E-08, 4.9701E-11, 2.8971899999999998E-08, 0.00017021133922274392, 6.65107327611236E-08, 4.9701E-11
DataValue, 1.4500000000000002, 3, 0, 3.36829E-08, -3.3523599999999995E-08, 5.6381000000000005E-11, 3.36829E-08, 0.0001835290167793638, 6.9744094961818421E-08, 5.6381000000000005E-11
DataValue, 1.5, 3, 0, 3.8659599999999995E-08, -3.8814399999999995E-08, 6.3996E-11, 3.8659599999999995E-08, 0.0001966204465461311, 8.1705423478504835E-08, 6.3996E-11
DataValue, 1.55, 3, 0, 4.4992E-08, -4.4821599999999994E-08, 7.3178000000000008E-11, 4.4992E-08, 0.00021211317733700562, 9.4768412528418663E-08, 7.3178000000000008E-11
DataValue, 1.6, 3, 0, 5.1712999999999995E-08, -5.1392599999999994E-08, 8.1128E-11, 5.1712999999999995E-08, 0.00022740492518852796, 9.2825787832829881E-08, 8.1128E-11
DataValue, 1.6500000000000001, 3, 0, 5.8845299999999992E-08, -5.8665699999999994E-08, 8.8564000000000011E-11, 5.8845299999999992E-08, 0.00024258050210187955, 9.2638046812272972E-08, 8.8564000000000011E-11
DataValue, 1.7000000000000002, 3, 0, 6.64822E-08, -6.62854E-08, 9.5632E-11, 6.64822E-08, 0.00025784142413506797, 1.0264075801974679E-07, 9.5632E-11
DataValue, 1.75, 3, 0, 7.54151E-08, -7.51231E-08, 1.0210400000000001E-10, 7.54151E-08, 0.00027461809845674777, 1.1793431877402209E-07, 1.0210400000000001E-10
DataValue, 1.8, 3, 0, 8.5370899999999985E-08, -8.49315E-08, 1.08728E-10, 8.5370899999999985E-08, 0.000292182990606914, 1.2178235900805206E-07, 1.08728E-10
DataValue, 1.85, 3, 0, 9.5799799999999987E-08, -9.5843899999999989E-08, 1.14705E-10, 9.5799799999999987E-08, 0.00030951542772533969, 1.133444532750705E-07, 1.14705E-10
DataValue, 1.9000000000000001, 3, 0, 1.06178E-07, -1.0609409999999999E-07, 1.19091E-10, 1.06178E-07, 0.00032584965858505977, 1.2110285013094852E-07, 1.19091E-10
DataValue, 1.9500000000000002, 3, 0, 1.18553E-07, -1.17605E-07, 1.24316E-10, 1.18553E-07, 0.00034431526251387694, 1.4368461670378805E-07, 1.24316E-10
DataValue, 2, 3, 0, 1.32318E-07, -1.32107E-07, 1.28899E-10, 1.32318E-07, 0.00036375541233086829, 1.5021699723060548E-07, 1.28899E-10
DataValue, 2.05, 3, 0, 1.46745E-07, -1.46193E-07, 1.34009E-10, 1.46745E-07, 0.00038307310007360212, 1.5551672883208178E-07, 1.34009E-10
DataValue, 2.1, 3, 0, 1.62563E-07, -1.61723E-07, 1.3864200000000002E-10, 1.62563E-07, 0.00040319102172543477, 1.5142890098537697E-07, 1.3864200000000002E-10
DataValue, 2.15, 3, 0, 1.78073E-07, -1.77369E-07, 1.45586E-10, 1.78073E-07, 0.00042198696662337808, 1.3358055714327188E-07, 1.45586E-10
DataValue, 2.2, 3, 0, 1.93371E-07, -1.92099E-07, 1.5106000000000002E-10, 1.93371E-07, 0.00043973969572918929, 1.4564981875498091E-07, 1.5106000000000002E-10
