
SetupTitle, Transfer sat
PrimitiveTest, I/V Sweep
TestParameter, Context.MainFrame, 4155C
TestParameter, Channel.UnitType, SMU, SMU, SMU
TestParameter, Channel.Unit, SMU3:MP, SMU4:MP, SMU1:MP
TestParameter, Channel.IName, IS, ID, IG
TestParameter, Channel.VName, VS, VD, VG
TestParameter, Channel.Mode, COMMON, V, V
TestParameter, Channel.Func, CONST, CONST, VAR1
TestParameter, Channel.Index, 
TestParameter, Channel.Time, 
TestParameter, Measurement.Port.Unit, SMU3:MP, SMU4:MP, SMU1:MP
TestParameter, Measurement.Port.SeriesResistor, NONE, NONE, NONE
TestParameter, Measurement.Port.Filter, ON, ON, ON
TestParameter, Measurement.Primary.Locus, Double
TestParameter, Measurement.Primary.Scale, LINEAR
TestParameter, Measurement.Primary.Start, -2
TestParameter, Measurement.Primary.Stop, 3
TestParameter, Measurement.Primary.Step, 0.05
TestParameter, Measurement.Primary.Compliance, 0.001
TestParameter, Measurement.Primary.PowerCompliance, 0
TestParameter, Measurement.Aborting.Condition, CONTINUE AT ANY
TestParameter, Measurement.PostOutput.Value, START
TestParameter, Measurement.PostOutput.Retention, OFF
TestParameter, Measurement.Bias.Source, 0, 5, -2
TestParameter, Measurement.Bias.Compliance, 0.1, 0.001, 0.001
TestParameter, Measurement.Monitor.Unit, SMU4:MP, SMU3:MP, SMU1:MP
TestParameter, Measurement.Monitor.Adc, HR ADC, HR ADC, HR ADC
TestParameter, Measurement.Monitor.RangingMode, AUTO, AUTO, AUTO
TestParameter, Measurement.Monitor.RangeBoundary, , , 
TestParameter, Measurement.Monitor.RangeRating, BY FULL RANGE, BY FULL RANGE, BY FULL RANGE
TestParameter, Measurement.Monitor.RangeRatingCoeff, 50, 50, 50
TestParameter, Measurement.Timing.Hold, 0.5
TestParameter, Measurement.Timing.Delay, 0.05
TestParameter, Measurement.Adc.HighResolution.AutoZero, OFF
TestParameter, Measurement.Adc.HighResolution.Mode, AUTO
TestParameter, Measurement.Adc.HighResolution.Coeff, 1
TestParameter, Measurement.Ag16440ASelector.SemiconductorRelay.Channel1, DEFAULT
TestParameter, Measurement.Ag16440ASelector.SemiconductorRelay.Channel3, DEFAULT
TestParameter, Function.User.Name, absID, sqrtID, gm2, absIG
TestParameter, Function.User.Unit, A, A, A/V, A
TestParameter, Function.User.Definition, abs(ID), sqrt(abs(ID)), (delta(sqrtID)/delta(VG))^2, abs(IG)
TestParameter, Output.Graph.Enabled, true
TestParameter, Output.Graph.XAxis.Data, VG
TestParameter, Output.Graph.XAxis.Scale, Linear
TestParameter, Output.Graph.XAxis.Left, -5
TestParameter, Output.Graph.XAxis.Right, 7
TestParameter, Output.Graph.YAxis.Data, ID, absIG, gm2
TestParameter, Output.Graph.YAxis.Scale, Log, Log, Linear
TestParameter, Output.Graph.YAxis.Bottom, 1E-14, 1E-14, 0
TestParameter, Output.Graph.YAxis.Top, 0.01, 0.01, 1E-05
TestParameter, Output.Graph.YAxis.Group, , , 
TestParameter, Output.List.Data, VG, IG, VD, ID, VS, IS, sqrtID, gm2, absIG
TestParameter, AutoAnalysis.Interpolation, false
TestParameter, AutoAnalysis.Line1.Enabled, false
TestParameter, AutoAnalysis.Line1.Type, 1
TestParameter, AutoAnalysis.Line1.Fix, True
TestParameter, AutoAnalysis.Line1.YAxis, 0
TestParameter, AutoAnalysis.Line1.Point1.Type, 0
TestParameter, AutoAnalysis.Line1.Point1.XY.X, 
TestParameter, AutoAnalysis.Line1.Point1.XY.Y, 
TestParameter, AutoAnalysis.Line1.Point1.Data.Var, 
TestParameter, AutoAnalysis.Line1.Point1.Data.Condition, 
TestParameter, AutoAnalysis.Line1.Point1.Data.Start, false
TestParameter, AutoAnalysis.Line1.Point1.Data.StartVar, 
TestParameter, AutoAnalysis.Line1.Point1.Data.StartCondition, 
TestParameter, AutoAnalysis.Line1.Point2.Type, 0
TestParameter, AutoAnalysis.Line1.Point2.XY.X, 
TestParameter, AutoAnalysis.Line1.Point2.XY.Y, 
TestParameter, AutoAnalysis.Line1.Point2.Data.Var, 
TestParameter, AutoAnalysis.Line1.Point2.Data.Condition, 
TestParameter, AutoAnalysis.Line1.Point2.Data.Start, false
TestParameter, AutoAnalysis.Line1.Point2.Data.StartVar, 
TestParameter, AutoAnalysis.Line1.Point2.Data.StartCondition, 
TestParameter, AutoAnalysis.Line1.GradientExpr, 0
TestParameter, AutoAnalysis.Line2.Enabled, false
TestParameter, AutoAnalysis.Line2.Type, 1
TestParameter, AutoAnalysis.Line2.Fix, True
TestParameter, AutoAnalysis.Line2.YAxis, 0
TestParameter, AutoAnalysis.Line2.Point1.Type, 0
TestParameter, AutoAnalysis.Line2.Point1.XY.X, 
TestParameter, AutoAnalysis.Line2.Point1.XY.Y, 
TestParameter, AutoAnalysis.Line2.Point1.Data.Var, 
TestParameter, AutoAnalysis.Line2.Point1.Data.Condition, 
TestParameter, AutoAnalysis.Line2.Point1.Data.Start, false
TestParameter, AutoAnalysis.Line2.Point1.Data.StartVar, 
TestParameter, AutoAnalysis.Line2.Point1.Data.StartCondition, 
TestParameter, AutoAnalysis.Line2.Point2.Type, 0
TestParameter, AutoAnalysis.Line2.Point2.XY.X, 
TestParameter, AutoAnalysis.Line2.Point2.XY.Y, 
TestParameter, AutoAnalysis.Line2.Point2.Data.Var, 
TestParameter, AutoAnalysis.Line2.Point2.Data.Condition, 
TestParameter, AutoAnalysis.Line2.Point2.Data.Start, false
TestParameter, AutoAnalysis.Line2.Point2.Data.StartVar, 
TestParameter, AutoAnalysis.Line2.Point2.Data.StartCondition, 
TestParameter, AutoAnalysis.Line2.GradientExpr, 0
TestParameter, AutoAnalysis.Marker.Enabled, false
TestParameter, AutoAnalysis.Marker.Data.Var, 
TestParameter, AutoAnalysis.Marker.Data.Condition, 
TestParameter, AutoAnalysis.Marker.Data.Start, false
TestParameter, AutoAnalysis.Marker.Data.StartVar, 
TestParameter, AutoAnalysis.Marker.Data.StartCondition, 
MetaData, TestRecord.EntryPoint, true
MetaData, TestRecord.RecordTime, 06/18/2019 14:58:01
MetaData, TestRecord.TestTarget, 4-32
MetaData, TestRecord.IterationIndex, 1
MetaData, TestRecord.Preservation, true
MetaData, TestRecord.Flag, 
MetaData, TestRecord.Remarks, good
MetaData, TestRecord.LinkKey, 1cd8c168-a5ee-436d-8808-24cda36fd8e9
Dimension1, 202, 202, 202, 202, 202, 202, 202, 202, 202, 202
Dimension2, 1, 1, 1, 1, 1, 1, 1, 1, 1, 1
DataName, VG, VS, VD, ID, IS, IG, absID, sqrtID, gm2, absIG
DataValue, -2, 0, 5, 2.7180000000000003E-12, -1.7870000000000002E-12, -2.37E-12, 2.7180000000000003E-12, 1.6486357996840904E-06, 1.5428579100126716E-11, 2.37E-12
DataValue, -1.9500000000000002, 0, 5, 2.109E-12, -2.3100000000000003E-13, -1.7030000000000001E-12, 2.109E-12, 1.4522396496446446E-06, 2.0159422847790363E-12, 1.7030000000000001E-12
DataValue, -1.9000000000000001, 0, 5, 2.2700000000000002E-12, 2.11E-13, -1.4400000000000001E-12, 2.2700000000000002E-12, 1.5066519173319364E-06, 3.2392718491756324E-11, 1.4400000000000001E-12
DataValue, -1.85, 0, 5, 4.086E-12, -1.7300000000000002E-13, -1.3650000000000001E-12, 4.086E-12, 2.0213856633507619E-06, 8.1152471942236211E-11, 1.3650000000000001E-12
DataValue, -1.8, 0, 5, 3.6700000000000005E-13, -7.7E-14, -1.103E-12, 3.6700000000000005E-13, 6.0580524923443846E-07, 1.510247200547455E-10, 1.103E-12
DataValue, -1.75, 0, 5, -6.28E-13, -4E-15, -1.433E-12, 6.28E-13, 7.92464510246358E-07, 9.10120638770826E-11, 1.433E-12
DataValue, -1.7000000000000002, 0, 5, 2.4330000000000002E-12, -2.247E-12, -6.79E-13, 2.4330000000000002E-12, 1.5598076804529462E-06, 6.6780576984033E-11, 6.79E-13
DataValue, -1.6500000000000001, 0, 5, 2.591E-12, -5.5600000000000005E-13, -8.42E-13, 2.591E-12, 1.6096583488430084E-06, 5.61367844329998E-12, 8.42E-13
DataValue, -1.6, 0, 5, 1.7500000000000002E-12, -8.1000000000000008E-14, -8.8600000000000006E-13, 1.7500000000000002E-12, 1.3228756555322954E-06, 1.30344233432636E-10, 8.8600000000000006E-13
DataValue, -1.55, 0, 5, 2.1900000000000003E-13, -5.3000000000000006E-13, -7.74E-13, 2.1900000000000003E-13, 4.6797435827190362E-07, 3.0433354193579925E-13, 7.74E-13
DataValue, -1.5, 0, 5, 1.8990000000000003E-12, -2.9100000000000003E-12, -4.7E-13, 1.8990000000000003E-12, 1.3780420893427022E-06, 7.8287204438098178E-11, 4.7E-13
DataValue, -1.4500000000000002, 0, 5, 1.83E-12, -9.94E-13, -1.023E-12, 1.83E-12, 1.3527749258468684E-06, 1.3068476125320105E-12, 1.023E-12
DataValue, -1.4000000000000001, 0, 5, -1.5970000000000002E-12, -1.6200000000000002E-13, -9.99E-13, 1.5970000000000002E-12, 1.26372465355393E-06, 2.2309356103216516E-11, 9.99E-13
DataValue, -1.35, 0, 5, 3.3310000000000002E-12, -6.4600000000000007E-13, -1.7E-13, 3.3310000000000002E-12, 1.8251027368342858E-06, 2.5064533816831253E-11, 1.7E-13
DataValue, -1.3, 0, 5, 3.113E-12, -3.384E-12, -5.59E-13, 3.113E-12, 1.7643695757975426E-06, 8.21378222039671E-12, 5.59E-13
DataValue, -1.25, 0, 5, -2.3670000000000003E-12, -3.024E-12, -1.0140000000000001E-12, 2.3670000000000003E-12, 1.5385057685949703E-06, 9.74554376108797E-11, 1.0140000000000001E-12
DataValue, -1.2, 0, 5, 6.0400000000000005E-13, 5.83E-13, 2.23E-13, 6.0400000000000005E-13, 7.7717436910901794E-07, 2.4034883863857742E-12, 2.23E-13
DataValue, -1.1500000000000001, 0, 5, 1.914E-12, 2.3000000000000003E-12, -4.33E-13, 1.914E-12, 1.3834738884417009E-06, 2.6666962969547326E-15, 4.33E-13
DataValue, -1.1, 0, 5, 5.9600000000000009E-13, -3.8500000000000003E-13, -8.8500000000000007E-13, 5.9600000000000009E-13, 7.7201036262475136E-07, 1.6131378330142779E-11, 8.8500000000000007E-13
DataValue, -1.05, 0, 5, -9.6400000000000013E-13, 7.120000000000001E-13, -2.2500000000000003E-13, 9.6400000000000013E-13, 9.8183501669068616E-07, 4.3714302314858066E-11, 2.2500000000000003E-13
DataValue, -1, 0, 5, 2.0540000000000003E-12, -3.8500000000000003E-13, 4.77E-13, 2.0540000000000003E-12, 1.4331782861877306E-06, 3.1485715520861661E-11, 4.77E-13
DataValue, -0.95000000000000007, 0, 5, 1.77E-13, -6.05E-12, 3.5E-14, 1.77E-13, 4.2071367935925258E-07, 2.1841411265503783E-11, 3.5E-14
DataValue, -0.9, 0, 5, 3.6120000000000004E-12, -6.84E-13, -8.49E-13, 3.6120000000000004E-12, 1.9005262429127362E-06, 3.4720002353495E-11, 8.49E-13
DataValue, -0.85000000000000009, 0, 5, -1.02E-12, 5.35E-13, -5.0100000000000009E-13, 1.02E-12, 1.0099504938362078E-06, 1.1028212676916443E-11, 5.0100000000000009E-13
DataValue, -0.8, 0, 5, 2.46E-12, 1.3730000000000001E-12, -2.12E-13, 2.46E-12, 1.5684387141358121E-06, 1.1058674372685953E-10, 2.12E-13
DataValue, -0.75, 0, 5, 4.2500000000000007E-12, -1.1290000000000001E-12, 1.155E-12, 4.2500000000000007E-12, 2.0615528128088303E-06, 4.2944344981820675E-12, 1.155E-12
DataValue, -0.70000000000000007, 0, 5, -3.1530000000000004E-12, -5.5000000000000008E-13, -6.1800000000000009E-13, 3.1530000000000004E-12, 1.7756688880531755E-06, 6.3011798643901941E-12, 6.1800000000000009E-13
DataValue, -0.65, 0, 5, -5.348E-12, 1.0100000000000001E-13, -6.4700000000000007E-13, 5.348E-12, 2.3125743231299618E-06, 8.270281754588557E-12, 6.4700000000000007E-13
DataValue, -0.6, 0, 5, 4.257E-12, -5.63E-13, -3.3000000000000005E-14, 4.257E-12, 2.0632498636859278E-06, 8.6726491392858037E-11, 3.3000000000000005E-14
DataValue, -0.55, 0, 5, -1.908E-12, -8.3400000000000008E-13, -6.82E-13, 1.908E-12, 1.3813037319865606E-06, 2.2613718359164038E-10, 6.82E-13
DataValue, -0.5, 0, 5, 3.1300000000000003E-13, -4.09E-13, -6.79E-13, 3.1300000000000003E-13, 5.5946402922797464E-07, 1.1230841237244724E-12, 6.79E-13
DataValue, -0.45, 0, 5, 2.2120000000000003E-12, -3.133E-12, 4.2800000000000004E-13, 2.2120000000000003E-12, 1.4872793954062567E-06, 2.5249966722152822E-10, 4.2800000000000004E-13
DataValue, -0.4, 0, 5, 4.6160000000000005E-12, -6.2500000000000006E-13, 3.99E-13, 4.6160000000000005E-12, 2.1484878403193257E-06, 4.6851854754896028E-12, 3.99E-13
DataValue, -0.35000000000000003, 0, 5, 1.615E-12, -8.65E-13, -4.74E-13, 1.615E-12, 1.2708265027138836E-06, 1.4560791952399162E-10, 4.74E-13
DataValue, -0.3, 0, 5, 8.8700000000000006E-13, -3.8000000000000005E-13, -7.5E-13, 8.8700000000000006E-13, 9.4180677423768839E-07, 6.6382788163275735E-11, 7.5E-13
DataValue, -0.25, 0, 5, -2.0800000000000002E-13, -8.0400000000000011E-13, -2.57E-13, 2.0800000000000002E-13, 4.5607017003965524E-07, 5.5050542092622623E-12, 2.57E-13
DataValue, -0.2, 0, 5, 1.3840000000000002E-12, -1.182E-12, 3.05E-13, 1.3840000000000002E-12, 1.1764352935882196E-06, 1.0953592739160273E-10, 3.05E-13
DataValue, -0.15, 0, 5, 2.2580000000000003E-12, -2.343E-12, -2.2E-14, 2.2580000000000003E-12, 1.5026643005009471E-06, 2.2689011414585713E-10, 2.2E-14
DataValue, -0.1, 0, 5, 7.1970000000000009E-12, -3.338E-12, -5.84E-13, 7.1970000000000009E-12, 2.6827224977623012E-06, 4.5401947016842404E-11, 5.84E-13
DataValue, -0.05, 0, 5, 6.870000000000001E-13, -4.3400000000000005E-12, -6.6900000000000008E-13, 6.870000000000001E-13, 8.2885463140408414E-07, 2.187192533520285E-11, 6.6900000000000008E-13
DataValue, 0, 0, 5, 9.925E-12, -7.462E-12, -5.59E-13, 9.925E-12, 3.1503968004046727E-06, 1.3692839639432307E-09, 5.59E-13
DataValue, 0.05, 0, 5, 2.0514E-11, -1.2037000000000001E-11, 1.2130000000000002E-12, 2.0514E-11, 4.5292383465655679E-06, 2.1427700452804872E-10, 1.2130000000000002E-12
DataValue, 0.1, 0, 5, 2.1291E-11, -2.1832E-11, -1.3900000000000001E-13, 2.1291E-11, 4.6142171600391763E-06, 8.3626200588748247E-11, 1.3900000000000001E-13
DataValue, 0.15, 0, 5, 2.9634E-11, -2.8295E-11, 3.8400000000000003E-13, 2.9634E-11, 5.4437119688683014E-06, 4.4326293330005474E-10, 3.8400000000000003E-13
DataValue, 0.2, 0, 5, 4.5153E-11, -4.1864E-11, 3.9600000000000003E-13, 4.5153E-11, 6.7195982022737043E-06, 7.5092267098268181E-10, 3.9600000000000003E-13
DataValue, 0.25, 0, 5, 6.6978E-11, -6.1555E-11, -6.6900000000000008E-13, 6.6978E-11, 8.18400879764923E-06, 7.75376761576946E-10, 6.6900000000000008E-13
DataValue, 0.3, 0, 5, 9.0329E-11, -9.2081E-11, -4.1500000000000005E-13, 9.0329E-11, 9.50415698523546E-06, 1.0504414029954702E-09, 4.1500000000000005E-13
DataValue, 0.35000000000000003, 0, 5, 1.30532E-10, -1.26594E-10, -4.13E-13, 1.30532E-10, 1.1425060174896236E-05, 1.5585962207815824E-09, 4.13E-13
DataValue, 0.4, 0, 5, 1.8095800000000002E-10, -1.7613600000000002E-10, 2.1000000000000002E-14, 1.8095800000000002E-10, 1.345206303880561E-05, 1.8715952305806143E-09, 2.1000000000000002E-14
DataValue, 0.45, 0, 5, 2.48102E-10, -2.4014200000000003E-10, 3.8300000000000003E-13, 2.48102E-10, 1.5751253918339326E-05, 2.3484745965907256E-09, 3.8300000000000003E-13
DataValue, 0.5, 0, 5, 3.34823E-10, -3.2346000000000004E-10, 1.9000000000000002E-13, 3.34823E-10, 1.8298169307337827E-05, 2.7328471638370782E-09, 1.9000000000000002E-13
DataValue, 0.55, 0, 5, 4.4011500000000004E-10, -4.2335500000000003E-10, 4.3700000000000006E-13, 4.4011500000000004E-10, 2.0978917989257694E-05, 3.2386236950888108E-09, 4.3700000000000006E-13
DataValue, 0.6, 0, 5, 5.75475E-10, -5.5717000000000005E-10, 6.0200000000000006E-13, 5.75475E-10, 2.3989060006594674E-05, 3.7583133433653037E-09, 6.0200000000000006E-13
DataValue, 0.65, 0, 5, 7.3492100000000009E-10, -7.14879E-10, 3.16E-13, 7.3492100000000009E-10, 2.71094264048504E-05, 4.3023708115882E-09, 3.16E-13
DataValue, 0.70000000000000007, 0, 5, 9.3319900000000014E-10, -9.0162E-10, 7E-13, 9.3319900000000014E-10, 3.0548306008680743E-05, 3.6683260485341105E-09, 7E-13
DataValue, 0.75, 0, 5, 1.09999E-09, -1.07126E-09, 4.2700000000000005E-13, 1.09999E-09, 3.3166097147539085E-05, 4.72667580091817E-09, 4.2700000000000005E-13
DataValue, 0.8, 0, 5, 1.40051E-09, -1.38195E-09, -6.9000000000000009E-14, 1.40051E-09, 3.74233884088547E-05, 7.3436316028617656E-09, 6.9000000000000009E-14
DataValue, 0.85000000000000009, 0, 5, 1.74186E-09, -1.72292E-09, 1.138E-12, 1.74186E-09, 4.1735596317771718E-05, 7.4170849368288082E-09, 1.138E-12
DataValue, 0.9, 0, 5, 2.11928E-09, -2.1028E-09, 1.6E-14, 2.11928E-09, 4.6035638368550948E-05, 7.7245680265126831E-09, 1.6E-14
DataValue, 0.95000000000000007, 0, 5, 2.55273E-09, -2.5127E-09, -1.7900000000000002E-13, 2.55273E-09, 5.0524548488828675E-05, 8.1746888441324486E-09, 1.7900000000000002E-13
DataValue, 1, 0, 5, 3.03348E-09, -2.98128E-09, 4.72E-13, 3.03348E-09, 5.5077036957338219E-05, 8.3305611871698027E-09, 4.72E-13
DataValue, 1.05, 0, 5, 3.55833E-09, -3.48829E-09, 4.48E-13, 3.55833E-09, 5.9651739287299912E-05, 8.2277293519035261E-09, 4.48E-13
DataValue, 1.1, 0, 5, 4.11493E-09, -4.05327E-09, -2.96E-13, 4.11493E-09, 6.414772014654924E-05, 8.4598314483529223E-09, 2.96E-13
DataValue, 1.1500000000000001, 0, 5, 4.74025E-09, -4.67626E-09, 2.9000000000000003E-13, 4.74025E-09, 6.8849473491087787E-05, 8.82530350737416E-09, 2.9000000000000003E-13
DataValue, 1.2, 0, 5, 5.40843E-09, -5.32304E-09, 1.14E-12, 5.40843E-09, 7.3542028799863829E-05, 9.3945592872934165E-09, 1.14E-12
DataValue, 1.25, 0, 5, 6.16885E-09, -6.06946E-09, 2.042E-12, 6.16885E-09, 7.8542026966459171E-05, 9.6025447302522371E-09, 2.042E-12
DataValue, 1.3, 0, 5, 6.94577E-09, -6.8437E-09, 4.65E-13, 6.94577E-09, 8.334128628716982E-05, 9.3024742622684444E-09, 4.65E-13
DataValue, 1.35, 0, 5, 7.77694E-09, -7.66314E-09, 4.0700000000000003E-13, 7.77694E-09, 8.8186960487364569E-05, 9.5844469445744473E-09, 4.0700000000000003E-13
DataValue, 1.4000000000000001, 0, 5, 8.67344E-09, -8.53815E-09, 8.5500000000000009E-13, 8.67344E-09, 9.3131305155677921E-05, 1.0031092910311502E-08, 8.5500000000000009E-13
DataValue, 1.4500000000000002, 0, 5, 9.64373E-09, -9.48752E-09, -6.4800000000000007E-13, 9.64373E-09, 9.8202494876657793E-05, 5.9392973922561344E-09, 6.4800000000000007E-13
DataValue, 1.5, 0, 5, 1.0168299999999999E-08, -9.8730999999999989E-09, -2.45E-13, 1.0168299999999999E-08, 0.0001008379888732416, 6.6740630866193363E-09, 2.45E-13
DataValue, 1.55, 0, 5, 1.1314999999999999E-08, -1.1174899999999999E-08, -2.18E-13, 1.1314999999999999E-08, 0.00010637198879404296, 1.2090797811635184E-08, 2.18E-13
DataValue, 1.6, 0, 5, 1.2506799999999998E-08, -1.2324099999999999E-08, -5.7700000000000007E-13, 1.2506799999999998E-08, 0.00011183380526477671, 1.137097186206138E-08, 5.7700000000000007E-13
DataValue, 1.6500000000000001, 0, 5, 1.3697299999999998E-08, -1.3529699999999998E-08, -7.76E-13, 1.3697299999999998E-08, 0.00011703546471048849, 1.1027919189166431E-08, 7.76E-13
DataValue, 1.7000000000000002, 0, 5, 1.4965899999999998E-08, -1.4760799999999998E-08, 3.1000000000000004E-13, 1.4965899999999998E-08, 0.00012233519526285146, 1.1499739188165765E-08, 3.1000000000000004E-13
DataValue, 1.75, 0, 5, 1.6322399999999997E-08, -1.60521E-08, 1.4090000000000002E-12, 1.6322399999999997E-08, 0.00012775914840041787, 1.0780517488847113E-08, 1.4090000000000002E-12
DataValue, 1.8, 0, 5, 1.7614099999999997E-08, -1.7326999999999997E-08, 1.111E-12, 1.7614099999999997E-08, 0.00013271812234958721, 9.7726756296642585E-09, 1.111E-12
DataValue, 1.85, 0, 5, 1.89461E-08, -1.8746299999999998E-08, 5.18E-13, 1.89461E-08, 0.00013764483281256874, 1.0936961710609007E-08, 5.18E-13
DataValue, 1.9000000000000001, 0, 5, 2.04994E-08, -2.0149799999999998E-08, 4.23E-13, 2.04994E-08, 0.00014317611532654461, 1.1269411828162658E-08, 4.23E-13
DataValue, 1.9500000000000002, 0, 5, 2.1981199999999998E-08, -2.16338E-08, 7.1400000000000009E-13, 2.1981199999999998E-08, 0.00014826058140989464, 1.0594790405898578E-08, 7.1400000000000009E-13
DataValue, 2, 0, 5, 2.3552799999999998E-08, -2.3174499999999997E-08, 1.011E-12, 2.3552799999999998E-08, 0.00015346921515404971, 1.1451245356636908E-08, 1.011E-12
DataValue, 2.05, 0, 5, 2.52688E-08, -2.4869799999999996E-08, 4.72E-13, 2.52688E-08, 0.00015896163059052961, 1.1212059836745633E-08, 4.72E-13
DataValue, 2.1, 0, 5, 2.6914999999999996E-08, -2.65011E-08, 3.7100000000000003E-13, 2.6914999999999996E-08, 0.0001640579166026437, 1.163912978188324E-08, 3.7100000000000003E-13
DataValue, 2.15, 0, 5, 2.8815099999999996E-08, -2.8360299999999997E-08, 7.6200000000000009E-13, 2.8815099999999996E-08, 0.0001697501104565178, 1.2072528972337148E-08, 7.6200000000000009E-13
DataValue, 2.2, 0, 5, 3.06409E-08, -3.02442E-08, 1.032E-12, 3.06409E-08, 0.00017504542267651559, 1.2095725540892937E-08, 1.032E-12
DataValue, 2.25, 0, 5, 3.2669899999999995E-08, -3.22031E-08, 1.1100000000000001E-12, 3.2669899999999995E-08, 0.00018074816734893882, 1.2801057741323034E-08, 1.1100000000000001E-12
DataValue, 2.3000000000000003, 0, 5, 3.4729899999999995E-08, -3.4277599999999996E-08, 6.4700000000000007E-13, 3.4729899999999995E-08, 0.00018635959862588241, 1.4485685646171313E-08, 6.4700000000000007E-13
