
SetupTitle, Transfer stab
PrimitiveTest, I/V Sweep
TestParameter, Context.MainFrame, 4155C
TestParameter, Channel.UnitType, SMU, SMU, SMU
TestParameter, Channel.Unit, SMU3:MP, SMU4:MP, SMU1:MP
TestParameter, Channel.IName, ID, IS, IG
TestParameter, Channel.VName, VD, VS, VG
TestParameter, Channel.Mode, V, COMMON, V
TestParameter, Channel.Func, CONST, CONST, VAR1
TestParameter, Channel.Index, 
TestParameter, Channel.Time, 
TestParameter, Measurement.Port.Unit, SMU3:MP, SMU4:MP, SMU1:MP
TestParameter, Measurement.Port.SeriesResistor, NONE, NONE, NONE
TestParameter, Measurement.Port.Filter, ON, ON, ON
TestParameter, Measurement.Primary.Locus, Single
TestParameter, Measurement.Primary.Scale, LINEAR
TestParameter, Measurement.Primary.Start, -2
TestParameter, Measurement.Primary.Stop, 3
TestParameter, Measurement.Primary.Step, 0.05
TestParameter, Measurement.Primary.Compliance, 0.1
TestParameter, Measurement.Primary.PowerCompliance, 0
TestParameter, Measurement.Aborting.Condition, CONTINUE AT ANY
TestParameter, Measurement.PostOutput.Value, START
TestParameter, Measurement.PostOutput.Retention, OFF
TestParameter, Measurement.Bias.Source, 3, 0, -2
TestParameter, Measurement.Bias.Compliance, 0.1, 0.1, 0.1
TestParameter, Measurement.Monitor.Unit, SMU3:MP, SMU4:MP, SMU1:MP
TestParameter, Measurement.Monitor.Adc, HR ADC, HR ADC, HR ADC
TestParameter, Measurement.Monitor.RangingMode, AUTO, AUTO, AUTO
TestParameter, Measurement.Monitor.RangeBoundary, , , 
TestParameter, Measurement.Monitor.RangeRating, BY FULL RANGE, BY FULL RANGE, BY FULL RANGE
TestParameter, Measurement.Monitor.RangeRatingCoeff, 50, 50, 50
TestParameter, Measurement.Timing.Hold, 0.5
TestParameter, Measurement.Timing.Delay, 0.05
TestParameter, Measurement.Adc.HighResolution.AutoZero, OFF
TestParameter, Measurement.Adc.HighResolution.Mode, AUTO
TestParameter, Measurement.Adc.HighResolution.Coeff, 1
TestParameter, Measurement.Ag16440ASelector.SemiconductorRelay.Channel1, DEFAULT
TestParameter, Measurement.Ag16440ASelector.SemiconductorRelay.Channel3, DEFAULT
TestParameter, Function.User.Name, absID, sqrtID, gm2, absIG
TestParameter, Function.User.Unit, A, A, A/V, A
TestParameter, Function.User.Definition, abs(ID), sqrt(abs(ID)), (delta(sqrtID)/delta(VG))^2, abs(IG)
TestParameter, Output.Graph.Enabled, true
TestParameter, Output.Graph.XAxis.Data, VG
TestParameter, Output.Graph.XAxis.Scale, Linear
TestParameter, Output.Graph.XAxis.Left, -5
TestParameter, Output.Graph.XAxis.Right, 7
TestParameter, Output.Graph.YAxis.Data, ID, absIG, gm2
TestParameter, Output.Graph.YAxis.Scale, Log, Log, Linear
TestParameter, Output.Graph.YAxis.Bottom, 1E-14, 1E-14, 0
TestParameter, Output.Graph.YAxis.Top, 0.01, 0.01, 1E-05
TestParameter, Output.Graph.YAxis.Group, , , 
TestParameter, Output.List.Data, VG, IG, VD, ID, VS, IS, sqrtID, gm2, absIG
TestParameter, AutoAnalysis.Interpolation, false
TestParameter, AutoAnalysis.Line1.Enabled, false
TestParameter, AutoAnalysis.Line1.Type, 1
TestParameter, AutoAnalysis.Line1.Fix, True
TestParameter, AutoAnalysis.Line1.YAxis, 0
TestParameter, AutoAnalysis.Line1.Point1.Type, 0
TestParameter, AutoAnalysis.Line1.Point1.XY.X, 
TestParameter, AutoAnalysis.Line1.Point1.XY.Y, 
TestParameter, AutoAnalysis.Line1.Point1.Data.Var, 
TestParameter, AutoAnalysis.Line1.Point1.Data.Condition, 
TestParameter, AutoAnalysis.Line1.Point1.Data.Start, false
TestParameter, AutoAnalysis.Line1.Point1.Data.StartVar, 
TestParameter, AutoAnalysis.Line1.Point1.Data.StartCondition, 
TestParameter, AutoAnalysis.Line1.Point2.Type, 0
TestParameter, AutoAnalysis.Line1.Point2.XY.X, 
TestParameter, AutoAnalysis.Line1.Point2.XY.Y, 
TestParameter, AutoAnalysis.Line1.Point2.Data.Var, 
TestParameter, AutoAnalysis.Line1.Point2.Data.Condition, 
TestParameter, AutoAnalysis.Line1.Point2.Data.Start, false
TestParameter, AutoAnalysis.Line1.Point2.Data.StartVar, 
TestParameter, AutoAnalysis.Line1.Point2.Data.StartCondition, 
TestParameter, AutoAnalysis.Line1.GradientExpr, 0
TestParameter, AutoAnalysis.Line2.Enabled, false
TestParameter, AutoAnalysis.Line2.Type, 1
TestParameter, AutoAnalysis.Line2.Fix, True
TestParameter, AutoAnalysis.Line2.YAxis, 0
TestParameter, AutoAnalysis.Line2.Point1.Type, 0
TestParameter, AutoAnalysis.Line2.Point1.XY.X, 
TestParameter, AutoAnalysis.Line2.Point1.XY.Y, 
TestParameter, AutoAnalysis.Line2.Point1.Data.Var, 
TestParameter, AutoAnalysis.Line2.Point1.Data.Condition, 
TestParameter, AutoAnalysis.Line2.Point1.Data.Start, false
TestParameter, AutoAnalysis.Line2.Point1.Data.StartVar, 
TestParameter, AutoAnalysis.Line2.Point1.Data.StartCondition, 
TestParameter, AutoAnalysis.Line2.Point2.Type, 0
TestParameter, AutoAnalysis.Line2.Point2.XY.X, 
TestParameter, AutoAnalysis.Line2.Point2.XY.Y, 
TestParameter, AutoAnalysis.Line2.Point2.Data.Var, 
TestParameter, AutoAnalysis.Line2.Point2.Data.Condition, 
TestParameter, AutoAnalysis.Line2.Point2.Data.Start, false
TestParameter, AutoAnalysis.Line2.Point2.Data.StartVar, 
TestParameter, AutoAnalysis.Line2.Point2.Data.StartCondition, 
TestParameter, AutoAnalysis.Line2.GradientExpr, 0
TestParameter, AutoAnalysis.Marker.Enabled, false
TestParameter, AutoAnalysis.Marker.Data.Var, 
TestParameter, AutoAnalysis.Marker.Data.Condition, 
TestParameter, AutoAnalysis.Marker.Data.Start, false
TestParameter, AutoAnalysis.Marker.Data.StartVar, 
TestParameter, AutoAnalysis.Marker.Data.StartCondition, 
MetaData, TestRecord.EntryPoint, true
MetaData, TestRecord.RecordTime, 06/18/2019 12:36:31
MetaData, TestRecord.TestTarget, 12-14
MetaData, TestRecord.IterationIndex, 4
MetaData, TestRecord.Preservation, true
MetaData, TestRecord.Flag, 
MetaData, TestRecord.Remarks, leak
MetaData, TestRecord.LinkKey, 4ac01728-660d-4e07-bcb7-f1b870182b7d
Dimension1, 101, 101, 101, 101, 101, 101, 101, 101, 101, 101
Dimension2, 1, 1, 1, 1, 1, 1, 1, 1, 1, 1
DataName, VG, VD, VS, ID, IS, IG, absID, sqrtID, gm2, absIG
DataValue, -2, 3, 0, 1.15873E-09, 5.0845000000000006E-11, -6.6744E-10, 1.15873E-09, 3.4040123384030206E-05, 2.8993007049669455E-08, 6.6744E-10
DataValue, -1.9500000000000002, 3, 0, 6.516E-10, 3.8030000000000003E-11, -6.86362E-10, 6.516E-10, 2.5526456863419176E-05, 8.3843962373545084E-09, 6.86362E-10
DataValue, -1.9000000000000001, 3, 0, 6.191880000000001E-10, 3.5709E-11, -6.21339E-10, 6.191880000000001E-10, 2.4883488501413947E-05, 3.0231783091499312E-10, 6.21339E-10
DataValue, -1.85, 3, 0, 5.65856E-10, 3.2734E-11, -5.63083E-10, 5.65856E-10, 2.3787727928492878E-05, 9.6885518123617424E-11, 5.63083E-10
DataValue, -1.8, 3, 0, 5.71171E-10, 2.7987000000000002E-11, -5.1804900000000008E-10, 5.71171E-10, 2.389918408649132E-05, 2.3350920480638931E-10, 5.1804900000000008E-10
DataValue, -1.75, 3, 0, 4.95491E-10, 2.2949000000000003E-11, -5.4810900000000008E-10, 4.95491E-10, 2.2259627130749517E-05, 2.0039913160739618E-11, 5.4810900000000008E-10
DataValue, -1.7000000000000002, 3, 0, 5.49974E-10, 1.7780000000000002E-11, -6.1385700000000007E-10, 5.49974E-10, 2.3451524470703391E-05, 4.354261628625168E-10, 6.1385700000000007E-10
DataValue, -1.6500000000000001, 3, 0, 5.9274300000000009E-10, 1.4505000000000001E-11, -5.5421800000000006E-10, 5.9274300000000009E-10, 2.4346313889375535E-05, 2.0480533105815712E-10, 5.5421800000000006E-10
DataValue, -1.6, 3, 0, 4.84899E-10, 9.1670000000000008E-12, -4.9136400000000008E-10, 4.84899E-10, 2.202042233927406E-05, 6.3494738415983038E-10, 4.9136400000000008E-10
DataValue, -1.55, 3, 0, 4.76396E-10, 7.569E-12, -4.0308700000000003E-10, 4.76396E-10, 2.1826497657663723E-05, 4.8011429088469344E-10, 4.0308700000000003E-10
DataValue, -1.5, 3, 0, 3.9320000000000005E-10, 4.5740000000000005E-12, -4.1492300000000003E-10, 3.9320000000000005E-10, 1.98292712927127E-05, 2.3100891562286763E-10, 4.1492300000000003E-10
DataValue, -1.4500000000000002, 3, 0, 4.1235800000000005E-10, 2.339E-12, -4.2229500000000004E-10, 4.1235800000000005E-10, 2.0306599912343772E-05, 2.3121608504767033E-11, 4.2229500000000004E-10
DataValue, -1.4000000000000001, 3, 0, 4.1250100000000003E-10, 4.536E-12, -3.7310100000000004E-10, 4.1250100000000003E-10, 2.0310120629873177E-05, 1.8611946870141365E-10, 3.7310100000000004E-10
DataValue, -1.35, 3, 0, 4.69626E-10, 7.33E-13, -3.7569300000000005E-10, 4.69626E-10, 2.167085600524354E-05, 2.5669844016682184E-10, 3.7569300000000005E-10
DataValue, -1.3, 3, 0, 3.49987E-10, -5.19E-13, -3.39645E-10, 3.49987E-10, 1.8707939491028937E-05, 1.6252050698801558E-09, 3.39645E-10
DataValue, -1.25, 3, 0, 3.11151E-10, -2.2080000000000003E-12, -2.88351E-10, 3.11151E-10, 1.7639472781236972E-05, 5.7893128988847438E-10, 2.88351E-10
DataValue, -1.2, 3, 0, 2.6575000000000004E-10, -6.421E-12, -2.57682E-10, 2.6575000000000004E-10, 1.6301840386901106E-05, 3.0485684070260675E-10, 2.57682E-10
DataValue, -1.1500000000000001, 3, 0, 2.52602E-10, -8.32E-12, -2.38802E-10, 2.52602E-10, 1.589345777356205E-05, 9.59107992885546E-11, 2.38802E-10
DataValue, -1.1, 3, 0, 2.3477900000000003E-10, -1.0073E-11, -2.2915800000000002E-10, 2.3477900000000003E-10, 1.5322499796051557E-05, 1.4824503176865039E-10, 2.2915800000000002E-10
DataValue, -1.05, 3, 0, 2.1538200000000003E-10, -1.0829000000000001E-11, -2.15546E-10, 2.1538200000000003E-10, 1.4675898609625239E-05, 4.2029905989828179E-11, 2.15546E-10
DataValue, -1, 3, 0, 2.15332E-10, -1.2814000000000001E-11, -2.02845E-10, 2.15332E-10, 1.4674195037548056E-05, 1.3769609796837718E-11, 2.02845E-10
DataValue, -0.95000000000000007, 3, 0, 2.04628E-10, -1.4976E-11, -1.92358E-10, 2.04628E-10, 1.4304824361032889E-05, 2.3288132683244845E-11, 1.92358E-10
DataValue, -0.9, 3, 0, 2.0140200000000001E-10, -1.6099000000000002E-11, -1.7953000000000003E-10, 2.0140200000000001E-10, 1.4191617243993019E-05, 1.5902748921162513E-11, 1.7953000000000003E-10
DataValue, -0.85000000000000009, 3, 0, 1.9337800000000002E-10, -1.8203000000000002E-11, -1.72471E-10, 1.9337800000000002E-10, 1.3906041852374817E-05, 1.863750101019225E-11, 1.72471E-10
DataValue, -0.8, 3, 0, 1.8933500000000002E-10, -2.0093000000000002E-11, -1.6720800000000002E-10, 1.8933500000000002E-10, 1.3759905522931473E-05, 2.2682336820622459E-12, 1.6720800000000002E-10
DataValue, -0.75, 3, 0, 1.89212E-10, -2.2261E-11, -1.72827E-10, 1.89212E-10, 1.3755435289368345E-05, 1.748517376931498E-13, 1.72827E-10
DataValue, -0.70000000000000007, 3, 0, 1.8818600000000002E-10, -2.4198000000000003E-11, -1.6862500000000003E-10, 1.8818600000000002E-10, 1.3718090246094753E-05, 2.0505591864849985E-12, 1.6862500000000003E-10
DataValue, -0.65, 3, 0, 1.93172E-10, -2.6173000000000002E-11, -1.6681300000000002E-10, 1.93172E-10, 1.3898633026308738E-05, 5.1605014813371455E-12, 1.6681300000000002E-10
DataValue, -0.6, 3, 0, 1.82005E-10, -2.8346000000000002E-11, -1.53602E-10, 1.82005E-10, 1.3490922874288475E-05, 3.2628962993079585E-11, 1.53602E-10
DataValue, -0.55, 3, 0, 1.7762E-10, -3.0454000000000004E-11, -1.49175E-10, 1.7762E-10, 1.332741535332339E-05, 6.8667068636317226E-13, 1.49175E-10
DataValue, -0.5, 3, 0, 1.7977600000000002E-10, -3.2943000000000005E-11, -1.3716600000000002E-10, 1.7977600000000002E-10, 1.340805727911393E-05, 1.4010191269554115E-12, 1.3716600000000002E-10
DataValue, -0.45, 3, 0, 1.8078900000000002E-10, -3.6796E-11, -1.34997E-10, 1.8078900000000002E-10, 1.3445780007124912E-05, 1.4776924614870442E-12, 1.34997E-10
DataValue, -0.4, 3, 0, 1.7653100000000002E-10, -4.1831E-11, -1.32871E-10, 1.7653100000000002E-10, 1.3286496904752584E-05, 9.437562598492475E-13, 1.32871E-10
DataValue, -0.35000000000000003, 3, 0, 1.7818600000000002E-10, -4.7807E-11, -1.29356E-10, 1.7818600000000002E-10, 1.334863288880176E-05, 3.931189751553739E-12, 1.29356E-10
DataValue, -0.3, 3, 0, 1.81839E-10, -5.6327000000000007E-11, -1.2168400000000002E-10, 1.81839E-10, 1.3484769186011305E-05, 1.4177219839843076E-11, 1.2168400000000002E-10
DataValue, -0.25, 3, 0, 1.8838000000000003E-10, -6.541300000000001E-11, -1.20148E-10, 1.8838000000000003E-10, 1.372515937976678E-05, 2.1521404751809321E-12, 1.20148E-10
DataValue, -0.2, 3, 0, 1.85817E-10, -7.9569000000000007E-11, -1.1421100000000001E-10, 1.85817E-10, 1.3631470940437792E-05, 7.7888403088069136E-11, 1.1421100000000001E-10
DataValue, -0.15, 3, 0, 2.13385E-10, -9.6154000000000007E-11, -1.1098000000000001E-10, 2.13385E-10, 1.4607703447154177E-05, 2.36373603257375E-10, 1.1098000000000001E-10
DataValue, -0.1, 3, 0, 2.3009600000000003E-10, -1.1899900000000002E-10, -1.0602100000000001E-10, 2.3009600000000003E-10, 1.5168915584180698E-05, 1.6238378024805073E-10, 1.0602100000000001E-10
DataValue, -0.05, 3, 0, 2.5223800000000003E-10, -1.4503600000000002E-10, -1.00042E-10, 2.5223800000000003E-10, 1.5882002392645582E-05, 2.3501822386705526E-10, 1.00042E-10
DataValue, 0, 3, 0, 2.7895500000000005E-10, -1.74755E-10, -9.9202000000000008E-11, 2.7895500000000005E-10, 1.6701945994404367E-05, 2.7337940673097694E-10, 9.9202000000000008E-11
DataValue, 0.05, 3, 0, 3.07491E-10, -2.05493E-10, -9.6181E-11, 3.07491E-10, 1.7535421295195619E-05, 2.4652428116441122E-10, 9.6181E-11
DataValue, 0.1, 3, 0, 3.3386800000000004E-10, -2.34464E-10, -9.5324000000000009E-11, 3.3386800000000004E-10, 1.8272055166291505E-05, 1.8122100411994978E-10, 9.5324000000000009E-11
DataValue, 0.15, 3, 0, 3.5651500000000003E-10, -2.6347800000000004E-10, -8.6865E-11, 3.5651500000000003E-10, 1.888160480467696E-05, 1.86698485722542E-10, 8.6865E-11
DataValue, 0.2, 3, 0, 3.85668E-10, -2.88601E-10, -8.5792000000000012E-11, 3.85668E-10, 1.963843170927862E-05, 1.3588896382226389E-10, 8.5792000000000012E-11
DataValue, 0.25, 3, 0, 4.0189500000000004E-10, -3.1213700000000005E-10, -8.0851E-11, 4.0189500000000004E-10, 2.0047319022752144E-05, 7.2246540429329074E-11, 8.0851E-11
DataValue, 0.3, 3, 0, 4.1977500000000003E-10, -3.2913700000000004E-10, -7.7182E-11, 4.1977500000000003E-10, 2.0488411358619291E-05, 7.3545153172301742E-11, 7.7182E-11
DataValue, 0.35000000000000003, 3, 0, 4.37015E-10, -3.4667E-10, -7.3877000000000008E-11, 4.37015E-10, 2.090490373094313E-05, 4.2498087705487005E-11, 7.3877000000000008E-11
DataValue, 0.4, 3, 0, 4.4691300000000004E-10, -3.6406100000000004E-10, -6.8610000000000009E-11, 4.4691300000000004E-10, 2.1140316932345173E-05, 3.9453149660470708E-11, 6.8610000000000009E-11
DataValue, 0.45, 3, 0, 4.63671E-10, -3.8388E-10, -6.688200000000001E-11, 4.63671E-10, 2.1533021153567838E-05, 6.1173877141868134E-11, 6.688200000000001E-11
DataValue, 0.5, 3, 0, 4.80594E-10, -4.0082100000000003E-10, -6.4435000000000008E-11, 4.80594E-10, 2.1922454242169145E-05, 5.0982969277950906E-11, 6.4435000000000008E-11
DataValue, 0.55, 3, 0, 4.9493100000000008E-10, -4.1824600000000005E-10, -6.0794E-11, 4.9493100000000008E-10, 2.2247044747561419E-05, 5.3558824754954329E-11, 6.0794E-11
DataValue, 0.6, 3, 0, 5.1321700000000009E-10, -4.3645700000000004E-10, -5.999E-11, 5.1321700000000009E-10, 2.2654293191357792E-05, 5.0169344184075515E-11, 5.999E-11
DataValue, 0.65, 3, 0, 5.26948E-10, -4.5657300000000003E-10, -5.6170000000000005E-11, 5.26948E-10, 2.2955347960769403E-05, 5.38402731089665E-11, 5.6170000000000005E-11
DataValue, 0.70000000000000007, 3, 0, 5.4700100000000008E-10, -4.77581E-10, -5.0984000000000003E-11, 5.4700100000000008E-10, 2.338805250549947E-05, 8.6599649103610344E-11, 5.0984000000000003E-11
DataValue, 0.75, 3, 0, 5.7053800000000006E-10, -5.01286E-10, -5.2053000000000004E-11, 5.7053800000000006E-10, 2.388593728535684E-05, 7.8544774716478977E-11, 5.2053000000000004E-11
DataValue, 0.8, 3, 0, 5.89242E-10, -5.23093E-10, -4.9074000000000007E-11, 5.89242E-10, 2.4274307405155765E-05, 6.6861028123485633E-11, 4.9074000000000007E-11
DataValue, 0.85000000000000009, 3, 0, 6.102690000000001E-10, -5.46744E-10, -4.6047000000000005E-11, 6.102690000000001E-10, 2.4703623216038577E-05, 9.4212780320948177E-11, 4.6047000000000005E-11
DataValue, 0.9, 3, 0, 6.37307E-10, -5.71464E-10, -4.2817E-11, 6.37307E-10, 2.5244940087074874E-05, 9.1578993257086108E-11, 4.2817E-11
DataValue, 0.95000000000000007, 3, 0, 6.5846600000000007E-10, -5.97957E-10, -3.8797000000000004E-11, 6.5846600000000007E-10, 2.5660592354815194E-05, 8.9580682146993415E-11, 3.8797000000000004E-11
DataValue, 1, 3, 0, 6.8599E-10, -6.2775600000000008E-10, -3.7781E-11, 6.8599E-10, 2.61914108058348E-05, 1.0716650424478509E-10, 3.7781E-11
DataValue, 1.05, 3, 0, 7.12666E-10, -6.5485000000000007E-10, -3.4621E-11, 7.12666E-10, 2.6695804913881133E-05, 1.0278465248169223E-10, 3.4621E-11
DataValue, 1.1, 3, 0, 7.4012500000000007E-10, -6.8762200000000007E-10, -3.1361000000000004E-11, 7.4012500000000007E-10, 2.720523846614839E-05, 1.0842685613588676E-10, 3.1361000000000004E-11
DataValue, 1.1500000000000001, 3, 0, 7.6934600000000011E-10, -7.1817900000000009E-10, -2.9573E-11, 7.6934600000000011E-10, 2.7737087085705308E-05, 1.1560094235519953E-10, 2.9573E-11
DataValue, 1.2, 3, 0, 7.99782E-10, -7.4732500000000011E-10, -2.6603000000000004E-11, 7.99782E-10, 2.828041725293317E-05, 1.2883267127272926E-10, 2.6603000000000004E-11
DataValue, 1.25, 3, 0, 8.336000000000001E-10, -7.80871E-10, -2.5306000000000002E-11, 8.336000000000001E-10, 2.8872131892189743E-05, 1.281836280762869E-10, 2.5306000000000002E-11
DataValue, 1.3, 3, 0, 8.65101E-10, -8.137490000000001E-10, -2.1641E-11, 8.65101E-10, 2.9412599341098705E-05, 6.4430976641370914E-11, 2.1641E-11
DataValue, 1.35, 3, 0, 8.805950000000001E-10, -8.157490000000001E-10, -2.039E-11, 8.805950000000001E-10, 2.9674820976713577E-05, 3.7876338751758209E-11, 2.039E-11
DataValue, 1.4000000000000001, 3, 0, 9.0168300000000006E-10, -8.3820200000000008E-10, -1.5858E-11, 9.0168300000000006E-10, 3.0028036898871695E-05, 5.9236584864033822E-11, 1.5858E-11
DataValue, 1.4500000000000002, 3, 0, 9.268660000000001E-10, -8.6808300000000009E-10, -1.4372E-11, 9.268660000000001E-10, 3.044447404702535E-05, 8.4224350842765857E-11, 1.4372E-11
DataValue, 1.5, 3, 0, 9.5764100000000013E-10, -8.9979400000000009E-10, -1.0611000000000002E-11, 9.5764100000000013E-10, 3.0945775155907794E-05, 1.1724211919018621E-10, 1.0611000000000002E-11
DataValue, 1.55, 3, 0, 9.93968E-10, -9.3222600000000017E-10, -7.841000000000001E-12, 9.93968E-10, 3.1527258047600654E-05, 3.9173748491414454E-11, 7.841000000000001E-12
DataValue, 1.6, 3, 0, 9.9677E-10, -9.57382E-10, -5.3490000000000007E-12, 9.9677E-10, 3.1571664511077017E-05, 1.7835250369244552E-10, 5.3490000000000007E-12
DataValue, 1.6500000000000001, 3, 0, 1.07996E-09, -1.03397E-09, -2.486E-12, 1.07996E-09, 3.2862744864055409E-05, 5.064163908088006E-10, 2.486E-12
DataValue, 1.7000000000000002, 3, 0, 1.14393E-09, -1.12687E-09, 9.74E-13, 1.14393E-09, 3.3822034238052568E-05, 4.1067366830743565E-10, 9.74E-13
DataValue, 1.75, 3, 0, 1.21726E-09, -1.20651E-09, 4.615E-12, 1.21726E-09, 3.4889253359738155E-05, 3.8594780337235204E-10, 4.615E-12
DataValue, 1.8, 3, 0, 1.28068E-09, -1.27133E-09, 7.8860000000000009E-12, 1.28068E-09, 3.57865896670806E-05, 3.4304232845857496E-10, 7.8860000000000009E-12
DataValue, 1.85, 3, 0, 1.34993E-09, -1.33755E-09, 1.0963000000000002E-11, 1.34993E-09, 3.6741393550054686E-05, 3.146230813077142E-10, 1.0963000000000002E-11
DataValue, 1.9000000000000001, 3, 0, 1.41078E-09, -1.40554E-09, 1.2904E-11, 1.41078E-09, 3.7560351436055549E-05, 2.7825925806609535E-10, 1.2904E-11
DataValue, 1.9500000000000002, 3, 0, 1.47529E-09, -1.46674E-09, 1.5319E-11, 1.47529E-09, 3.8409504032205361E-05, 2.8824187050032556E-10, 1.5319E-11
DataValue, 2, 3, 0, 1.5412E-09, -1.52949E-09, 1.7521E-11, 1.5412E-09, 3.925812017914256E-05, 2.8560905751337148E-10, 1.7521E-11
DataValue, 2.05, 3, 0, 1.60797E-09, -1.60393E-09, 1.8765000000000003E-11, 1.60797E-09, 4.0099501243781077E-05, 3.1559499448152739E-10, 1.8765000000000003E-11
DataValue, 2.1, 3, 0, 1.68384E-09, -1.67646E-09, 2.1052000000000002E-11, 1.68384E-09, 4.1034619530342914E-05, 2.7039217185182881E-10, 2.1052000000000002E-11
DataValue, 2.15, 3, 0, 1.74255E-09, -1.74478E-09, 2.8401000000000002E-11, 1.74255E-09, 4.1743861824225127E-05, 2.6051947669364867E-10, 2.8401000000000002E-11
DataValue, 2.2, 3, 0, 1.81891E-09, -1.82442E-09, 2.6642000000000002E-11, 1.81891E-09, 4.264868110504708E-05, 2.8014769758363834E-10, 2.6642000000000002E-11
