
SetupTitle, Transfer stab
PrimitiveTest, I/V Sweep
TestParameter, Context.MainFrame, 4155C
TestParameter, Channel.UnitType, SMU, SMU, SMU
TestParameter, Channel.Unit, SMU3:MP, SMU4:MP, SMU1:MP
TestParameter, Channel.IName, ID, IS, IG
TestParameter, Channel.VName, VD, VS, VG
TestParameter, Channel.Mode, V, COMMON, V
TestParameter, Channel.Func, CONST, CONST, VAR1
TestParameter, Channel.Index, 
TestParameter, Channel.Time, 
TestParameter, Measurement.Port.Unit, SMU3:MP, SMU4:MP, SMU1:MP
TestParameter, Measurement.Port.SeriesResistor, NONE, NONE, NONE
TestParameter, Measurement.Port.Filter, ON, ON, ON
TestParameter, Measurement.Primary.Locus, Single
TestParameter, Measurement.Primary.Scale, LINEAR
TestParameter, Measurement.Primary.Start, -2
TestParameter, Measurement.Primary.Stop, 3
TestParameter, Measurement.Primary.Step, 0.05
TestParameter, Measurement.Primary.Compliance, 0.1
TestParameter, Measurement.Primary.PowerCompliance, 0
TestParameter, Measurement.Aborting.Condition, CONTINUE AT ANY
TestParameter, Measurement.PostOutput.Value, START
TestParameter, Measurement.PostOutput.Retention, OFF
TestParameter, Measurement.Bias.Source, 3, 0, -2
TestParameter, Measurement.Bias.Compliance, 0.1, 0.1, 0.1
TestParameter, Measurement.Monitor.Unit, SMU3:MP, SMU4:MP, SMU1:MP
TestParameter, Measurement.Monitor.Adc, HR ADC, HR ADC, HR ADC
TestParameter, Measurement.Monitor.RangingMode, AUTO, AUTO, AUTO
TestParameter, Measurement.Monitor.RangeBoundary, , , 
TestParameter, Measurement.Monitor.RangeRating, BY FULL RANGE, BY FULL RANGE, BY FULL RANGE
TestParameter, Measurement.Monitor.RangeRatingCoeff, 50, 50, 50
TestParameter, Measurement.Timing.Hold, 0.5
TestParameter, Measurement.Timing.Delay, 0.05
TestParameter, Measurement.Adc.HighResolution.AutoZero, OFF
TestParameter, Measurement.Adc.HighResolution.Mode, AUTO
TestParameter, Measurement.Adc.HighResolution.Coeff, 1
TestParameter, Measurement.Ag16440ASelector.SemiconductorRelay.Channel1, DEFAULT
TestParameter, Measurement.Ag16440ASelector.SemiconductorRelay.Channel3, DEFAULT
TestParameter, Function.User.Name, absID, sqrtID, gm2, absIG
TestParameter, Function.User.Unit, A, A, A/V, A
TestParameter, Function.User.Definition, abs(ID), sqrt(abs(ID)), (delta(sqrtID)/delta(VG))^2, abs(IG)
TestParameter, Output.Graph.Enabled, true
TestParameter, Output.Graph.XAxis.Data, VG
TestParameter, Output.Graph.XAxis.Scale, Linear
TestParameter, Output.Graph.XAxis.Left, -5
TestParameter, Output.Graph.XAxis.Right, 7
TestParameter, Output.Graph.YAxis.Data, ID, absIG, gm2
TestParameter, Output.Graph.YAxis.Scale, Log, Log, Linear
TestParameter, Output.Graph.YAxis.Bottom, 1E-14, 1E-14, 0
TestParameter, Output.Graph.YAxis.Top, 0.01, 0.01, 1E-05
TestParameter, Output.Graph.YAxis.Group, , , 
TestParameter, Output.List.Data, VG, IG, VD, ID, VS, IS, sqrtID, gm2, absIG
TestParameter, AutoAnalysis.Interpolation, false
TestParameter, AutoAnalysis.Line1.Enabled, false
TestParameter, AutoAnalysis.Line1.Type, 1
TestParameter, AutoAnalysis.Line1.Fix, True
TestParameter, AutoAnalysis.Line1.YAxis, 0
TestParameter, AutoAnalysis.Line1.Point1.Type, 0
TestParameter, AutoAnalysis.Line1.Point1.XY.X, 
TestParameter, AutoAnalysis.Line1.Point1.XY.Y, 
TestParameter, AutoAnalysis.Line1.Point1.Data.Var, 
TestParameter, AutoAnalysis.Line1.Point1.Data.Condition, 
TestParameter, AutoAnalysis.Line1.Point1.Data.Start, false
TestParameter, AutoAnalysis.Line1.Point1.Data.StartVar, 
TestParameter, AutoAnalysis.Line1.Point1.Data.StartCondition, 
TestParameter, AutoAnalysis.Line1.Point2.Type, 0
TestParameter, AutoAnalysis.Line1.Point2.XY.X, 
TestParameter, AutoAnalysis.Line1.Point2.XY.Y, 
TestParameter, AutoAnalysis.Line1.Point2.Data.Var, 
TestParameter, AutoAnalysis.Line1.Point2.Data.Condition, 
TestParameter, AutoAnalysis.Line1.Point2.Data.Start, false
TestParameter, AutoAnalysis.Line1.Point2.Data.StartVar, 
TestParameter, AutoAnalysis.Line1.Point2.Data.StartCondition, 
TestParameter, AutoAnalysis.Line1.GradientExpr, 0
TestParameter, AutoAnalysis.Line2.Enabled, false
TestParameter, AutoAnalysis.Line2.Type, 1
TestParameter, AutoAnalysis.Line2.Fix, True
TestParameter, AutoAnalysis.Line2.YAxis, 0
TestParameter, AutoAnalysis.Line2.Point1.Type, 0
TestParameter, AutoAnalysis.Line2.Point1.XY.X, 
TestParameter, AutoAnalysis.Line2.Point1.XY.Y, 
TestParameter, AutoAnalysis.Line2.Point1.Data.Var, 
TestParameter, AutoAnalysis.Line2.Point1.Data.Condition, 
TestParameter, AutoAnalysis.Line2.Point1.Data.Start, false
TestParameter, AutoAnalysis.Line2.Point1.Data.StartVar, 
TestParameter, AutoAnalysis.Line2.Point1.Data.StartCondition, 
TestParameter, AutoAnalysis.Line2.Point2.Type, 0
TestParameter, AutoAnalysis.Line2.Point2.XY.X, 
TestParameter, AutoAnalysis.Line2.Point2.XY.Y, 
TestParameter, AutoAnalysis.Line2.Point2.Data.Var, 
TestParameter, AutoAnalysis.Line2.Point2.Data.Condition, 
TestParameter, AutoAnalysis.Line2.Point2.Data.Start, false
TestParameter, AutoAnalysis.Line2.Point2.Data.StartVar, 
TestParameter, AutoAnalysis.Line2.Point2.Data.StartCondition, 
TestParameter, AutoAnalysis.Line2.GradientExpr, 0
TestParameter, AutoAnalysis.Marker.Enabled, false
TestParameter, AutoAnalysis.Marker.Data.Var, 
TestParameter, AutoAnalysis.Marker.Data.Condition, 
TestParameter, AutoAnalysis.Marker.Data.Start, false
TestParameter, AutoAnalysis.Marker.Data.StartVar, 
TestParameter, AutoAnalysis.Marker.Data.StartCondition, 
MetaData, TestRecord.EntryPoint, true
MetaData, TestRecord.RecordTime, 06/18/2019 16:59:07
MetaData, TestRecord.TestTarget, 8-46
MetaData, TestRecord.IterationIndex, 2
MetaData, TestRecord.Preservation, true
MetaData, TestRecord.Flag, 
MetaData, TestRecord.Remarks, small7
MetaData, TestRecord.LinkKey, 542bc729-6706-46db-abe4-8551c0a6e860
Dimension1, 101, 101, 101, 101, 101, 101, 101, 101, 101, 101
Dimension2, 1, 1, 1, 1, 1, 1, 1, 1, 1, 1
DataName, VG, VD, VS, ID, IS, IG, absID, sqrtID, gm2, absIG
DataValue, -2, 3, 0, 4.7065E-11, 7.3349E-11, -1.2178000000000002E-10, 4.7065E-11, 6.8603935747156668E-06, 1.3929181342049778E-10, 1.2178000000000002E-10
DataValue, -1.9500000000000002, 3, 0, 5.5510000000000004E-11, 6.6996E-11, -2.05041E-10, 5.5510000000000004E-11, 7.4505033387013527E-06, 2.280553070090324E-10, 2.05041E-10
DataValue, -1.9000000000000001, 3, 0, 7.0066E-11, 6.0932000000000007E-11, -1.3119900000000001E-10, 7.0066E-11, 8.3705435904724848E-06, 7.2268685580206044E-10, 1.3119900000000001E-10
DataValue, -1.85, 3, 0, 1.02795E-10, 5.4650000000000006E-11, -1.6916300000000001E-10, 1.02795E-10, 1.0138786909685005E-05, 4.9913153764897449E-10, 1.6916300000000001E-10
DataValue, -1.8, 3, 0, 1.1245900000000001E-10, 4.9724000000000006E-11, -1.45785E-10, 1.1245900000000001E-10, 1.0604668783135097E-05, 7.15250744431605E-11, 1.45785E-10
DataValue, -1.75, 3, 0, 8.6361000000000008E-11, 4.4375E-11, -1.45074E-10, 8.6361000000000008E-11, 9.2930619281268118E-06, 1.7718384023929407E-10, 1.45074E-10
DataValue, -1.7000000000000002, 3, 0, 8.5999E-11, 4.0910000000000004E-11, -1.27193E-10, 8.5999E-11, 9.2735645789523679E-06, 5.1426634613349655E-14, 1.27193E-10
DataValue, -1.6500000000000001, 3, 0, 8.6783000000000009E-11, 3.6726000000000003E-11, -1.29972E-10, 8.6783000000000009E-11, 9.3157393694757272E-06, 8.2237115043180932E-12, 1.29972E-10
DataValue, -1.6, 3, 0, 9.14E-11, 3.2999E-11, -1.2124700000000002E-10, 9.14E-11, 9.5603347221736961E-06, 2.05180896360344E-13, 1.2124700000000002E-10
DataValue, -1.55, 3, 0, 8.7629E-11, 2.9335E-11, -1.18319E-10, 8.7629E-11, 9.3610362674225341E-06, 3.306895101229108E-12, 1.18319E-10
DataValue, -1.5, 3, 0, 8.7956E-11, 2.5973000000000002E-11, -1.14542E-10, 8.7956E-11, 9.3784860185426525E-06, 1.7777017815973236E-12, 1.14542E-10
DataValue, -1.4500000000000002, 3, 0, 9.0143000000000011E-11, 2.2446000000000002E-11, -2.35024E-10, 9.0143000000000011E-11, 9.4943667508686433E-06, 5.0609817688755988E-09, 2.35024E-10
DataValue, -1.4000000000000001, 3, 0, 2.72004E-10, 1.976E-11, -2.06915E-10, 2.72004E-10, 1.6492543769837328E-05, 9.14302816060013E-09, 2.06915E-10
DataValue, -1.35, 3, 0, 3.63142E-10, 1.7021000000000002E-11, -3.64083E-10, 3.63142E-10, 1.9056285052443985E-05, 6.1538310319620247E-10, 3.64083E-10
DataValue, -1.3, 3, 0, 1.9633200000000003E-10, 1.4746000000000002E-11, -3.02094E-10, 1.9633200000000003E-10, 1.4011852125968217E-05, 2.7933561081472044E-11, 3.02094E-10
DataValue, -1.25, 3, 0, 3.43278E-10, 1.2737000000000001E-11, -2.5745100000000003E-10, 3.43278E-10, 1.8527762951851474E-05, 6.6496863677763683E-10, 2.5745100000000003E-10
DataValue, -1.2, 3, 0, 1.3071700000000002E-10, 1.1014000000000001E-11, -1.1500100000000001E-10, 1.3071700000000002E-10, 1.1433153545719571E-05, 9.0342129423172979E-09, 1.1500100000000001E-10
DataValue, -1.1500000000000001, 3, 0, 8.1413E-11, 9.8680000000000012E-12, -1.3665100000000002E-10, 8.1413E-11, 9.0229152716846462E-06, 8.30867957448032E-13, 1.3665100000000002E-10
DataValue, -1.1, 3, 0, 1.2864100000000002E-10, 8.3420000000000014E-12, -1.24186E-10, 1.2864100000000002E-10, 1.134200158702158E-05, 1.5270523859499558E-10, 1.24186E-10
DataValue, -1.05, 3, 0, 1.0524E-10, 6.805E-12, -1.06768E-10, 1.0524E-10, 1.0258654882585729E-05, 2.5373274288086536E-10, 1.06768E-10
DataValue, -1, 3, 0, 9.5045E-11, 5.277E-12, -1.0090900000000001E-10, 9.5045E-11, 9.74910252279665E-06, 3.4693473878943223E-11, 1.0090900000000001E-10
DataValue, -0.95000000000000007, 3, 0, 9.3502E-11, 4.0580000000000007E-12, -1.0011500000000001E-10, 9.3502E-11, 9.669643219891829E-06, 5.3437975199340334E-13, 1.0011500000000001E-10
DataValue, -0.9, 3, 0, 9.3625000000000013E-11, 1.948E-12, -9.7894E-11, 9.3625000000000013E-11, 9.6760012401818144E-06, 1.6688569496735503E-14, 9.7894E-11
DataValue, -0.85000000000000009, 3, 0, 9.3752E-11, 2.1450000000000003E-12, -9.6696E-11, 9.3752E-11, 9.6825616445236235E-06, 1.2899228352449496E-12, 9.6696E-11
DataValue, -0.8, 3, 0, 9.1440000000000009E-11, 6.9000000000000009E-13, -9.3305000000000008E-11, 9.1440000000000009E-11, 9.5624264703055364E-06, 5.7066765834210804E-12, 9.3305000000000008E-11
DataValue, -0.75, 3, 0, 8.9183000000000009E-11, -7.3E-14, -9.0500000000000011E-11, 8.9183000000000009E-11, 9.4436751320659067E-06, 4.0043364260527415E-12, 9.0500000000000011E-11
DataValue, -0.70000000000000007, 3, 0, 8.7653E-11, -5.4700000000000009E-13, -9.2259E-11, 8.7653E-11, 9.3623180890204753E-06, 2.8904429000186253E-12, 9.2259E-11
DataValue, -0.65, 3, 0, 9.2423E-11, -9.63E-13, -8.9203000000000012E-11, 9.2423E-11, 9.6136881580379958E-06, 1.1926933947450904E-12, 8.9203000000000012E-11
DataValue, -0.6, 3, 0, 8.562000000000001E-11, -2.059E-12, -8.8320000000000011E-11, 8.562000000000001E-11, 9.25310758610317E-06, 1.0401160185748754E-11, 8.8320000000000011E-11
DataValue, -0.55, 3, 0, 9.8728000000000013E-11, -2.138E-12, -1.3518000000000002E-10, 9.8728000000000013E-11, 9.9361964553847268E-06, 3.5695822005745706E-10, 1.3518000000000002E-10
DataValue, -0.5, 3, 0, 1.2415400000000001E-10, -1.5700000000000002E-12, -1.1708E-10, 1.2415400000000001E-10, 1.1142441384185067E-05, 1.3460625453578759E-10, 1.1708E-10
DataValue, -0.45, 3, 0, 1.2313000000000002E-10, -2.477E-12, -1.29356E-10, 1.2313000000000002E-10, 1.1096395811253311E-05, 3.2719650332316066E-11, 1.29356E-10
DataValue, -0.4, 3, 0, 1.1173400000000001E-10, -4.354E-12, -1.05397E-10, 1.1173400000000001E-10, 1.0570430454811195E-05, 1.2178190031806964E-10, 1.05397E-10
DataValue, -0.35000000000000003, 3, 0, 9.9857E-11, -5.9300000000000008E-12, -1.08835E-10, 9.9857E-11, 9.9928474420457366E-06, 3.5434473349440651E-12, 1.08835E-10
DataValue, -0.3, 3, 0, 1.15749E-10, -1.1569000000000001E-11, -1.08627E-10, 1.15749E-10, 1.0758670921633398E-05, 2.2083334062244611E-10, 1.08627E-10
DataValue, -0.25, 3, 0, 1.31765E-10, -2.5103000000000002E-11, -1.06649E-10, 1.31765E-10, 1.1478893674914843E-05, 3.0336201601343579E-10, 1.06649E-10
DataValue, -0.2, 3, 0, 1.5626E-10, -5.1703000000000006E-11, -1.0351900000000001E-10, 1.5626E-10, 1.2500399993600205E-05, 8.1021839345195444E-10, 1.0351900000000001E-10
DataValue, -0.15, 3, 0, 2.0521500000000003E-10, -9.9080000000000008E-11, -1.02816E-10, 2.0521500000000003E-10, 1.4325327221393584E-05, 1.6239407048636215E-09, 1.02816E-10
DataValue, -0.1, 3, 0, 2.73248E-10, -1.6649400000000002E-10, -1.0284100000000001E-10, 2.73248E-10, 1.653021475964544E-05, 2.1159997463220879E-09, 1.0284100000000001E-10
DataValue, -0.05, 3, 0, 3.5816800000000005E-10, -2.36944E-10, -1.1884E-10, 3.5816800000000005E-10, 1.8925326945656714E-05, 1.5449627765486946E-09, 1.1884E-10
DataValue, 0, 3, 0, 4.1864500000000006E-10, -2.9602600000000003E-10, -1.0284500000000001E-10, 4.1864500000000006E-10, 2.0460816210503431E-05, 4.0421246644933191E-10, 1.0284500000000001E-10
DataValue, 0.05, 3, 0, 4.3830900000000005E-10, -3.3659800000000004E-10, -9.7803000000000014E-11, 4.3830900000000005E-10, 2.0935830530456632E-05, 8.8756023129365888E-11, 9.7803000000000014E-11
DataValue, 0.1, 3, 0, 4.5808500000000003E-10, -3.6188600000000005E-10, -8.8309000000000008E-11, 4.5808500000000003E-10, 2.1402920361483385E-05, 1.1831457643720474E-10, 8.8309000000000008E-11
DataValue, 0.15, 3, 0, 4.85037E-10, -3.8149400000000003E-10, -8.209900000000001E-11, 4.85037E-10, 2.2023555571251431E-05, 1.4274431188231456E-10, 8.209900000000001E-11
DataValue, 0.2, 3, 0, 5.10655E-10, -4.2602500000000004E-10, -7.6965E-11, 5.10655E-10, 2.259767687174945E-05, 1.1105702357641319E-10, 7.6965E-11
DataValue, 0.25, 3, 0, 5.32566E-10, -4.36877E-10, -7.4130000000000007E-11, 5.32566E-10, 2.3077391533706752E-05, 7.418525277941396E-11, 7.4130000000000007E-11
DataValue, 0.3, 3, 0, 5.5032400000000005E-10, -4.5415000000000003E-10, -7.0004E-11, 5.5032400000000005E-10, 2.3458985485310315E-05, 5.8890007960103019E-11, 7.0004E-11
DataValue, 0.35000000000000003, 3, 0, 5.6857400000000007E-10, -4.89861E-10, -6.3061000000000008E-11, 5.6857400000000007E-10, 2.3844789787288965E-05, 1.1504844706325455E-10, 6.3061000000000008E-11
DataValue, 0.4, 3, 0, 6.01799E-10, -5.14152E-10, -5.9673E-11, 6.01799E-10, 2.4531591876598632E-05, 6.33534552719769E-11, 5.9673E-11
DataValue, 0.45, 3, 0, 6.07166E-10, -5.31106E-10, -6.3197E-11, 6.07166E-10, 2.4640738625292871E-05, 5.6600919299324285E-11, 6.3197E-11
DataValue, 0.5, 3, 0, 6.3927700000000007E-10, -5.4492500000000006E-10, -5.6290000000000007E-11, 6.3927700000000007E-10, 2.5283927701209718E-05, 1.107284758243669E-10, 5.6290000000000007E-11
DataValue, 0.55, 3, 0, 6.6013100000000009E-10, -5.92708E-10, -5.2459000000000003E-11, 6.6013100000000009E-10, 2.5693014614871494E-05, 8.8699465720691483E-11, 5.2459000000000003E-11
DataValue, 0.6, 3, 0, 6.8778900000000005E-10, -6.3881800000000006E-10, -4.8767000000000003E-11, 6.8778900000000005E-10, 2.6225731638983878E-05, 1.2524895709227713E-10, 4.8767000000000003E-11
DataValue, 0.65, 3, 0, 7.1889200000000011E-10, -6.59753E-10, -4.439E-11, 7.1889200000000011E-10, 2.681216141977368E-05, 1.2832667519878643E-10, 4.439E-11
DataValue, 0.70000000000000007, 3, 0, 7.4849000000000007E-10, -7.17909E-10, -4.0739000000000004E-11, 7.4849000000000007E-10, 2.7358545282964152E-05, 1.143253272164642E-10, 4.0739000000000004E-11
DataValue, 0.75, 3, 0, 7.7737200000000009E-10, -7.37612E-10, -3.9168E-11, 7.7737200000000009E-10, 2.7881391643890376E-05, 1.4642787578485942E-10, 3.9168E-11
DataValue, 0.8, 3, 0, 8.1616600000000005E-10, -7.66217E-10, -3.5356000000000006E-11, 8.1616600000000005E-10, 2.8568619147589197E-05, 1.5417989832536533E-10, 3.5356000000000006E-11
DataValue, 0.85000000000000009, 3, 0, 8.48154E-10, -7.794100000000001E-10, -2.7382E-11, 8.48154E-10, 2.9123083627940228E-05, 8.6071877303964368E-12, 2.7382E-11
DataValue, 0.9, 3, 0, 8.33015E-10, -7.91478E-10, -2.4434000000000002E-11, 8.33015E-10, 2.8861999237752051E-05, 9.0416365910772588E-11, 2.4434000000000002E-11
DataValue, 0.95000000000000007, 3, 0, 9.0444300000000006E-10, -8.4449E-10, -2.5038E-11, 9.0444300000000006E-10, 3.0073958834845806E-05, 2.4863241911457044E-10, 2.5038E-11
DataValue, 1, 3, 0, 9.26521E-10, -8.5384400000000006E-10, -2.1419000000000003E-11, 9.26521E-10, 3.04388074667849E-05, 1.8938174515156623E-10, 2.1419000000000003E-11
DataValue, 1.05, 3, 0, 9.8911E-10, -9.093780000000001E-10, -2.0579000000000003E-11, 9.8911E-10, 3.1450119236657913E-05, 2.021590740448785E-10, 2.0579000000000003E-11
DataValue, 1.1, 3, 0, 1.0151E-09, -9.9204E-10, -1.3503000000000002E-11, 1.0151E-09, 3.1860634017545851E-05, 2.6468428804804969E-10, 1.3503000000000002E-11
DataValue, 1.1500000000000001, 3, 0, 1.09409E-09, -1.08198E-09, -1.5853000000000002E-11, 1.09409E-09, 3.3077031305726337E-05, 5.7767505234065032E-10, 1.5853000000000002E-11
DataValue, 1.2, 3, 0, 1.17403E-09, -1.15016E-09, -1.3684E-11, 1.17403E-09, 3.4264121176531E-05, 4.2811426804696963E-10, 1.3684E-11
DataValue, 1.25, 3, 0, 1.23525E-09, -1.1816199999999999E-09, -7.9570000000000009E-12, 1.23525E-09, 3.5146123541579946E-05, 6.1200330673384066E-10, 7.9570000000000009E-12
DataValue, 1.3, 3, 0, 1.34968E-09, -1.27724E-09, -4.756E-12, 1.34968E-09, 3.6737991235232225E-05, 3.2939964927892708E-10, 4.756E-12
DataValue, 1.35, 3, 0, 1.36612E-09, -1.35122E-09, -5.1700000000000008E-12, 1.36612E-09, 3.6961060590843439E-05, 3.55198291727723E-10, 5.1700000000000008E-12
DataValue, 1.4000000000000001, 3, 0, 1.49171E-09, -1.45009E-09, -4.6810000000000008E-12, 1.49171E-09, 3.862266174152165E-05, 7.5979716628259812E-10, 4.6810000000000008E-12
DataValue, 1.4500000000000002, 3, 0, 1.57748E-09, -1.57317E-09, -2.322E-12, 1.57748E-09, 3.971750243910108E-05, 3.6553288016703686E-10, 2.322E-12
DataValue, 1.5, 3, 0, 1.64305E-09, -1.62765E-09, 1.6790000000000002E-12, 1.64305E-09, 4.053455316146954E-05, 4.83805771181802E-10, 1.6790000000000002E-12
DataValue, 1.55, 3, 0, 1.75704E-09, -1.68217E-09, 3.576E-12, 1.75704E-09, 4.191706096567363E-05, 5.0636575888601E-10, 3.576E-12
DataValue, 1.6, 3, 0, 1.83054E-09, -1.77742E-09, 3.757E-12, 1.83054E-09, 4.2784810388734927E-05, 3.0336222525505759E-10, 3.757E-12
DataValue, 1.6500000000000001, 3, 0, 1.90609E-09, -1.86606E-09, 4.7240000000000005E-12, 1.90609E-09, 4.3658790638312464E-05, 5.1682303323120842E-10, 4.7240000000000005E-12
DataValue, 1.7000000000000002, 3, 0, 2.03024E-09, -2.01357E-09, 5.9700000000000006E-12, 2.03024E-09, 4.5058184606128996E-05, 6.9754164476771242E-10, 5.9700000000000006E-12
DataValue, 1.75, 3, 0, 2.14368E-09, -2.14832E-09, 9.008E-12, 2.14368E-09, 4.6299892008513371E-05, 7.8396586904234554E-10, 9.008E-12
DataValue, 1.8, 3, 0, 2.2904E-09, -2.22909E-09, 9.814E-12, 2.2904E-09, 4.7858123657326974E-05, 6.80529583456199E-10, 9.814E-12
DataValue, 1.85, 3, 0, 2.39205E-09, -2.3569E-09, 1.0279E-11, 2.39205E-09, 4.8908588202891322E-05, 5.5630251998468381E-10, 1.0279E-11
DataValue, 1.9000000000000001, 3, 0, 2.52172E-09, -2.4561E-09, 1.2012000000000002E-11, 2.52172E-09, 5.0216730279857922E-05, 1.4515027185363017E-10, 1.2012000000000002E-11
DataValue, 1.9500000000000002, 3, 0, 2.51135E-09, -2.62444E-09, 1.5042E-11, 2.51135E-09, 5.0113371469099939E-05, 7.4463918771057079E-10, 1.5042E-11
DataValue, 2, 3, 0, 2.80323E-09, -2.70465E-09, 1.6449E-11, 2.80323E-09, 5.2945538055628449E-05, 1.878624179411135E-09, 1.6449E-11
DataValue, 2.05, 3, 0, 2.96455E-09, -3.00913E-09, 1.5514000000000002E-11, 2.96455E-09, 5.4447681309675623E-05, 8.9371913658815965E-10, 1.5514000000000002E-11
DataValue, 2.1, 3, 0, 3.12873E-09, -3.07596E-09, 1.6864000000000002E-11, 3.12873E-09, 5.5935051622395058E-05, 5.6257083950248247E-10, 1.6864000000000002E-11
DataValue, 2.15, 3, 0, 3.22846E-09, -3.13407E-09, 1.8877E-11, 3.22846E-09, 5.681953889288437E-05, 5.2442322904908842E-10, 1.8877E-11
DataValue, 2.2, 3, 0, 3.39016E-09, -3.4189E-09, 2.2104000000000002E-11, 3.39016E-09, 5.8225080506599555E-05, 6.4745182402532133E-10, 2.2104000000000002E-11
DataValue, 2.25, 3, 0, 3.52409E-09, -3.53785E-09, 2.2124000000000002E-11, 3.52409E-09, 5.9364046358044027E-05, 1.3187994679040434E-09, 2.2124000000000002E-11
