
SetupTitle, Transfer stab
PrimitiveTest, I/V Sweep
TestParameter, Context.MainFrame, 4155C
TestParameter, Channel.UnitType, SMU, SMU, SMU
TestParameter, Channel.Unit, SMU3:MP, SMU4:MP, SMU1:MP
TestParameter, Channel.IName, ID, IS, IG
TestParameter, Channel.VName, VD, VS, VG
TestParameter, Channel.Mode, V, COMMON, V
TestParameter, Channel.Func, CONST, CONST, VAR1
TestParameter, Channel.Index, 
TestParameter, Channel.Time, 
TestParameter, Measurement.Port.Unit, SMU3:MP, SMU4:MP, SMU1:MP
TestParameter, Measurement.Port.SeriesResistor, NONE, NONE, NONE
TestParameter, Measurement.Port.Filter, ON, ON, ON
TestParameter, Measurement.Primary.Locus, Single
TestParameter, Measurement.Primary.Scale, LINEAR
TestParameter, Measurement.Primary.Start, -2
TestParameter, Measurement.Primary.Stop, 3
TestParameter, Measurement.Primary.Step, 0.05
TestParameter, Measurement.Primary.Compliance, 0.1
TestParameter, Measurement.Primary.PowerCompliance, 0
TestParameter, Measurement.Aborting.Condition, CONTINUE AT ANY
TestParameter, Measurement.PostOutput.Value, START
TestParameter, Measurement.PostOutput.Retention, OFF
TestParameter, Measurement.Bias.Source, 3, 0, -2
TestParameter, Measurement.Bias.Compliance, 0.1, 0.1, 0.1
TestParameter, Measurement.Monitor.Unit, SMU3:MP, SMU4:MP, SMU1:MP
TestParameter, Measurement.Monitor.Adc, HR ADC, HR ADC, HR ADC
TestParameter, Measurement.Monitor.RangingMode, AUTO, AUTO, AUTO
TestParameter, Measurement.Monitor.RangeBoundary, , , 
TestParameter, Measurement.Monitor.RangeRating, BY FULL RANGE, BY FULL RANGE, BY FULL RANGE
TestParameter, Measurement.Monitor.RangeRatingCoeff, 50, 50, 50
TestParameter, Measurement.Timing.Hold, 0.5
TestParameter, Measurement.Timing.Delay, 0.05
TestParameter, Measurement.Adc.HighResolution.AutoZero, OFF
TestParameter, Measurement.Adc.HighResolution.Mode, AUTO
TestParameter, Measurement.Adc.HighResolution.Coeff, 1
TestParameter, Measurement.Ag16440ASelector.SemiconductorRelay.Channel1, DEFAULT
TestParameter, Measurement.Ag16440ASelector.SemiconductorRelay.Channel3, DEFAULT
TestParameter, Function.User.Name, absID, sqrtID, gm2, absIG
TestParameter, Function.User.Unit, A, A, A/V, A
TestParameter, Function.User.Definition, abs(ID), sqrt(abs(ID)), (delta(sqrtID)/delta(VG))^2, abs(IG)
TestParameter, Output.Graph.Enabled, true
TestParameter, Output.Graph.XAxis.Data, VG
TestParameter, Output.Graph.XAxis.Scale, Linear
TestParameter, Output.Graph.XAxis.Left, -5
TestParameter, Output.Graph.XAxis.Right, 7
TestParameter, Output.Graph.YAxis.Data, ID, absIG, gm2
TestParameter, Output.Graph.YAxis.Scale, Log, Log, Linear
TestParameter, Output.Graph.YAxis.Bottom, 1E-14, 1E-14, 0
TestParameter, Output.Graph.YAxis.Top, 0.01, 0.01, 1E-05
TestParameter, Output.Graph.YAxis.Group, , , 
TestParameter, Output.List.Data, VG, IG, VD, ID, VS, IS, sqrtID, gm2, absIG
TestParameter, AutoAnalysis.Interpolation, false
TestParameter, AutoAnalysis.Line1.Enabled, false
TestParameter, AutoAnalysis.Line1.Type, 1
TestParameter, AutoAnalysis.Line1.Fix, True
TestParameter, AutoAnalysis.Line1.YAxis, 0
TestParameter, AutoAnalysis.Line1.Point1.Type, 0
TestParameter, AutoAnalysis.Line1.Point1.XY.X, 
TestParameter, AutoAnalysis.Line1.Point1.XY.Y, 
TestParameter, AutoAnalysis.Line1.Point1.Data.Var, 
TestParameter, AutoAnalysis.Line1.Point1.Data.Condition, 
TestParameter, AutoAnalysis.Line1.Point1.Data.Start, false
TestParameter, AutoAnalysis.Line1.Point1.Data.StartVar, 
TestParameter, AutoAnalysis.Line1.Point1.Data.StartCondition, 
TestParameter, AutoAnalysis.Line1.Point2.Type, 0
TestParameter, AutoAnalysis.Line1.Point2.XY.X, 
TestParameter, AutoAnalysis.Line1.Point2.XY.Y, 
TestParameter, AutoAnalysis.Line1.Point2.Data.Var, 
TestParameter, AutoAnalysis.Line1.Point2.Data.Condition, 
TestParameter, AutoAnalysis.Line1.Point2.Data.Start, false
TestParameter, AutoAnalysis.Line1.Point2.Data.StartVar, 
TestParameter, AutoAnalysis.Line1.Point2.Data.StartCondition, 
TestParameter, AutoAnalysis.Line1.GradientExpr, 0
TestParameter, AutoAnalysis.Line2.Enabled, false
TestParameter, AutoAnalysis.Line2.Type, 1
TestParameter, AutoAnalysis.Line2.Fix, True
TestParameter, AutoAnalysis.Line2.YAxis, 0
TestParameter, AutoAnalysis.Line2.Point1.Type, 0
TestParameter, AutoAnalysis.Line2.Point1.XY.X, 
TestParameter, AutoAnalysis.Line2.Point1.XY.Y, 
TestParameter, AutoAnalysis.Line2.Point1.Data.Var, 
TestParameter, AutoAnalysis.Line2.Point1.Data.Condition, 
TestParameter, AutoAnalysis.Line2.Point1.Data.Start, false
TestParameter, AutoAnalysis.Line2.Point1.Data.StartVar, 
TestParameter, AutoAnalysis.Line2.Point1.Data.StartCondition, 
TestParameter, AutoAnalysis.Line2.Point2.Type, 0
TestParameter, AutoAnalysis.Line2.Point2.XY.X, 
TestParameter, AutoAnalysis.Line2.Point2.XY.Y, 
TestParameter, AutoAnalysis.Line2.Point2.Data.Var, 
TestParameter, AutoAnalysis.Line2.Point2.Data.Condition, 
TestParameter, AutoAnalysis.Line2.Point2.Data.Start, false
TestParameter, AutoAnalysis.Line2.Point2.Data.StartVar, 
TestParameter, AutoAnalysis.Line2.Point2.Data.StartCondition, 
TestParameter, AutoAnalysis.Line2.GradientExpr, 0
TestParameter, AutoAnalysis.Marker.Enabled, false
TestParameter, AutoAnalysis.Marker.Data.Var, 
TestParameter, AutoAnalysis.Marker.Data.Condition, 
TestParameter, AutoAnalysis.Marker.Data.Start, false
TestParameter, AutoAnalysis.Marker.Data.StartVar, 
TestParameter, AutoAnalysis.Marker.Data.StartCondition, 
MetaData, TestRecord.EntryPoint, true
MetaData, TestRecord.RecordTime, 06/18/2019 16:57:25
MetaData, TestRecord.TestTarget, 8-16
MetaData, TestRecord.IterationIndex, 1
MetaData, TestRecord.Preservation, true
MetaData, TestRecord.Flag, 
MetaData, TestRecord.Remarks, small
MetaData, TestRecord.LinkKey, 794cb96f-6b29-4375-b3ae-695ab9ac7004
Dimension1, 101, 101, 101, 101, 101, 101, 101, 101, 101, 101
Dimension2, 1, 1, 1, 1, 1, 1, 1, 1, 1, 1
DataName, VG, VD, VS, ID, IS, IG, absID, sqrtID, gm2, absIG
DataValue, -2, 3, 0, 3.5176E-11, -1.3000000000000001E-14, -4.1574E-11, 3.5176E-11, 5.9309358452102647E-06, 2.4710776794017715E-10, 4.1574E-11
DataValue, -1.9500000000000002, 3, 0, 4.5117E-11, 2.11E-13, -4.4347E-11, 4.5117E-11, 6.7169189365363049E-06, 9.1353551405787681E-11, 4.4347E-11
DataValue, -1.9000000000000001, 3, 0, 4.7427000000000005E-11, 1.9620000000000003E-12, -5.5115E-11, 4.7427000000000005E-11, 6.8867263630842777E-06, 3.4110261016786643E-11, 5.5115E-11
DataValue, -1.85, 3, 0, 5.3304E-11, -4.4000000000000004E-13, -7.0404E-11, 5.3304E-11, 7.3009588411386078E-06, 5.142158723138355E-11, 7.0404E-11
DataValue, -1.8, 3, 0, 5.7818E-11, -9.1600000000000014E-13, -6.9142000000000011E-11, 5.7818E-11, 7.60381483204319E-06, 6.2571961939109121E-10, 6.9142000000000011E-11
DataValue, -1.75, 3, 0, 9.6087E-11, 9.74E-13, -9.0062E-11, 9.6087E-11, 9.8023976658774667E-06, 9.7818237728621915E-11, 9.0062E-11
DataValue, -1.7000000000000002, 3, 0, 7.3837E-11, 1.9530000000000003E-12, -7.4684E-11, 7.3837E-11, 8.59284586152923E-06, 1.9071509388939583E-10, 7.4684E-11
DataValue, -1.6500000000000001, 3, 0, 7.092E-11, -4.898E-12, -7.4184E-11, 7.092E-11, 8.42140130857092E-06, 2.1271835501068E-11, 7.4184E-11
DataValue, -1.6, 3, 0, 8.1976E-11, 5.44E-12, -6.4988000000000009E-11, 8.1976E-11, 9.05405986284606E-06, 2.9305738802205545E-12, 6.4988000000000009E-11
DataValue, -1.55, 3, 0, 6.8066000000000008E-11, 2.2330000000000003E-12, -6.7843000000000008E-11, 6.8066000000000008E-11, 8.2502121184851969E-06, 1.1591844161336627E-10, 6.7843000000000008E-11
DataValue, -1.5, 3, 0, 6.3639E-11, -4.6900000000000004E-12, -6.9337E-11, 6.3639E-11, 7.9774055932991148E-06, 2.2078686119271767E-11, 6.9337E-11
DataValue, -1.4500000000000002, 3, 0, 7.604E-11, 6.542E-12, -6.8274000000000009E-11, 7.604E-11, 8.7200917426366567E-06, 1.8151526099187743E-11, 6.8274000000000009E-11
DataValue, -1.4000000000000001, 3, 0, 7.0618E-11, 6.0640000000000008E-12, -7.0111E-11, 7.0618E-11, 8.403451671783446E-06, 4.0537878262402451E-15, 7.0111E-11
DataValue, -1.35, 3, 0, 7.5929000000000007E-11, -2.6040000000000002E-12, -7.4745000000000009E-11, 7.5929000000000007E-11, 8.7137248063041336E-06, 1.060028314345231E-12, 7.4745000000000009E-11
DataValue, -1.3, 3, 0, 7.2359E-11, -1.523E-12, -6.9339000000000007E-11, 7.2359E-11, 8.5064093482502949E-06, 3.3516157701787732E-12, 6.9339000000000007E-11
DataValue, -1.25, 3, 0, 7.2772E-11, -3.6160000000000003E-12, -8.221200000000001E-11, 7.2772E-11, 8.53065061997032E-06, 1.2630510626429975E-10, 8.221200000000001E-11
DataValue, -1.2, 3, 0, 9.2742000000000012E-11, 1.065E-12, -1.0015600000000001E-10, 9.2742000000000012E-11, 9.6302647938673012E-06, 4.8252756064188014E-10, 1.0015600000000001E-10
DataValue, -1.1500000000000001, 3, 0, 1.1507500000000001E-10, 5.898E-12, -1.1489E-10, 1.1507500000000001E-10, 1.0727301617834748E-05, 4.8922977958141337E-11, 1.1489E-10
DataValue, -1.1, 3, 0, 1.06703E-10, -1.7750000000000002E-12, -1.0843500000000001E-10, 1.06703E-10, 1.0329714420060219E-05, 3.4791867630661339E-11, 1.0843500000000001E-10
DataValue, -1.05, 3, 0, 1.02768E-10, 3.925E-12, -1.0282300000000001E-10, 1.02768E-10, 1.0137455301997637E-05, 5.7374997866702837E-11, 1.0282300000000001E-10
DataValue, -1, 3, 0, 9.1628000000000007E-11, 1.826E-12, -9.8342000000000011E-11, 9.1628000000000007E-11, 9.572251563764922E-06, 7.2376597708489158E-11, 9.8342000000000011E-11
DataValue, -0.95000000000000007, 3, 0, 8.6243E-11, -1.715E-12, -8.886E-11, 8.6243E-11, 9.2867109355250214E-06, 2.0491259061067778E-12, 8.886E-11
DataValue, -0.9, 3, 0, 8.8908E-11, 1.0410000000000001E-12, -8.2238E-11, 8.8908E-11, 9.429103881069505E-06, 2.338558934973055E-11, 8.2238E-11
DataValue, -0.85000000000000009, 3, 0, 7.7495E-11, 1.293E-12, -8.5570000000000008E-11, 7.7495E-11, 8.8031244453318964E-06, 2.2743117698984543E-11, 8.5570000000000008E-11
DataValue, -0.8, 3, 0, 8.0142000000000011E-11, 1.951E-12, -7.2389E-11, 8.0142000000000011E-11, 8.9522064319362083E-06, 1.2795750948875942E-11, 7.2389E-11
DataValue, -0.75, 3, 0, 7.132500000000001E-11, -3.112E-12, -7.0776E-11, 7.132500000000001E-11, 8.44541295615555E-06, 1.5079926120711492E-11, 7.0776E-11
DataValue, -0.70000000000000007, 3, 0, 7.334E-11, -8.93E-13, -7.8532E-11, 7.334E-11, 8.5638776264026568E-06, 2.0392335310525409E-14, 7.8532E-11
DataValue, -0.65, 3, 0, 7.108400000000001E-11, 7.76E-13, -7.1372E-11, 7.108400000000001E-11, 8.4311327827285476E-06, 2.04000921234457E-11, 7.1372E-11
DataValue, -0.6, 3, 0, 6.5808E-11, 2.12E-13, -6.5519E-11, 6.5808E-11, 8.1122130149546739E-06, 2.6764827239783275E-11, 6.5519E-11
DataValue, -0.55, 3, 0, 6.2628E-11, 7.9100000000000006E-13, -6.257300000000001E-11, 6.2628E-11, 7.9137854406093166E-06, 1.2276848057111128E-11, 6.257300000000001E-11
DataValue, -0.5, 3, 0, 6.0246E-11, 1.6560000000000002E-12, -6.4234E-11, 6.0246E-11, 7.7618296812027513E-06, 3.668942309390141E-12, 6.4234E-11
DataValue, -0.45, 3, 0, 5.9633E-11, -1.5950000000000002E-12, -5.9167E-11, 5.9633E-11, 7.7222406074921024E-06, 2.8528244148195459E-13, 5.9167E-11
DataValue, -0.4, 3, 0, 6.1078E-11, -1.414E-12, -6.2483E-11, 6.1078E-11, 7.8152415189807153E-06, 4.4254145458669769E-13, 6.2483E-11
DataValue, -0.35000000000000003, 3, 0, 5.861E-11, 5.348E-12, -5.765E-11, 5.861E-11, 7.6557168181692821E-06, 1.914103963319913E-11, 5.765E-11
DataValue, -0.3, 3, 0, 5.4431E-11, -3.8300000000000004E-12, -5.2518000000000005E-11, 5.4431E-11, 7.3777367803412447E-06, 1.2987074545087206E-11, 5.2518000000000005E-11
DataValue, -0.25, 3, 0, 5.3222E-11, -6.7490000000000004E-12, -4.6921000000000007E-11, 5.3222E-11, 7.2953409790084525E-06, 5.7542394795970619E-12, 4.6921000000000007E-11
DataValue, -0.2, 3, 0, 5.0949000000000007E-11, -8.6420000000000013E-12, -4.4730000000000003E-11, 5.0949000000000007E-11, 7.1378568212034072E-06, 3.1307395646669377E-11, 4.4730000000000003E-11
DataValue, -0.15, 3, 0, 6.1699000000000008E-11, -1.8709E-11, -4.3109000000000005E-11, 6.1699000000000008E-11, 7.8548711001518041E-06, 3.4153872325205937E-10, 4.3109000000000005E-11
DataValue, -0.1, 3, 0, 8.0747E-11, -3.7528E-11, -3.9749E-11, 8.0747E-11, 8.9859334517900811E-06, 4.3959892155361415E-10, 3.9749E-11
DataValue, -0.05, 3, 0, 9.9033E-11, -5.9113E-11, -3.8829E-11, 9.9033E-11, 9.9515325452917056E-06, 3.0817160867801677E-10, 3.8829E-11
DataValue, 0, 3, 0, 1.1537800000000002E-10, -7.6133E-11, -3.7586E-11, 1.1537800000000002E-10, 1.0741415176781876E-05, 1.2822724793617626E-10, 3.7586E-11
DataValue, 0.05, 3, 0, 1.2285300000000002E-10, -8.7617E-11, -3.2415000000000005E-11, 1.2285300000000002E-10, 1.1083907253310991E-05, 8.55288607801516E-11, 3.2415000000000005E-11
DataValue, 0.1, 3, 0, 1.36101E-10, -9.824E-11, -3.2775000000000004E-11, 1.36101E-10, 1.1666233325285416E-05, 3.9444987501855995E-11, 3.2775000000000004E-11
DataValue, 0.15, 3, 0, 1.3717E-10, -1.0061400000000001E-10, -3.0217E-11, 1.3717E-10, 1.1711959699384215E-05, 1.42741035359182E-11, 3.0217E-11
DataValue, 0.2, 3, 0, 1.45059E-10, -1.1128900000000002E-10, -2.8960000000000003E-11, 1.45059E-10, 1.2044044171290639E-05, 4.0706959400736944E-11, 2.8960000000000003E-11
DataValue, 0.25, 3, 0, 1.5252200000000002E-10, -1.18476E-10, -2.631E-11, 1.5252200000000002E-10, 1.2349979757068431E-05, 2.9945262150489023E-11, 2.631E-11
DataValue, 0.3, 3, 0, 1.5854E-10, -1.2214500000000002E-10, -2.5198000000000003E-11, 1.5854E-10, 1.2591266814741081E-05, 9.4804357343660089E-12, 2.5198000000000003E-11
DataValue, 0.35000000000000003, 3, 0, 1.60222E-10, -1.36618E-10, -2.2929000000000003E-11, 1.60222E-10, 1.2657882919351088E-05, 8.2552819326843514E-12, 2.2929000000000003E-11
DataValue, 0.4, 3, 0, 1.6585800000000002E-10, -1.4278500000000001E-10, -2.1308E-11, 1.6585800000000002E-10, 1.2878586879001904E-05, 1.9726018437160234E-11, 2.1308E-11
DataValue, 0.45, 3, 0, 1.71663E-10, -1.41696E-10, -1.9284000000000002E-11, 1.71663E-10, 1.31020227445994E-05, 3.6525743999314061E-11, 1.9284000000000002E-11
DataValue, 0.5, 3, 0, 1.8179000000000003E-10, -1.5924100000000002E-10, -1.9087000000000002E-11, 1.8179000000000003E-10, 1.3482952198980757E-05, 6.1971169994438474E-11, 1.9087000000000002E-11
DataValue, 0.55, 3, 0, 1.9291100000000002E-10, -1.64886E-10, -1.7149E-11, 1.9291100000000002E-10, 1.3889240439995271E-05, 2.4982295035690385E-11, 1.7149E-11
DataValue, 0.6, 3, 0, 1.9551800000000002E-10, -1.78123E-10, -1.6023E-11, 1.9551800000000002E-10, 1.398277511797998E-05, 9.8440444512304185E-12, 1.6023E-11
DataValue, 0.65, 3, 0, 2.0172500000000002E-10, -1.80504E-10, -1.362E-11, 2.0172500000000002E-10, 1.4202992642397588E-05, 4.7777883651290841E-11, 1.362E-11
DataValue, 0.70000000000000007, 3, 0, 2.15326E-10, -1.9567800000000003E-10, -1.2563000000000001E-11, 2.15326E-10, 1.4673990595608273E-05, 6.6622876181608141E-11, 1.2563000000000001E-11
DataValue, 0.75, 3, 0, 2.25577E-10, -2.03022E-10, -1.2173000000000002E-11, 2.25577E-10, 1.5019221018415036E-05, 2.2191128563218036E-11, 1.2173000000000002E-11
DataValue, 0.8, 3, 0, 2.29373E-10, -2.11399E-10, -1.1608000000000001E-11, 2.29373E-10, 1.5145065202896948E-05, 6.0500325215221269E-12, 1.1608000000000001E-11
DataValue, 0.85000000000000009, 3, 0, 2.3302600000000004E-10, -2.1454100000000003E-10, -9.0260000000000013E-12, 2.3302600000000004E-10, 1.5265189157033072E-05, 3.4883991140580066E-11, 9.0260000000000013E-12
DataValue, 0.9, 3, 0, 2.47612E-10, -2.3300700000000003E-10, -7.937E-12, 2.47612E-10, 1.5735691913608376E-05, 5.5925986539498948E-11, 7.937E-12
DataValue, 0.95000000000000007, 3, 0, 2.56417E-10, -2.44195E-10, -6.1010000000000008E-12, 2.56417E-10, 1.6013025947646498E-05, 1.0886881961527375E-10, 6.1010000000000008E-12
DataValue, 1, 3, 0, 2.8153800000000003E-10, -2.5737200000000003E-10, -7.118E-12, 2.8153800000000003E-10, 1.6779094135262488E-05, 9.5827128373034355E-11, 7.118E-12
DataValue, 1.05, 3, 0, 2.88726E-10, -2.80012E-10, -5.264E-12, 2.88726E-10, 1.6991939265428181E-05, 5.2131304643405587E-11, 5.264E-12
DataValue, 1.1, 3, 0, 3.0628900000000003E-10, -2.8842700000000003E-10, -6.3940000000000004E-12, 3.0628900000000003E-10, 1.7501114250241328E-05, 6.1686237779709313E-11, 6.3940000000000004E-12
DataValue, 1.1500000000000001, 3, 0, 3.1603400000000003E-10, -2.9344900000000005E-10, -4.678E-12, 3.1603400000000003E-10, 1.7777345133624424E-05, 4.3193440972549485E-11, 4.678E-12
DataValue, 1.2, 3, 0, 3.29725E-10, -3.1261800000000004E-10, -4.806E-12, 3.29725E-10, 1.8158331421141095E-05, 6.1954238917890615E-11, 4.806E-12
DataValue, 1.25, 3, 0, 3.44639E-10, -3.2979400000000004E-10, -3.384E-12, 3.44639E-10, 1.8564455284225282E-05, 6.970650513026995E-11, 3.384E-12
DataValue, 1.3, 3, 0, 3.60743E-10, -3.4289700000000005E-10, -3.1E-12, 3.60743E-10, 1.8993235637984381E-05, 9.5956117855528039E-11, 3.1E-12
DataValue, 1.35, 3, 0, 3.81969E-10, -3.6429700000000005E-10, -2.294E-12, 3.81969E-10, 1.9544027220611417E-05, 5.9565049228769477E-11, 2.294E-12
DataValue, 1.4000000000000001, 3, 0, 3.9065600000000004E-10, -3.7786100000000004E-10, -1.7680000000000001E-12, 3.9065600000000004E-10, 1.9765019605353292E-05, 1.0255103508432002E-10, 1.7680000000000001E-12
DataValue, 1.4500000000000002, 3, 0, 4.2257800000000004E-10, -4.18617E-10, -1.5700000000000002E-12, 4.2257800000000004E-10, 2.0556702070127885E-05, 1.5435176345264365E-10, 1.5700000000000002E-12
DataValue, 1.5, 3, 0, 4.4131100000000006E-10, -4.2171200000000005E-10, -1.4150000000000001E-12, 4.4131100000000006E-10, 2.1007403456876819E-05, 9.6652790967612634E-11, 1.4150000000000001E-12
DataValue, 1.55, 3, 0, 4.6396400000000005E-10, -4.5020000000000006E-10, -1.3280000000000002E-12, 4.6396400000000005E-10, 2.153982358330727E-05, 1.0370914952244662E-10, 1.3280000000000002E-12
DataValue, 1.6, 3, 0, 4.85135E-10, -4.7219800000000007E-10, -8.3600000000000007E-13, 4.85135E-10, 2.2025780349399655E-05, 9.7378431258766184E-11, 8.3600000000000007E-13
DataValue, 1.6500000000000001, 3, 0, 5.07449E-10, -4.83087E-10, -3.0100000000000003E-13, 5.07449E-10, 2.2526628686956245E-05, 1.9684240511492941E-10, 3.0100000000000003E-13
DataValue, 1.7000000000000002, 3, 0, 5.48908E-10, -5.1298800000000009E-10, -5.3E-14, 5.48908E-10, 2.3428785713305758E-05, 1.1734135125114965E-10, 5.3E-14
DataValue, 1.75, 3, 0, 5.5742600000000008E-10, -5.4779E-10, 5.1E-13, 5.5742600000000008E-10, 2.3609870817096821E-05, 1.278906096827989E-11, 5.1E-13
DataValue, 1.8, 3, 0, 5.657930000000001E-10, -5.43464E-10, 6.410000000000001E-13, 5.657930000000001E-10, 2.3786403679413165E-05, 2.9852084609121411E-11, 6.410000000000001E-13
DataValue, 1.85, 3, 0, 5.83524E-10, -5.80793E-10, 8.770000000000001E-13, 5.83524E-10, 2.4156241429493951E-05, 7.5322612320297245E-11, 8.770000000000001E-13
DataValue, 1.9000000000000001, 3, 0, 6.078340000000001E-10, -6.16816E-10, 1.3110000000000002E-12, 6.078340000000001E-10, 2.4654289687597981E-05, 1.7770757739667306E-10, 1.3110000000000002E-12
DataValue, 1.9500000000000002, 3, 0, 6.4970500000000008E-10, -6.3600100000000009E-10, 1.3980000000000001E-12, 6.4970500000000008E-10, 2.5489311485405017E-05, 2.2307761212746164E-10, 1.3980000000000001E-12
DataValue, 2, 3, 0, 6.83711E-10, -6.7731600000000006E-10, 2.1990000000000002E-12, 6.83711E-10, 2.6147867981921586E-05, 2.0580766445395916E-10, 2.1990000000000002E-12
DataValue, 2.05, 3, 0, 7.24897E-10, -7.1292100000000007E-10, 3.8560000000000005E-12, 7.24897E-10, 2.6923911305751994E-05, 2.0599218737347575E-10, 3.8560000000000005E-12
DataValue, 2.1, 3, 0, 7.60828E-10, -7.398390000000001E-10, 4.452E-12, 7.60828E-10, 2.7583110774530126E-05, 1.2178782287444124E-10, 4.452E-12
DataValue, 2.15, 3, 0, 7.8554000000000006E-10, -7.6564100000000007E-10, 5.5020000000000006E-12, 7.8554000000000006E-10, 2.8027486508782768E-05, 6.5408344910940311E-11, 5.5020000000000006E-12
DataValue, 2.2, 3, 0, 8.06098E-10, -8.0257400000000009E-10, 6.5590000000000006E-12, 8.06098E-10, 2.8391865032082694E-05, 1.5033076459193191E-10, 6.5590000000000006E-12
