
SetupTitle, Transfer stab
PrimitiveTest, I/V Sweep
TestParameter, Context.MainFrame, 4155C
TestParameter, Channel.UnitType, SMU, SMU, SMU
TestParameter, Channel.Unit, SMU3:MP, SMU4:MP, SMU1:MP
TestParameter, Channel.IName, ID, IS, IG
TestParameter, Channel.VName, VD, VS, VG
TestParameter, Channel.Mode, V, COMMON, V
TestParameter, Channel.Func, CONST, CONST, VAR1
TestParameter, Channel.Index, 
TestParameter, Channel.Time, 
TestParameter, Measurement.Port.Unit, SMU3:MP, SMU4:MP, SMU1:MP
TestParameter, Measurement.Port.SeriesResistor, NONE, NONE, NONE
TestParameter, Measurement.Port.Filter, ON, ON, ON
TestParameter, Measurement.Primary.Locus, Single
TestParameter, Measurement.Primary.Scale, LINEAR
TestParameter, Measurement.Primary.Start, -2
TestParameter, Measurement.Primary.Stop, 3
TestParameter, Measurement.Primary.Step, 0.05
TestParameter, Measurement.Primary.Compliance, 0.1
TestParameter, Measurement.Primary.PowerCompliance, 0
TestParameter, Measurement.Aborting.Condition, CONTINUE AT ANY
TestParameter, Measurement.PostOutput.Value, START
TestParameter, Measurement.PostOutput.Retention, OFF
TestParameter, Measurement.Bias.Source, 3, 0, -2
TestParameter, Measurement.Bias.Compliance, 0.1, 0.1, 0.1
TestParameter, Measurement.Monitor.Unit, SMU3:MP, SMU4:MP, SMU1:MP
TestParameter, Measurement.Monitor.Adc, HR ADC, HR ADC, HR ADC
TestParameter, Measurement.Monitor.RangingMode, AUTO, AUTO, AUTO
TestParameter, Measurement.Monitor.RangeBoundary, , , 
TestParameter, Measurement.Monitor.RangeRating, BY FULL RANGE, BY FULL RANGE, BY FULL RANGE
TestParameter, Measurement.Monitor.RangeRatingCoeff, 50, 50, 50
TestParameter, Measurement.Timing.Hold, 0.5
TestParameter, Measurement.Timing.Delay, 0.05
TestParameter, Measurement.Adc.HighResolution.AutoZero, OFF
TestParameter, Measurement.Adc.HighResolution.Mode, AUTO
TestParameter, Measurement.Adc.HighResolution.Coeff, 1
TestParameter, Measurement.Ag16440ASelector.SemiconductorRelay.Channel1, DEFAULT
TestParameter, Measurement.Ag16440ASelector.SemiconductorRelay.Channel3, DEFAULT
TestParameter, Function.User.Name, absID, sqrtID, gm2, absIG
TestParameter, Function.User.Unit, A, A, A/V, A
TestParameter, Function.User.Definition, abs(ID), sqrt(abs(ID)), (delta(sqrtID)/delta(VG))^2, abs(IG)
TestParameter, Output.Graph.Enabled, true
TestParameter, Output.Graph.XAxis.Data, VG
TestParameter, Output.Graph.XAxis.Scale, Linear
TestParameter, Output.Graph.XAxis.Left, -5
TestParameter, Output.Graph.XAxis.Right, 7
TestParameter, Output.Graph.YAxis.Data, ID, absIG, gm2
TestParameter, Output.Graph.YAxis.Scale, Log, Log, Linear
TestParameter, Output.Graph.YAxis.Bottom, 1E-14, 1E-14, 0
TestParameter, Output.Graph.YAxis.Top, 0.01, 0.01, 1E-05
TestParameter, Output.Graph.YAxis.Group, , , 
TestParameter, Output.List.Data, VG, IG, VD, ID, VS, IS, sqrtID, gm2, absIG
TestParameter, AutoAnalysis.Interpolation, false
TestParameter, AutoAnalysis.Line1.Enabled, false
TestParameter, AutoAnalysis.Line1.Type, 1
TestParameter, AutoAnalysis.Line1.Fix, True
TestParameter, AutoAnalysis.Line1.YAxis, 0
TestParameter, AutoAnalysis.Line1.Point1.Type, 0
TestParameter, AutoAnalysis.Line1.Point1.XY.X, 
TestParameter, AutoAnalysis.Line1.Point1.XY.Y, 
TestParameter, AutoAnalysis.Line1.Point1.Data.Var, 
TestParameter, AutoAnalysis.Line1.Point1.Data.Condition, 
TestParameter, AutoAnalysis.Line1.Point1.Data.Start, false
TestParameter, AutoAnalysis.Line1.Point1.Data.StartVar, 
TestParameter, AutoAnalysis.Line1.Point1.Data.StartCondition, 
TestParameter, AutoAnalysis.Line1.Point2.Type, 0
TestParameter, AutoAnalysis.Line1.Point2.XY.X, 
TestParameter, AutoAnalysis.Line1.Point2.XY.Y, 
TestParameter, AutoAnalysis.Line1.Point2.Data.Var, 
TestParameter, AutoAnalysis.Line1.Point2.Data.Condition, 
TestParameter, AutoAnalysis.Line1.Point2.Data.Start, false
TestParameter, AutoAnalysis.Line1.Point2.Data.StartVar, 
TestParameter, AutoAnalysis.Line1.Point2.Data.StartCondition, 
TestParameter, AutoAnalysis.Line1.GradientExpr, 0
TestParameter, AutoAnalysis.Line2.Enabled, false
TestParameter, AutoAnalysis.Line2.Type, 1
TestParameter, AutoAnalysis.Line2.Fix, True
TestParameter, AutoAnalysis.Line2.YAxis, 0
TestParameter, AutoAnalysis.Line2.Point1.Type, 0
TestParameter, AutoAnalysis.Line2.Point1.XY.X, 
TestParameter, AutoAnalysis.Line2.Point1.XY.Y, 
TestParameter, AutoAnalysis.Line2.Point1.Data.Var, 
TestParameter, AutoAnalysis.Line2.Point1.Data.Condition, 
TestParameter, AutoAnalysis.Line2.Point1.Data.Start, false
TestParameter, AutoAnalysis.Line2.Point1.Data.StartVar, 
TestParameter, AutoAnalysis.Line2.Point1.Data.StartCondition, 
TestParameter, AutoAnalysis.Line2.Point2.Type, 0
TestParameter, AutoAnalysis.Line2.Point2.XY.X, 
TestParameter, AutoAnalysis.Line2.Point2.XY.Y, 
TestParameter, AutoAnalysis.Line2.Point2.Data.Var, 
TestParameter, AutoAnalysis.Line2.Point2.Data.Condition, 
TestParameter, AutoAnalysis.Line2.Point2.Data.Start, false
TestParameter, AutoAnalysis.Line2.Point2.Data.StartVar, 
TestParameter, AutoAnalysis.Line2.Point2.Data.StartCondition, 
TestParameter, AutoAnalysis.Line2.GradientExpr, 0
TestParameter, AutoAnalysis.Marker.Enabled, false
TestParameter, AutoAnalysis.Marker.Data.Var, 
TestParameter, AutoAnalysis.Marker.Data.Condition, 
TestParameter, AutoAnalysis.Marker.Data.Start, false
TestParameter, AutoAnalysis.Marker.Data.StartVar, 
TestParameter, AutoAnalysis.Marker.Data.StartCondition, 
MetaData, TestRecord.EntryPoint, true
MetaData, TestRecord.RecordTime, 06/18/2019 16:29:26
MetaData, TestRecord.TestTarget, 9-25
MetaData, TestRecord.IterationIndex, 12
MetaData, TestRecord.Preservation, true
MetaData, TestRecord.Flag, 
MetaData, TestRecord.Remarks, good
MetaData, TestRecord.LinkKey, deab9682-a9e2-42be-884c-929c2ebbed00
Dimension1, 101, 101, 101, 101, 101, 101, 101, 101, 101, 101
Dimension2, 1, 1, 1, 1, 1, 1, 1, 1, 1, 1
DataName, VG, VD, VS, ID, IS, IG, absID, sqrtID, gm2, absIG
DataValue, -2, 3, 0, 6.1363000000000008E-11, 4.3033000000000005E-11, -1.20775E-10, 6.1363000000000008E-11, 7.8334538997813737E-06, 7.49422003991227E-11, 1.20775E-10
DataValue, -1.9500000000000002, 3, 0, 5.4769000000000006E-11, 3.4024000000000004E-11, -8.2909E-11, 5.4769000000000006E-11, 7.4006080831239808E-06, 2.2720064624514087E-10, 8.2909E-11
DataValue, -1.9000000000000001, 3, 0, 4.002E-11, 3.1493000000000006E-11, -7.1097E-11, 4.002E-11, 6.3261362615738847E-06, 1.5103904855742778E-10, 7.1097E-11
DataValue, -1.85, 3, 0, 3.8089000000000005E-11, 2.6898E-11, -6.4341E-11, 3.8089000000000005E-11, 6.1716286343233589E-06, 1.2593395105468236E-11, 6.4341E-11
DataValue, -1.8, 3, 0, 3.5656E-11, 2.327E-11, -5.7387E-11, 3.5656E-11, 5.9712645226953393E-06, 3.8838501407759122E-11, 5.7387E-11
DataValue, -1.75, 3, 0, 3.0785E-11, 2.2399000000000003E-11, -5.2671000000000006E-11, 3.0785E-11, 5.54842319943243E-06, 2.4218431293628209E-11, 5.2671000000000006E-11
DataValue, -1.7000000000000002, 3, 0, 3.0021000000000005E-11, 1.7781E-11, -4.8385E-11, 3.0021000000000005E-11, 5.47914226864023E-06, 1.9359893062656962E-11, 4.8385E-11
DataValue, -1.6500000000000001, 3, 0, 2.6096000000000004E-11, 1.6936E-11, -4.4016000000000005E-11, 2.6096000000000004E-11, 5.1084244146311885E-06, 2.379974769636388E-11, 4.4016000000000005E-11
DataValue, -1.6, 3, 0, 2.4913E-11, 1.4370000000000001E-11, -4.1578E-11, 2.4913E-11, 4.9912924178012253E-06, 2.9698608899650892E-12, 4.1578E-11
DataValue, -1.55, 3, 0, 2.4365E-11, 1.1844000000000002E-11, -3.6796E-11, 2.4365E-11, 4.9360915712737747E-06, 3.2795368839538248E-12, 3.6796E-11
DataValue, -1.5, 3, 0, 2.3138000000000003E-11, 1.4207E-11, -3.4279E-11, 2.3138000000000003E-11, 4.810197501142755E-06, 1.6887271013452761E-13, 3.4279E-11
DataValue, -1.4500000000000002, 3, 0, 2.3961000000000003E-11, 7.1000000000000008E-12, -3.1983E-11, 2.3961000000000003E-11, 4.8949974463731849E-06, 7.7333950041543245E-12, 3.1983E-11
DataValue, -1.4000000000000001, 3, 0, 2.054E-11, 6.6140000000000007E-12, -2.9101000000000004E-11, 2.054E-11, 4.5321076774498643E-06, 1.614274384812528E-11, 2.9101000000000004E-11
DataValue, -1.35, 3, 0, 2.0189E-11, 6.1430000000000008E-12, -2.7238000000000003E-11, 2.0189E-11, 4.49321711026743E-06, 4.042391588599358E-12, 2.7238000000000003E-11
DataValue, -1.3, 3, 0, 1.8758E-11, 7.2460000000000004E-12, -2.5215000000000004E-11, 1.8758E-11, 4.3310506808394661E-06, 7.0339111922580319E-12, 2.5215000000000004E-11
DataValue, -1.25, 3, 0, 1.7876000000000002E-11, 4.446E-12, -2.2955000000000003E-11, 1.7876000000000002E-11, 4.228001892147164E-06, 1.6832820784085608E-12, 2.2955000000000003E-11
DataValue, -1.2, 3, 0, 1.7651E-11, 3.459E-12, -2.1199000000000003E-11, 1.7651E-11, 4.2013093197240314E-06, 4.0226270551869935E-14, 2.1199000000000003E-11
DataValue, -1.1500000000000001, 3, 0, 1.8046000000000003E-11, 2.829E-12, -1.9270000000000002E-11, 1.8046000000000003E-11, 4.2480583800131564E-06, 1.1610334798669574E-11, 1.9270000000000002E-11
DataValue, -1.1, 3, 0, 1.4904E-11, -5.36E-13, -1.7762000000000003E-11, 1.4904E-11, 3.860569906114899E-06, 2.0958791643085591E-11, 1.7762000000000003E-11
DataValue, -1.05, 3, 0, 1.4366E-11, 3.062E-12, -1.6718E-11, 1.4366E-11, 3.790250651342204E-06, 6.2049322259796884E-13, 1.6718E-11
DataValue, -1, 3, 0, 1.4302000000000001E-11, -3.355E-12, -1.4568E-11, 1.4302000000000001E-11, 3.7817985139348715E-06, 3.4576535014321727E-12, 1.4568E-11
DataValue, -0.95000000000000007, 3, 0, 1.2991E-11, 3.955E-12, -1.2434000000000001E-11, 1.2991E-11, 3.6043029839346194E-06, 7.828752798762361E-12, 1.2434000000000001E-11
DataValue, -0.9, 3, 0, 1.2264E-11, 3.5650000000000003E-12, -1.2288000000000001E-11, 1.2264E-11, 3.5019994288977263E-06, 7.5811664697049343E-12, 1.2288000000000001E-11
DataValue, -0.85000000000000009, 3, 0, 1.1082000000000001E-11, -7.2660000000000007E-12, -1.0400000000000001E-11, 1.1082000000000001E-11, 3.3289638027470352E-06, 7.0812919939087429E-12, 1.0400000000000001E-11
DataValue, -0.8, 3, 0, 1.0471000000000001E-11, 2.244E-12, -1.0411000000000002E-11, 1.0471000000000001E-11, 3.2358924580399763E-06, 4.3761345277022087E-15, 1.0411000000000002E-11
DataValue, -0.75, 3, 0, 1.1038E-11, -6.857E-12, -9.3060000000000009E-12, 1.1038E-11, 3.3223485669026361E-06, 2.5683614615694939E-11, 9.3060000000000009E-12
DataValue, -0.70000000000000007, 3, 0, 7.4480000000000014E-12, -5.1200000000000008E-12, -7.4960000000000012E-12, 7.4480000000000014E-12, 2.72910241654651E-06, 1.7032906041897072E-11, 7.4960000000000012E-12
DataValue, -0.65, 3, 0, 8.466E-12, -8.709000000000001E-12, -7.978E-12, 8.466E-12, 2.9096391528847697E-06, 9.2846398441736587E-12, 7.978E-12
DataValue, -0.6, 3, 0, 9.204E-12, -4.042E-12, -6.4640000000000007E-12, 9.204E-12, 3.0338094864378021E-06, 2.4247651851373627E-11, 6.4640000000000007E-12
DataValue, -0.55, 3, 0, 1.1574E-11, -2.41E-12, -5.869E-12, 1.1574E-11, 3.402058200560361E-06, 1.801182660893976E-11, 5.869E-12
DataValue, -0.5, 3, 0, 6.8090000000000006E-12, -3.488E-12, -6E-12, 6.8090000000000006E-12, 2.6094060626893626E-06, 9.26204355508399E-14, 6E-12
DataValue, -0.45, 3, 0, 1.1782000000000001E-11, -8.202E-12, -5.2420000000000005E-12, 1.1782000000000001E-11, 3.4324918062538768E-06, 2.1086546546344464E-10, 5.2420000000000005E-12
DataValue, -0.4, 3, 0, 1.6496000000000002E-11, -1.3002000000000001E-11, -5.0990000000000008E-12, 1.6496000000000002E-11, 4.0615268065100841E-06, 5.9847194618006587E-10, 5.0990000000000008E-12
DataValue, -0.35000000000000003, 3, 0, 3.4561000000000003E-11, -2.6911000000000003E-11, -5.038E-12, 3.4561000000000003E-11, 5.87886043379157E-06, 2.1715584057964617E-09, 5.038E-12
DataValue, -0.3, 3, 0, 7.6065000000000011E-11, -6.8659E-11, -4.3580000000000006E-12, 7.6065000000000011E-11, 8.7215250959909535E-06, 5.1288729661222076E-09, 4.3580000000000006E-12
DataValue, -0.25, 3, 0, 1.70054E-10, -1.57899E-10, -3.694E-12, 1.70054E-10, 1.3040475451454981E-05, 1.1745558262133799E-08, 3.694E-12
DataValue, -0.2, 3, 0, 3.8256300000000005E-10, -3.6580400000000005E-10, -2.1700000000000002E-12, 3.8256300000000005E-10, 1.9559217775770074E-05, 2.5501024582740359E-08, 2.1700000000000002E-12
DataValue, -0.15, 3, 0, 8.4155200000000007E-10, -7.922220000000001E-10, -2.2910000000000002E-12, 8.4155200000000007E-10, 2.9009515680203972E-05, 4.8457783966285071E-08, 2.2910000000000002E-12
DataValue, -0.1, 3, 0, 1.72826E-09, -1.64133E-09, -2.089E-12, 1.72826E-09, 4.1572346577983781E-05, 1.1413448765989711E-07, 2.089E-12
DataValue, -0.05, 3, 0, 3.943E-09, -3.8618E-09, -1.091E-12, 3.943E-09, 6.27933117457584E-05, 2.6836976338591239E-07, 1.091E-12
DataValue, 0, 3, 0, 8.71922E-09, -8.5167E-09, -7.6500000000000007E-13, 8.71922E-09, 9.3376763704896084E-05, 4.4963812549165823E-07, 7.6500000000000007E-13
DataValue, 0.05, 3, 0, 1.68606E-08, -1.6214E-08, -7.4300000000000007E-13, 1.68606E-08, 0.00012984837311264243, 7.8962273311597926E-07, 7.4300000000000007E-13
DataValue, 0.1, 3, 0, 3.32105E-08, -3.2657299999999996E-08, -4.8100000000000007E-13, 3.32105E-08, 0.00018223748242334779, 1.338790192324885E-06, 4.8100000000000007E-13
DataValue, 0.15, 3, 0, 6.0297E-08, -5.9284599999999996E-08, 1.23E-13, 6.0297E-08, 0.0002455544746079778, 1.6445924235235477E-06, 1.23E-13
DataValue, 0.2, 3, 0, 9.6397299999999989E-08, -9.3921999999999986E-08, 5.7E-13, 9.6397299999999989E-08, 0.00031047914583752642, 2.0000989047561725E-06, 5.7E-13
DataValue, 0.25, 3, 0, 1.49753E-07, -1.46569E-07, 4.8000000000000008E-13, 1.49753E-07, 0.000386979327613246, 2.7844825377220357E-06, 4.8000000000000008E-13
DataValue, 0.3, 3, 0, 2.2786E-07, -2.25636E-07, 1.4430000000000002E-12, 2.2786E-07, 0.00047734683407350679, 3.4818178981122909E-06, 1.4430000000000002E-12
DataValue, 0.35000000000000003, 3, 0, 3.28989E-07, -3.25614E-07, 1.847E-12, 3.28989E-07, 0.00057357562709724685, 3.8311854242094606E-06, 1.847E-12
DataValue, 0.4, 3, 0, 4.53038E-07, -4.48769E-07, 2.3200000000000002E-12, 4.53038E-07, 0.00067308097581197468, 4.1336715360061647E-06, 2.3200000000000002E-12
DataValue, 0.45, 3, 0, 6.03558E-07, -5.98729E-07, 2.854E-12, 6.03558E-07, 0.00077688995359703294, 4.4814646843470459E-06, 2.854E-12
DataValue, 0.5, 3, 0, 7.82828E-07, -7.7717299999999994E-07, 3.3020000000000003E-12, 7.82828E-07, 0.000884775677785053, 4.7937736448932821E-06, 3.3020000000000003E-12
DataValue, 0.55, 3, 0, 9.91691E-07, -9.84453E-07, 4.0850000000000005E-12, 9.91691E-07, 0.00099583683402453037, 4.7913242976827769E-06, 4.0850000000000005E-12
DataValue, 0.6, 3, 0, 1.2180800000000001E-06, -1.20291E-06, 3.878E-12, 1.2180800000000001E-06, 0.001103666616329406, 5.095670680247429E-06, 3.878E-12
DataValue, 0.65, 3, 0, 1.4922400000000001E-06, -1.48281E-06, 4.428E-12, 1.4922400000000001E-06, 0.0012215727567361676, 5.8373744391089881E-06, 4.428E-12
DataValue, 0.70000000000000007, 3, 0, 1.8097600000000002E-06, -1.7998900000000003E-06, 4.531E-12, 1.8097600000000002E-06, 0.0013452732064528751, 6.2742047922839792E-06, 4.531E-12
DataValue, 0.75, 3, 0, 2.16695E-06, -2.154E-06, 5.1840000000000005E-12, 2.16695E-06, 0.0014720563847896589, 6.5416799396221666E-06, 5.1840000000000005E-12
DataValue, 0.8, 3, 0, 2.56333E-06, -2.55035E-06, 5.729E-12, 2.56333E-06, 0.0016010402868135455, 6.8680032279167794E-06, 5.729E-12
DataValue, 0.85000000000000009, 3, 0, 3.0071900000000003E-06, -2.99236E-06, 5.803E-12, 3.0071900000000003E-06, 0.0017341251396597653, 7.2808859161339161E-06, 5.803E-12
DataValue, 0.9, 3, 0, 3.5001600000000006E-06, -3.4812400000000005E-06, 6.4150000000000004E-12, 3.5001600000000006E-06, 0.0018708714546969818, 7.6621004364599154E-06, 6.4150000000000004E-12
DataValue, 0.95000000000000007, 3, 0, 4.04384E-06, -4.0261400000000006E-06, 6.702E-12, 4.04384E-06, 0.0020109301330478889, 8.1095263221927851E-06, 6.702E-12
DataValue, 1, 3, 0, 4.6468E-06, -4.6240200000000007E-06, 6.949E-12, 4.6468E-06, 0.0021556437553547666, 8.466806337816436E-06, 6.949E-12
DataValue, 1.05, 3, 0, 5.29878E-06, -5.27764E-06, 7.5180000000000009E-12, 5.29878E-06, 0.0023019079043263223, 8.8312999207976011E-06, 7.5180000000000009E-12
DataValue, 1.1, 3, 0, 6.0163200000000009E-06, -5.99482E-06, 7.2680000000000009E-12, 6.0163200000000009E-06, 0.0024528187866208139, 9.3173776341213043E-06, 7.2680000000000009E-12
DataValue, 1.1500000000000001, 3, 0, 6.797240000000001E-06, -6.7770000000000005E-06, 7.557000000000001E-12, 6.797240000000001E-06, 0.0026071517025290265, 9.5954447383598009E-06, 7.557000000000001E-12
DataValue, 1.2, 3, 0, 7.63187E-06, -7.6116500000000011E-06, 7.695E-12, 7.63187E-06, 0.0027625839353764441, 9.9241108450981388E-06, 7.695E-12
DataValue, 1.25, 3, 0, 8.53912E-06, -8.5172400000000015E-06, 7.8640000000000012E-12, 8.53912E-06, 0.0029221772704611884, 1.0285578907195351E-05, 7.8640000000000012E-12
DataValue, 1.3, 3, 0, 9.50671E-06, -9.4874400000000011E-06, 8.522000000000001E-12, 9.50671E-06, 0.0030832953150809281, 1.0538289202719396E-05, 8.522000000000001E-12
DataValue, 1.35, 3, 0, 1.054174E-05, -1.0520910000000002E-05, 8.407E-12, 1.054174E-05, 0.0032468045829707709, 1.0037638875022576E-05, 8.407E-12
DataValue, 1.4000000000000001, 3, 0, 1.1560800000000001E-05, -1.15327E-05, 8.207E-12, 1.1560800000000001E-05, 0.003400117645023478, 1.0370510026533308E-05, 8.207E-12
DataValue, 1.4500000000000002, 3, 0, 1.2736600000000001E-05, -1.27221E-05, 8.3000000000000014E-12, 1.2736600000000001E-05, 0.0035688373456911706, 1.1452232810770109E-05, 8.3000000000000014E-12
DataValue, 1.5, 3, 0, 1.3976600000000001E-05, -1.39623E-05, 8.8230000000000015E-12, 1.3976600000000001E-05, 0.0037385291225293404, 1.1575579898560918E-05, 8.8230000000000015E-12
DataValue, 1.55, 3, 0, 1.52808E-05, -1.52683E-05, 9.0290000000000012E-12, 1.52808E-05, 0.0039090663847010836, 1.1668606776401186E-05, 9.0290000000000012E-12
DataValue, 1.6, 3, 0, 1.66474E-05, -1.66359E-05, 9.105E-12, 1.66474E-05, 0.0040801225471791894, 1.1792595409839276E-05, 9.105E-12
DataValue, 1.6500000000000001, 3, 0, 1.80835E-05, -1.80729E-05, 9.189E-12, 1.80835E-05, 0.00425246987055758, 1.1884500058193569E-05, 9.189E-12
DataValue, 1.7000000000000002, 3, 0, 1.95794E-05, -1.9569200000000002E-05, 8.9520000000000014E-12, 1.95794E-05, 0.0044248615797559138, 1.1980441361490284E-05, 8.9520000000000014E-12
DataValue, 1.75, 3, 0, 2.11471E-05, -2.11372E-05, 9.6640000000000008E-12, 2.11471E-05, 0.004598597612316172, 1.2074641665665744E-05, 9.6640000000000008E-12
DataValue, 1.8, 3, 0, 2.2775300000000002E-05, -2.27686E-05, 1.0031E-11, 2.2775300000000002E-05, 0.0047723474307724079, 1.2196172833383593E-05, 1.0031E-11
DataValue, 1.85, 3, 0, 2.4481E-05, -2.44748E-05, 1.0033000000000001E-11, 2.4481E-05, 0.0049478278062196146, 1.2285943205742075E-05, 1.0033000000000001E-11
DataValue, 1.9000000000000001, 3, 0, 2.62437E-05, -2.62346E-05, 1.0129000000000001E-11, 2.62437E-05, 0.0051228605290403913, 1.235339969904304E-05, 1.0129000000000001E-11
DataValue, 1.9500000000000002, 3, 0, 2.80826E-05, -2.80746E-05, 9.6900000000000009E-12, 2.80826E-05, 0.0052993018408088437, 1.2455430511296209E-05, 9.6900000000000009E-12
DataValue, 2, 3, 0, 2.99842E-05, -2.99765E-05, 1.008E-11, 2.99842E-05, 0.0054757830490259566, 1.2478916760795873E-05, 1.008E-11
DataValue, 2.05, 3, 0, 3.19514E-05, -3.19454E-05, 1.0991000000000001E-11, 3.19514E-05, 0.0056525569435433376, 1.2543319626969696E-05, 1.0991000000000001E-11
DataValue, 2.1, 3, 0, 3.39883E-05, -3.39819E-05, 1.0900000000000001E-11, 3.39883E-05, 0.005829948541796917, 1.2601079283434717E-05, 1.0900000000000001E-11
DataValue, 2.15, 3, 0, 3.60905E-05, -3.6086E-05, 1.0795000000000002E-11, 3.60905E-05, 0.0060075369328868884, 1.26502486076048E-05, 1.0795000000000002E-11
DataValue, 2.2, 3, 0, 3.82619E-05, -3.82552E-05, 1.0904000000000001E-11, 3.82619E-05, 0.006185620421590707, 1.267470605151985E-05, 1.0904000000000001E-11
DataValue, 2.25, 3, 0, 4.0494800000000004E-05, -4.0491800000000004E-05, 1.1083E-11, 4.0494800000000004E-05, 0.0063635524669794314, 1.2697023452334093E-05, 1.1083E-11
