
SetupTitle, Transfer stab
PrimitiveTest, I/V Sweep
TestParameter, Context.MainFrame, 4155C
TestParameter, Channel.UnitType, SMU, SMU, SMU
TestParameter, Channel.Unit, SMU3:MP, SMU4:MP, SMU1:MP
TestParameter, Channel.IName, ID, IS, IG
TestParameter, Channel.VName, VD, VS, VG
TestParameter, Channel.Mode, V, COMMON, V
TestParameter, Channel.Func, CONST, CONST, VAR1
TestParameter, Channel.Index, 
TestParameter, Channel.Time, 
TestParameter, Measurement.Port.Unit, SMU3:MP, SMU4:MP, SMU1:MP
TestParameter, Measurement.Port.SeriesResistor, NONE, NONE, NONE
TestParameter, Measurement.Port.Filter, ON, ON, ON
TestParameter, Measurement.Primary.Locus, Single
TestParameter, Measurement.Primary.Scale, LINEAR
TestParameter, Measurement.Primary.Start, -2
TestParameter, Measurement.Primary.Stop, 3
TestParameter, Measurement.Primary.Step, 0.05
TestParameter, Measurement.Primary.Compliance, 0.1
TestParameter, Measurement.Primary.PowerCompliance, 0
TestParameter, Measurement.Aborting.Condition, CONTINUE AT ANY
TestParameter, Measurement.PostOutput.Value, START
TestParameter, Measurement.PostOutput.Retention, OFF
TestParameter, Measurement.Bias.Source, 3, 0, -2
TestParameter, Measurement.Bias.Compliance, 0.1, 0.1, 0.1
TestParameter, Measurement.Monitor.Unit, SMU3:MP, SMU4:MP, SMU1:MP
TestParameter, Measurement.Monitor.Adc, HR ADC, HR ADC, HR ADC
TestParameter, Measurement.Monitor.RangingMode, AUTO, AUTO, AUTO
TestParameter, Measurement.Monitor.RangeBoundary, , , 
TestParameter, Measurement.Monitor.RangeRating, BY FULL RANGE, BY FULL RANGE, BY FULL RANGE
TestParameter, Measurement.Monitor.RangeRatingCoeff, 50, 50, 50
TestParameter, Measurement.Timing.Hold, 0.5
TestParameter, Measurement.Timing.Delay, 0.05
TestParameter, Measurement.Adc.HighResolution.AutoZero, OFF
TestParameter, Measurement.Adc.HighResolution.Mode, AUTO
TestParameter, Measurement.Adc.HighResolution.Coeff, 1
TestParameter, Measurement.Ag16440ASelector.SemiconductorRelay.Channel1, DEFAULT
TestParameter, Measurement.Ag16440ASelector.SemiconductorRelay.Channel3, DEFAULT
TestParameter, Function.User.Name, absID, sqrtID, gm2, absIG
TestParameter, Function.User.Unit, A, A, A/V, A
TestParameter, Function.User.Definition, abs(ID), sqrt(abs(ID)), (delta(sqrtID)/delta(VG))^2, abs(IG)
TestParameter, Output.Graph.Enabled, true
TestParameter, Output.Graph.XAxis.Data, VG
TestParameter, Output.Graph.XAxis.Scale, Linear
TestParameter, Output.Graph.XAxis.Left, -5
TestParameter, Output.Graph.XAxis.Right, 7
TestParameter, Output.Graph.YAxis.Data, ID, absIG, gm2
TestParameter, Output.Graph.YAxis.Scale, Log, Log, Linear
TestParameter, Output.Graph.YAxis.Bottom, 1E-14, 1E-14, 0
TestParameter, Output.Graph.YAxis.Top, 0.01, 0.01, 1E-05
TestParameter, Output.Graph.YAxis.Group, , , 
TestParameter, Output.List.Data, VG, IG, VD, ID, VS, IS, sqrtID, gm2, absIG
TestParameter, AutoAnalysis.Interpolation, false
TestParameter, AutoAnalysis.Line1.Enabled, false
TestParameter, AutoAnalysis.Line1.Type, 1
TestParameter, AutoAnalysis.Line1.Fix, True
TestParameter, AutoAnalysis.Line1.YAxis, 0
TestParameter, AutoAnalysis.Line1.Point1.Type, 0
TestParameter, AutoAnalysis.Line1.Point1.XY.X, 
TestParameter, AutoAnalysis.Line1.Point1.XY.Y, 
TestParameter, AutoAnalysis.Line1.Point1.Data.Var, 
TestParameter, AutoAnalysis.Line1.Point1.Data.Condition, 
TestParameter, AutoAnalysis.Line1.Point1.Data.Start, false
TestParameter, AutoAnalysis.Line1.Point1.Data.StartVar, 
TestParameter, AutoAnalysis.Line1.Point1.Data.StartCondition, 
TestParameter, AutoAnalysis.Line1.Point2.Type, 0
TestParameter, AutoAnalysis.Line1.Point2.XY.X, 
TestParameter, AutoAnalysis.Line1.Point2.XY.Y, 
TestParameter, AutoAnalysis.Line1.Point2.Data.Var, 
TestParameter, AutoAnalysis.Line1.Point2.Data.Condition, 
TestParameter, AutoAnalysis.Line1.Point2.Data.Start, false
TestParameter, AutoAnalysis.Line1.Point2.Data.StartVar, 
TestParameter, AutoAnalysis.Line1.Point2.Data.StartCondition, 
TestParameter, AutoAnalysis.Line1.GradientExpr, 0
TestParameter, AutoAnalysis.Line2.Enabled, false
TestParameter, AutoAnalysis.Line2.Type, 1
TestParameter, AutoAnalysis.Line2.Fix, True
TestParameter, AutoAnalysis.Line2.YAxis, 0
TestParameter, AutoAnalysis.Line2.Point1.Type, 0
TestParameter, AutoAnalysis.Line2.Point1.XY.X, 
TestParameter, AutoAnalysis.Line2.Point1.XY.Y, 
TestParameter, AutoAnalysis.Line2.Point1.Data.Var, 
TestParameter, AutoAnalysis.Line2.Point1.Data.Condition, 
TestParameter, AutoAnalysis.Line2.Point1.Data.Start, false
TestParameter, AutoAnalysis.Line2.Point1.Data.StartVar, 
TestParameter, AutoAnalysis.Line2.Point1.Data.StartCondition, 
TestParameter, AutoAnalysis.Line2.Point2.Type, 0
TestParameter, AutoAnalysis.Line2.Point2.XY.X, 
TestParameter, AutoAnalysis.Line2.Point2.XY.Y, 
TestParameter, AutoAnalysis.Line2.Point2.Data.Var, 
TestParameter, AutoAnalysis.Line2.Point2.Data.Condition, 
TestParameter, AutoAnalysis.Line2.Point2.Data.Start, false
TestParameter, AutoAnalysis.Line2.Point2.Data.StartVar, 
TestParameter, AutoAnalysis.Line2.Point2.Data.StartCondition, 
TestParameter, AutoAnalysis.Line2.GradientExpr, 0
TestParameter, AutoAnalysis.Marker.Enabled, false
TestParameter, AutoAnalysis.Marker.Data.Var, 
TestParameter, AutoAnalysis.Marker.Data.Condition, 
TestParameter, AutoAnalysis.Marker.Data.Start, false
TestParameter, AutoAnalysis.Marker.Data.StartVar, 
TestParameter, AutoAnalysis.Marker.Data.StartCondition, 
MetaData, TestRecord.EntryPoint, true
MetaData, TestRecord.RecordTime, 06/18/2019 17:30:22
MetaData, TestRecord.TestTarget, 8-23-2
MetaData, TestRecord.IterationIndex, 1
MetaData, TestRecord.Preservation, true
MetaData, TestRecord.Flag, 
MetaData, TestRecord.Remarks, bad
MetaData, TestRecord.LinkKey, 3e43ce42-70c3-4082-8928-3dd24b4f1747
Dimension1, 101, 101, 101, 101, 101, 101, 101, 101, 101, 101
Dimension2, 1, 1, 1, 1, 1, 1, 1, 1, 1, 1
DataName, VG, VD, VS, ID, IS, IG, absID, sqrtID, gm2, absIG
DataValue, -2, 3, 0, 6.04752E-10, 2.9756E-11, -6.22122E-10, 6.04752E-10, 2.4591705918866224E-05, 1.164309639736437E-09, 6.22122E-10
DataValue, -1.9500000000000002, 3, 0, 5.2375100000000009E-10, 2.5971E-11, -5.16583E-10, 5.2375100000000009E-10, 2.2885606830495015E-05, 8.131649497089035E-10, 5.16583E-10
DataValue, -1.9000000000000001, 3, 0, 4.7263200000000007E-10, 2.8400000000000003E-11, -5.2226700000000007E-10, 4.7263200000000007E-10, 2.174010119571664E-05, 2.6545096534586552E-10, 5.2226700000000007E-10
DataValue, -1.85, 3, 0, 4.5183200000000005E-10, 3.1341E-11, -4.8684200000000006E-10, 4.5183200000000005E-10, 2.1256340230622956E-05, 6.2277113206548832E-11, 4.8684200000000006E-10
DataValue, -1.8, 3, 0, 4.3894200000000005E-10, 2.6191E-11, -4.5440000000000005E-10, 4.3894200000000005E-10, 2.0950942699554121E-05, 8.43992079647686E-11, 4.5440000000000005E-10
DataValue, -1.75, 3, 0, 4.1362E-10, 1.7721E-11, -4.38203E-10, 4.1362E-10, 2.0337649815059755E-05, 1.3869848455590585E-10, 4.38203E-10
DataValue, -1.7000000000000002, 3, 0, 3.9098100000000004E-10, 1.4327E-11, -3.9825700000000005E-10, 3.9098100000000004E-10, 1.9773239491798E-05, 7.9054863653952265E-11, 3.9825700000000005E-10
DataValue, -1.6500000000000001, 3, 0, 3.78245E-10, 1.3755000000000002E-11, -3.9836400000000004E-10, 3.78245E-10, 1.9448521794727744E-05, 4.7801940844423652E-11, 3.9836400000000004E-10
DataValue, -1.6, 3, 0, 3.64117E-10, 1.1861E-11, -3.6813400000000003E-10, 3.64117E-10, 1.908185001513218E-05, 1.8023822682679454E-10, 3.6813400000000003E-10
DataValue, -1.55, 3, 0, 3.27827E-10, 1.1953000000000001E-11, -3.6116E-10, 3.27827E-10, 1.81059934828222E-05, 1.0456830768798661E-10, 3.6116E-10
DataValue, -1.5, 3, 0, 3.2613700000000005E-10, 4.949E-12, -3.38843E-10, 3.2613700000000005E-10, 1.8059263550876043E-05, 5.2791904017885E-11, 3.38843E-10
DataValue, -1.4500000000000002, 3, 0, 3.02044E-10, 5.6390000000000005E-12, -3.07777E-10, 3.02044E-10, 1.7379413108617909E-05, 1.249225287463537E-10, 3.07777E-10
DataValue, -1.4000000000000001, 3, 0, 2.8701700000000003E-10, 8.556E-12, -2.93814E-10, 2.8701700000000003E-10, 1.694157607780339E-05, 5.2399282897502765E-11, 2.93814E-10
DataValue, -1.35, 3, 0, 2.77407E-10, 1.281E-12, -2.84586E-10, 2.77407E-10, 1.6655539618997637E-05, 3.3782412340090572E-13, 2.84586E-10
DataValue, -1.3, 3, 0, 2.85051E-10, 5.7830000000000007E-12, -2.7595900000000004E-10, 2.85051E-10, 1.6883453438203927E-05, 1.2945890437927083E-11, 2.7595900000000004E-10
DataValue, -1.25, 3, 0, 2.6555100000000004E-10, 2.335E-12, -2.58086E-10, 2.6555100000000004E-10, 1.6295735638503715E-05, 3.2691337570762349E-12, 2.58086E-10
DataValue, -1.2, 3, 0, 2.9118900000000005E-10, -1.2020000000000001E-12, -3.70506E-10, 2.9118900000000005E-10, 1.706426089814616E-05, 1.2331947078708357E-09, 3.70506E-10
DataValue, -1.1500000000000001, 3, 0, 3.92334E-10, 4.322E-12, -3.7332E-10, 3.92334E-10, 1.9807422851042486E-05, 3.2149166440120537E-10, 3.7332E-10
DataValue, -1.1, 3, 0, 3.55597E-10, -1.4700000000000002E-12, -3.48907E-10, 3.55597E-10, 1.8857279761407795E-05, 2.2178213848900727E-10, 3.48907E-10
DataValue, -1.05, 3, 0, 3.3555600000000005E-10, 9.5600000000000017E-13, -3.30567E-10, 3.3555600000000005E-10, 1.8318187683283519E-05, 2.6282234894072355E-11, 3.30567E-10
DataValue, -1, 3, 0, 3.3652500000000003E-10, -7.6120000000000011E-12, -3.2121900000000005E-10, 3.3652500000000003E-10, 1.8344617739271647E-05, 3.7985450218429687E-11, 3.2121900000000005E-10
DataValue, -0.95000000000000007, 3, 0, 3.13356E-10, 3.846E-12, -3.23577E-10, 3.13356E-10, 1.7701864308597554E-05, 8.78138852065216E-11, 3.23577E-10
DataValue, -0.9, 3, 0, 3.03022E-10, -1.2440000000000002E-12, -2.9300300000000005E-10, 3.03022E-10, 1.7407527107547471E-05, 1.0751015935599613E-10, 2.9300300000000005E-10
DataValue, -0.85000000000000009, 3, 0, 2.77722E-10, 1.6120000000000002E-12, -2.84717E-10, 2.77722E-10, 1.6664993249323567E-05, 3.8274236068671879E-11, 2.84717E-10
DataValue, -0.8, 3, 0, 2.81866E-10, 7.71E-12, -2.76183E-10, 2.81866E-10, 1.67888653577304E-05, 1.7274333497591046E-11, 2.76183E-10
DataValue, -0.75, 3, 0, 2.64042E-10, -2.2926000000000003E-11, -2.5921100000000004E-10, 2.64042E-10, 1.6249369218526609E-05, 1.3569393349100414E-10, 2.5921100000000004E-10
DataValue, -0.70000000000000007, 3, 0, 2.4410900000000004E-10, 1.0897000000000001E-11, -2.51453E-10, 2.4410900000000004E-10, 1.5623987967225272E-05, 5.4324496119065105E-11, 2.51453E-10
DataValue, -0.65, 3, 0, 2.4063200000000004E-10, -1.4976E-11, -2.2909400000000002E-10, 2.4063200000000004E-10, 1.5512317686277573E-05, 5.3162046621438026E-11, 2.2909400000000002E-10
DataValue, -0.6, 3, 0, 2.2185700000000002E-10, 2.841E-12, -2.18731E-10, 2.2185700000000002E-10, 1.4894864886933349E-05, 1.5266786175053465E-10, 2.18731E-10
DataValue, -0.55, 3, 0, 2.0382500000000002E-10, -4.262E-12, -2.05243E-10, 2.0382500000000002E-10, 1.4276729317319146E-05, 2.2082594630196159E-11, 2.05243E-10
DataValue, -0.5, 3, 0, 2.08079E-10, -2.5340000000000003E-12, -2.0416300000000002E-10, 2.08079E-10, 1.4424943674066808E-05, 9.7985508337107989E-12, 2.0416300000000002E-10
DataValue, -0.45, 3, 0, 1.9498500000000003E-10, -2.3500000000000003E-12, -2.0051900000000001E-10, 1.9498500000000003E-10, 1.3963702947284435E-05, 1.6890923925752547E-13, 2.0051900000000001E-10
DataValue, -0.4, 3, 0, 2.0689500000000001E-10, -4.9160000000000005E-12, -1.9604E-10, 2.0689500000000001E-10, 1.4383845104838971E-05, 6.5111579596489267E-13, 1.9604E-10
DataValue, -0.35000000000000003, 3, 0, 1.92738E-10, -4.418E-12, -1.87022E-10, 1.92738E-10, 1.38830112007446E-05, 3.002489392201666E-11, 1.87022E-10
DataValue, -0.3, 3, 0, 1.9143200000000002E-10, -1.0803E-11, -1.81625E-10, 1.9143200000000002E-10, 1.383589534507977E-05, 2.5170867147061172E-12, 1.81625E-10
DataValue, -0.25, 3, 0, 1.8835800000000002E-10, -1.3660000000000001E-11, -1.73083E-10, 1.8835800000000002E-10, 1.3724357908477906E-05, 2.7791023305879404E-13, 1.73083E-10
DataValue, -0.2, 3, 0, 1.8997600000000002E-10, -2.0800000000000002E-11, -1.6343500000000002E-10, 1.8997600000000002E-10, 1.3783178153096623E-05, 2.6524134174831037E-13, 1.6343500000000002E-10
DataValue, -0.15, 3, 0, 1.86947E-10, -2.8000000000000003E-11, -1.6155500000000002E-10, 1.86947E-10, 1.3672856321924838E-05, 8.100840872767768E-13, 1.6155500000000002E-10
DataValue, -0.1, 3, 0, 1.8750300000000002E-10, -3.7351E-11, -1.45336E-10, 1.8750300000000002E-10, 1.3693173481702479E-05, 1.8320983073611313E-11, 1.45336E-10
DataValue, -0.05, 3, 0, 1.9883500000000002E-10, -5.3683E-11, -1.43425E-10, 1.9883500000000002E-10, 1.4100886496954722E-05, 6.5275076304870928E-11, 1.43425E-10
DataValue, 0, 3, 0, 2.1028200000000001E-10, -7.0743E-11, -1.38069E-10, 2.1028200000000001E-10, 1.4501103406292917E-05, 1.1239860151229364E-10, 1.38069E-10
DataValue, 0.05, 3, 0, 2.2985800000000003E-10, -9.2667E-11, -1.2812600000000002E-10, 2.2985800000000003E-10, 1.5161068563923852E-05, 9.0061971798402344E-11, 1.2812600000000002E-10
DataValue, 0.1, 3, 0, 2.38706E-10, -1.0970800000000001E-10, -1.1843200000000002E-10, 2.38706E-10, 1.5450113268193215E-05, 3.3253307853296285E-11, 1.1843200000000002E-10
DataValue, 0.15, 3, 0, 2.4767600000000003E-10, -1.23821E-10, -1.1387E-10, 2.4767600000000003E-10, 1.5737725375669766E-05, 1.3776706913774173E-11, 1.1387E-10
DataValue, 0.2, 3, 0, 2.50313E-10, -1.36116E-10, -1.0733400000000001E-10, 2.50313E-10, 1.5821283133804288E-05, 8.3072113941049076E-12, 1.0733400000000001E-10
DataValue, 0.25, 3, 0, 2.5683100000000004E-10, -1.46515E-10, -1.0291300000000001E-10, 2.5683100000000004E-10, 1.6025947709885991E-05, 1.4909064745635767E-11, 1.0291300000000001E-10
DataValue, 0.3, 3, 0, 2.6268E-10, -1.53804E-10, -9.6366E-11, 2.6268E-10, 1.6207405714672537E-05, 2.3871318568876753E-12, 9.6366E-11
DataValue, 0.35000000000000003, 3, 0, 2.61807E-10, -1.6237800000000002E-10, -9.3399000000000013E-11, 2.61807E-10, 1.6180451167998995E-05, 5.9390783162438647E-13, 9.3399000000000013E-11
DataValue, 0.4, 3, 0, 2.6518400000000004E-10, -1.7177300000000002E-10, -8.481E-11, 2.6518400000000004E-10, 1.62844711304973E-05, 8.5713994764277478E-12, 8.481E-11
DataValue, 0.45, 3, 0, 2.7136700000000004E-10, -1.8046000000000002E-10, -8.5198000000000009E-11, 2.7136700000000004E-10, 1.6473220692991398E-05, 1.2457832992638772E-11, 8.5198000000000009E-11
DataValue, 0.5, 3, 0, 2.76804E-10, -1.87359E-10, -7.7520000000000007E-11, 2.76804E-10, 1.6637427685793258E-05, 1.0083837195688627E-11, 7.7520000000000007E-11
DataValue, 0.55, 3, 0, 2.8193000000000003E-10, -1.9683400000000002E-10, -7.1475E-11, 2.8193000000000003E-10, 1.6790771274721122E-05, 8.13503692270451E-12, 7.1475E-11
DataValue, 0.6, 3, 0, 2.86376E-10, -2.0886300000000002E-10, -6.6579000000000009E-11, 2.86376E-10, 1.6922647547000441E-05, 1.0692721553029258E-11, 6.6579000000000009E-11
DataValue, 0.65, 3, 0, 2.93018E-10, -2.20737E-10, -6.1546E-11, 2.93018E-10, 1.7117768546162785E-05, 1.5352774530857139E-11, 6.1546E-11
DataValue, 0.70000000000000007, 3, 0, 2.99791E-10, -2.2982000000000001E-10, -5.8293E-11, 2.99791E-10, 1.7314473714208008E-05, 1.7550722065335003E-11, 5.8293E-11
DataValue, 0.75, 3, 0, 3.07536E-10, -2.42938E-10, -5.2853000000000003E-11, 3.07536E-10, 1.7536704365415985E-05, 2.4529317474981194E-11, 5.2853000000000003E-11
DataValue, 0.8, 3, 0, 3.1718700000000004E-10, -2.5441400000000004E-10, -5.0555000000000007E-11, 3.1718700000000004E-10, 1.78097445237151E-05, 2.8858327497121562E-11, 5.0555000000000007E-11
DataValue, 0.85000000000000009, 3, 0, 3.2666600000000004E-10, -2.68252E-10, -4.3057000000000004E-11, 3.2666600000000004E-10, 1.807390383951403E-05, 2.1070546044617389E-11, 4.3057000000000004E-11
DataValue, 0.9, 3, 0, 3.3374800000000005E-10, -2.80492E-10, -3.9597000000000004E-11, 3.3374800000000005E-10, 1.8268771168307955E-05, 5.379271244618712E-11, 3.9597000000000004E-11
DataValue, 0.95000000000000007, 3, 0, 3.53716E-10, -2.97308E-10, -3.5590000000000003E-11, 3.53716E-10, 1.8807338993063321E-05, 6.9002774318781468E-11, 3.5590000000000003E-11
DataValue, 1, 3, 0, 3.6478900000000003E-10, -3.11024E-10, -3.4202E-11, 3.6478900000000003E-10, 1.9099450253868567E-05, 4.3725301006002826E-11, 3.4202E-11
DataValue, 1.05, 3, 0, 3.7902600000000005E-10, -3.3037100000000003E-10, -3.0782E-11, 3.7902600000000005E-10, 1.9468590087625763E-05, 4.782521981386138E-11, 3.0782E-11
DataValue, 1.1, 3, 0, 3.91684E-10, -3.47938E-10, -2.7738E-11, 3.91684E-10, 1.9791008059217197E-05, 4.5947900061281317E-11, 2.7738E-11
DataValue, 1.1500000000000001, 3, 0, 4.0587900000000004E-10, -3.63846E-10, -2.4305E-11, 4.0587900000000004E-10, 2.0146438891278033E-05, 6.5301569134403412E-11, 2.4305E-11
DataValue, 1.2, 3, 0, 4.24323E-10, -3.8710200000000006E-10, -2.019E-11, 4.24323E-10, 2.0599101922171268E-05, 1.0453143171254233E-10, 2.019E-11
DataValue, 1.25, 3, 0, 4.4812000000000005E-10, -4.0886800000000004E-10, -1.7788000000000003E-11, 4.4812000000000005E-10, 2.1168845032263806E-05, 4.2242865288194275E-11, 1.7788000000000003E-11
DataValue, 1.3, 3, 0, 4.51522E-10, -4.1920400000000004E-10, -1.5011E-11, 4.51522E-10, 2.1249047037455585E-05, 4.7065088871097939E-11, 1.5011E-11
DataValue, 1.35, 3, 0, 4.7763600000000009E-10, -4.4391200000000004E-10, -1.3641000000000001E-11, 4.7763600000000009E-10, 2.1854885037446434E-05, 1.2732797064340982E-10, 1.3641000000000001E-11
DataValue, 1.4000000000000001, 3, 0, 5.0075000000000005E-10, -4.69913E-10, -9.4580000000000011E-12, 5.0075000000000005E-10, 2.2377444000600249E-05, 1.2070427970275042E-10, 9.4580000000000011E-12
DataValue, 1.4500000000000002, 3, 0, 5.26865E-10, -4.89274E-10, -6.6850000000000007E-12, 5.26865E-10, 2.2953540031986352E-05, 8.340872412433618E-11, 6.6850000000000007E-12
DataValue, 1.5, 3, 0, 5.4245800000000009E-10, -5.13911E-10, -4.885E-12, 5.4245800000000009E-10, 2.3290727768792457E-05, 1.1216980451268598E-10, 4.885E-12
DataValue, 1.55, 3, 0, 5.76607E-10, -5.3754900000000006E-10, -4.0290000000000007E-12, 5.76607E-10, 2.4012642503481371E-05, 1.4286173251024138E-10, 4.0290000000000007E-12
DataValue, 1.6, 3, 0, 5.9956300000000007E-10, -5.6511400000000006E-10, -2.565E-12, 5.9956300000000007E-10, 2.4485975577869059E-05, 6.2237877870386911E-11, 2.565E-12
DataValue, 1.6500000000000001, 3, 0, 6.15117E-10, -5.8942800000000009E-10, -1.1790000000000001E-12, 6.15117E-10, 2.4801552370769054E-05, 8.7882842772670338E-11, 1.1790000000000001E-12
DataValue, 1.7000000000000002, 3, 0, 6.4635100000000006E-10, -6.06488E-10, 6.410000000000001E-13, 6.4635100000000006E-10, 2.542343407173783E-05, 1.1593267532743841E-10, 6.410000000000001E-13
DataValue, 1.75, 3, 0, 6.69685E-10, -6.4271500000000009E-10, 1.867E-12, 6.69685E-10, 2.5878272739887416E-05, 6.0073935353622161E-13, 1.867E-12
DataValue, 1.8, 3, 0, 6.42416E-10, -6.34593E-10, 2.294E-12, 6.42416E-10, 2.5345926694441458E-05, 2.667717022784972E-11, 2.294E-12
DataValue, 1.85, 3, 0, 6.9668400000000005E-10, -6.52516E-10, 3.1930000000000002E-12, 6.9668400000000005E-10, 2.6394772209663037E-05, 2.5926385286773823E-10, 3.1930000000000002E-12
DataValue, 1.9000000000000001, 3, 0, 7.26631E-10, -6.6744E-10, 4.969E-12, 7.26631E-10, 2.6956093930686621E-05, 6.1758266706560227E-11, 4.969E-12
DataValue, 1.9500000000000002, 3, 0, 7.3878700000000007E-10, -6.882160000000001E-10, 4.627E-12, 7.3878700000000007E-10, 2.718063648997205E-05, 5.4281107208114446E-11, 4.627E-12
DataValue, 2, 3, 0, 7.6689400000000006E-10, -7.11833E-10, 5.403E-12, 7.6689400000000006E-10, 2.7692851063045136E-05, 1.0819566164690961E-10, 5.403E-12
DataValue, 2.05, 3, 0, 7.9641400000000008E-10, -7.3871600000000008E-10, 6.6E-12, 7.9641400000000008E-10, 2.8220807926067604E-05, 1.3415819018043816E-10, 6.6E-12
DataValue, 2.1, 3, 0, 8.32387E-10, -7.76917E-10, 7.313E-12, 8.32387E-10, 2.885111782929736E-05, 1.7629526172396238E-10, 7.313E-12
DataValue, 2.15, 3, 0, 8.7311800000000007E-10, -8.1928800000000006E-10, 7.84E-12, 8.7311800000000007E-10, 2.9548570185374453E-05, 1.1808980662151906E-11, 7.84E-12
