
SetupTitle, Transfer lin
PrimitiveTest, I/V Sweep
TestParameter, Context.MainFrame, 4155C
TestParameter, Channel.UnitType, SMU, SMU, SMU
TestParameter, Channel.Unit, SMU3:MP, SMU4:MP, SMU1:MP
TestParameter, Channel.IName, ID, IS, IG
TestParameter, Channel.VName, VD, VS, VG
TestParameter, Channel.Mode, V, COMMON, V
TestParameter, Channel.Func, CONST, CONST, VAR1
TestParameter, Channel.Index, 
TestParameter, Channel.Time, 
TestParameter, Measurement.Port.Unit, SMU3:MP, SMU4:MP, SMU1:MP
TestParameter, Measurement.Port.SeriesResistor, NONE, NONE, NONE
TestParameter, Measurement.Port.Filter, ON, ON, ON
TestParameter, Measurement.Primary.Locus, Double
TestParameter, Measurement.Primary.Scale, LINEAR
TestParameter, Measurement.Primary.Start, -2
TestParameter, Measurement.Primary.Stop, 3
TestParameter, Measurement.Primary.Step, 0.05
TestParameter, Measurement.Primary.Compliance, 0.001
TestParameter, Measurement.Primary.PowerCompliance, 0
TestParameter, Measurement.Aborting.Condition, CONTINUE AT ANY
TestParameter, Measurement.PostOutput.Value, START
TestParameter, Measurement.PostOutput.Retention, OFF
TestParameter, Measurement.Bias.Source, 0.1, 0, -2
TestParameter, Measurement.Bias.Compliance, 0.001, 0.1, 0.001
TestParameter, Measurement.Monitor.Unit, SMU3:MP, SMU4:MP, SMU1:MP
TestParameter, Measurement.Monitor.Adc, HR ADC, HR ADC, HR ADC
TestParameter, Measurement.Monitor.RangingMode, AUTO, AUTO, AUTO
TestParameter, Measurement.Monitor.RangeBoundary, , , 
TestParameter, Measurement.Monitor.RangeRating, BY FULL RANGE, BY FULL RANGE, BY FULL RANGE
TestParameter, Measurement.Monitor.RangeRatingCoeff, 50, 50, 50
TestParameter, Measurement.Timing.Hold, 0.5
TestParameter, Measurement.Timing.Delay, 0.05
TestParameter, Measurement.Adc.HighResolution.AutoZero, OFF
TestParameter, Measurement.Adc.HighResolution.Mode, AUTO
TestParameter, Measurement.Adc.HighResolution.Coeff, 1
TestParameter, Measurement.Ag16440ASelector.SemiconductorRelay.Channel1, DEFAULT
TestParameter, Measurement.Ag16440ASelector.SemiconductorRelay.Channel3, DEFAULT
TestParameter, Function.User.Name, absID, sqrtID, gm2, absIG
TestParameter, Function.User.Unit, A, A, A/V, A
TestParameter, Function.User.Definition, abs(ID), sqrt(abs(ID)), (delta(sqrtID)/delta(VG))^2, abs(IG)
TestParameter, Output.Graph.Enabled, true
TestParameter, Output.Graph.XAxis.Data, VG
TestParameter, Output.Graph.XAxis.Scale, Linear
TestParameter, Output.Graph.XAxis.Left, -5
TestParameter, Output.Graph.XAxis.Right, 7
TestParameter, Output.Graph.YAxis.Data, ID, absIG, gm2
TestParameter, Output.Graph.YAxis.Scale, Log, Log, Linear
TestParameter, Output.Graph.YAxis.Bottom, 1E-14, 1E-14, 0
TestParameter, Output.Graph.YAxis.Top, 0.01, 0.01, 1E-05
TestParameter, Output.Graph.YAxis.Group, , , 
TestParameter, Output.List.Data, VG, IG, VD, ID, VS, IS, sqrtID, gm2, absIG
TestParameter, AutoAnalysis.Interpolation, false
TestParameter, AutoAnalysis.Line1.Enabled, false
TestParameter, AutoAnalysis.Line1.Type, 1
TestParameter, AutoAnalysis.Line1.Fix, True
TestParameter, AutoAnalysis.Line1.YAxis, 0
TestParameter, AutoAnalysis.Line1.Point1.Type, 0
TestParameter, AutoAnalysis.Line1.Point1.XY.X, 
TestParameter, AutoAnalysis.Line1.Point1.XY.Y, 
TestParameter, AutoAnalysis.Line1.Point1.Data.Var, 
TestParameter, AutoAnalysis.Line1.Point1.Data.Condition, 
TestParameter, AutoAnalysis.Line1.Point1.Data.Start, false
TestParameter, AutoAnalysis.Line1.Point1.Data.StartVar, 
TestParameter, AutoAnalysis.Line1.Point1.Data.StartCondition, 
TestParameter, AutoAnalysis.Line1.Point2.Type, 0
TestParameter, AutoAnalysis.Line1.Point2.XY.X, 
TestParameter, AutoAnalysis.Line1.Point2.XY.Y, 
TestParameter, AutoAnalysis.Line1.Point2.Data.Var, 
TestParameter, AutoAnalysis.Line1.Point2.Data.Condition, 
TestParameter, AutoAnalysis.Line1.Point2.Data.Start, false
TestParameter, AutoAnalysis.Line1.Point2.Data.StartVar, 
TestParameter, AutoAnalysis.Line1.Point2.Data.StartCondition, 
TestParameter, AutoAnalysis.Line1.GradientExpr, 0
TestParameter, AutoAnalysis.Line2.Enabled, false
TestParameter, AutoAnalysis.Line2.Type, 1
TestParameter, AutoAnalysis.Line2.Fix, True
TestParameter, AutoAnalysis.Line2.YAxis, 0
TestParameter, AutoAnalysis.Line2.Point1.Type, 0
TestParameter, AutoAnalysis.Line2.Point1.XY.X, 
TestParameter, AutoAnalysis.Line2.Point1.XY.Y, 
TestParameter, AutoAnalysis.Line2.Point1.Data.Var, 
TestParameter, AutoAnalysis.Line2.Point1.Data.Condition, 
TestParameter, AutoAnalysis.Line2.Point1.Data.Start, false
TestParameter, AutoAnalysis.Line2.Point1.Data.StartVar, 
TestParameter, AutoAnalysis.Line2.Point1.Data.StartCondition, 
TestParameter, AutoAnalysis.Line2.Point2.Type, 0
TestParameter, AutoAnalysis.Line2.Point2.XY.X, 
TestParameter, AutoAnalysis.Line2.Point2.XY.Y, 
TestParameter, AutoAnalysis.Line2.Point2.Data.Var, 
TestParameter, AutoAnalysis.Line2.Point2.Data.Condition, 
TestParameter, AutoAnalysis.Line2.Point2.Data.Start, false
TestParameter, AutoAnalysis.Line2.Point2.Data.StartVar, 
TestParameter, AutoAnalysis.Line2.Point2.Data.StartCondition, 
TestParameter, AutoAnalysis.Line2.GradientExpr, 0
TestParameter, AutoAnalysis.Marker.Enabled, false
TestParameter, AutoAnalysis.Marker.Data.Var, 
TestParameter, AutoAnalysis.Marker.Data.Condition, 
TestParameter, AutoAnalysis.Marker.Data.Start, false
TestParameter, AutoAnalysis.Marker.Data.StartVar, 
TestParameter, AutoAnalysis.Marker.Data.StartCondition, 
MetaData, TestRecord.EntryPoint, true
MetaData, TestRecord.RecordTime, 06/18/2019 13:20:57
MetaData, TestRecord.TestTarget, 6-42
MetaData, TestRecord.IterationIndex, 1
MetaData, TestRecord.Preservation, true
MetaData, TestRecord.Flag, 
MetaData, TestRecord.Remarks, good
MetaData, TestRecord.LinkKey, 10448295-f6ef-4812-8ab0-11dd679bebd0
Dimension1, 202, 202, 202, 202, 202, 202, 202, 202, 202, 202
Dimension2, 1, 1, 1, 1, 1, 1, 1, 1, 1, 1
DataName, VG, VD, VS, ID, IS, IG, absID, sqrtID, gm2, absIG
DataValue, -2, 0.1, 0, 6.71E-12, 1.0960000000000002E-12, -7.4060000000000014E-12, 6.71E-12, 2.5903667693977237E-06, 4.5287848732273164E-11, 7.4060000000000014E-12
DataValue, -1.9500000000000002, 0.1, 0, 5.08E-12, -2.91E-13, -6.4430000000000007E-12, 5.08E-12, 2.2538855339169289E-06, 9.195769142974726E-13, 6.4430000000000007E-12
DataValue, -1.9000000000000001, 0.1, 0, 7.2160000000000008E-12, 4.5000000000000004E-14, -6.189E-12, 7.2160000000000008E-12, 2.6862613424609305E-06, 5.474876788125067E-12, 6.189E-12
DataValue, -1.85, 0.1, 0, 4.08E-12, 8.5000000000000011E-13, -5.7460000000000008E-12, 4.08E-12, 2.0199009876724156E-06, 6.07104821929905E-11, 5.7460000000000008E-12
DataValue, -1.8, 0.1, 0, 3.6370000000000004E-12, 2.833E-12, -5.2150000000000007E-12, 3.6370000000000004E-12, 1.9070920271449935E-06, 3.5022690472370112E-12, 5.2150000000000007E-12
DataValue, -1.75, 0.1, 0, 3.359E-12, 1.07E-12, -4.817E-12, 3.359E-12, 1.8327574853209576E-06, 8.8836811685711982E-12, 4.817E-12
DataValue, -1.7000000000000002, 0.1, 0, 2.5890000000000004E-12, -9.9E-13, -4.249E-12, 2.5890000000000004E-12, 1.6090369790654286E-06, 6.540037712349443E-12, 4.249E-12
DataValue, -1.6500000000000001, 0.1, 0, 2.4870000000000002E-12, -1.9100000000000002E-13, -4.0560000000000005E-12, 2.4870000000000002E-12, 1.5770225109363532E-06, 8.3816138890151773E-13, 4.0560000000000005E-12
DataValue, -1.6, 0.1, 0, 2.892E-12, 8.22E-13, -3.8590000000000004E-12, 2.892E-12, 1.7005881335585053E-06, 1.4510299329784919E-15, 3.8590000000000004E-12
DataValue, -1.55, 0.1, 0, 2.4750000000000003E-12, -9.61E-13, -3.5210000000000004E-12, 2.4750000000000003E-12, 1.5732132722552274E-06, 5.2842065668058077E-12, 3.5210000000000004E-12
DataValue, -1.5, 0.1, 0, 2.163E-12, 3.52E-13, -3.4020000000000002E-12, 2.163E-12, 1.4707141122597553E-06, 9.4225165253191028E-13, 3.4020000000000002E-12
DataValue, -1.4500000000000002, 0.1, 0, 2.1790000000000003E-12, 5.6E-14, -3.108E-12, 2.1790000000000003E-12, 1.4761436244485156E-06, 5.0755161458508669E-11, 3.108E-12
DataValue, -1.4000000000000001, 0.1, 0, 5.7500000000000007E-13, 2.24E-13, -2.7640000000000003E-12, 5.7500000000000007E-13, 7.5828754440515506E-07, 5.1231443572645837E-12, 2.7640000000000003E-12
DataValue, -1.35, 0.1, 0, 1.5620000000000002E-12, -3.8400000000000003E-13, -2.4720000000000004E-12, 1.5620000000000002E-12, 1.2497999839974397E-06, 3.2303578560651282E-11, 2.4720000000000004E-12
DataValue, -1.3, 0.1, 0, 1.7600000000000002E-12, 1.185E-12, -2.436E-12, 1.7600000000000002E-12, 1.32664991614216E-06, 1.0266295874868182E-12, 2.436E-12
DataValue, -1.25, 0.1, 0, 1.3190000000000001E-12, -4.76E-13, -1.947E-12, 1.3190000000000001E-12, 1.1484772527133482E-06, 1.332920167606464E-12, 1.947E-12
DataValue, -1.2, 0.1, 0, 1.4670000000000001E-12, 9.3300000000000016E-13, -2.06E-12, 1.4670000000000001E-12, 1.211197754291181E-06, 6.6724336799706639E-14, 2.06E-12
DataValue, -1.1500000000000001, 0.1, 0, -1.379E-12, 5.61E-13, -1.5510000000000002E-12, 1.379E-12, 1.1743083070471741E-06, 4.1909763770011804E-12, 1.5510000000000002E-12
DataValue, -1.1, 0.1, 0, 1.013E-12, 1.6000000000000003E-13, -1.5780000000000001E-12, 1.013E-12, 1.0064790112068906E-06, 1.1892197281525689E-11, 1.5780000000000001E-12
DataValue, -1.05, 0.1, 0, 6.880000000000001E-13, -7.74E-13, -1.199E-12, 6.880000000000001E-13, 8.2945765413310888E-07, 2.336058754752187E-14, 1.199E-12
DataValue, -1, 0.1, 0, -1.044E-12, 8.22E-13, -1.1900000000000002E-12, 1.044E-12, 1.0217631819555841E-06, 1.561905315630714E-13, 1.1900000000000002E-12
DataValue, -0.95000000000000007, 0.1, 0, 6.2400000000000007E-13, -3.4800000000000003E-13, -1.055E-12, 6.2400000000000007E-13, 7.8993670632526E-07, 1.4387443516704986E-11, 1.055E-12
DataValue, -0.9, 0.1, 0, -1.963E-12, 1.54E-13, -1.212E-12, 1.963E-12, 1.4010710188994704E-06, 3.5873839298956891E-11, 1.212E-12
DataValue, -0.85000000000000009, 0.1, 0, 1.929E-12, -1.1940000000000002E-12, -8.67E-13, 1.929E-12, 1.3888844444373333E-06, 2.5051590058506614E-11, 8.67E-13
DataValue, -0.8, 0.1, 0, 8.1100000000000008E-13, -1.935E-12, -7.25E-13, 8.1100000000000008E-13, 9.0055538419355428E-07, 5.627035197013991E-11, 7.25E-13
DataValue, -0.75, 0.1, 0, 4.0800000000000003E-13, -5.887E-12, -4.1700000000000004E-13, 4.0800000000000003E-13, 6.3874877690685246E-07, 9.0215082770301515E-14, 4.1700000000000004E-13
DataValue, -0.70000000000000007, 0.1, 0, 8.66E-13, 8.4000000000000006E-13, -9.38E-13, 8.66E-13, 9.3059120993054734E-07, 1.271489419479715E-10, 9.38E-13
DataValue, -0.65, 0.1, 0, -3.1200000000000004E-12, 2.6260000000000003E-12, -1.0790000000000002E-12, 3.1200000000000004E-12, 1.7663521732655696E-06, 4.2445218020417144E-12, 1.0790000000000002E-12
DataValue, -0.6, 0.1, 0, -5.2500000000000009E-13, -1.65E-12, 2.67E-13, 5.2500000000000009E-13, 7.24568837309472E-07, 1.4784074977003545E-10, 2.67E-13
DataValue, -0.55, 0.1, 0, -3.03E-13, 1.3610000000000002E-12, -1.5500000000000002E-13, 3.03E-13, 5.5045435778091545E-07, 1.0354208271476222E-10, 1.5500000000000002E-13
DataValue, -0.5, 0.1, 0, 3.0350000000000003E-12, -3.43E-13, -7.6400000000000008E-13, 3.0350000000000003E-12, 1.7421251390184347E-06, 1.1365167021424889E-12, 7.6400000000000008E-13
DataValue, -0.45, 0.1, 0, -1.9700000000000002E-13, 1.757E-12, -3.88E-13, 1.9700000000000002E-13, 4.4384682042344294E-07, 1.5986928963454371E-11, 3.88E-13
DataValue, -0.4, 0.1, 0, -4.588E-12, 1.2940000000000001E-12, 2.11E-13, 4.588E-12, 2.1419617176784462E-06, 1.36563701319337E-10, 2.11E-13
DataValue, -0.35000000000000003, 0.1, 0, -2.6000000000000002E-12, 2.109E-12, -3.3300000000000005E-13, 2.6000000000000002E-12, 1.61245154965971E-06, 2.9338390806486273E-11, 3.3300000000000005E-13
DataValue, -0.3, 0.1, 0, -2.561E-12, -2.3340000000000004E-12, -9.8000000000000012E-14, 2.561E-12, 1.600312469488381E-06, 4.3571362455403694E-11, 9.8000000000000012E-14
DataValue, -0.25, 0.1, 0, -9.0700000000000007E-13, 3.288E-12, 4.1400000000000005E-13, 9.0700000000000007E-13, 9.5236547606473015E-07, 1.4620686919802678E-10, 4.1400000000000005E-13
DataValue, -0.2, 0.1, 0, -1.53E-13, 1.8080000000000002E-12, -2.1000000000000001E-13, 1.53E-13, 3.9115214431215891E-07, 1.2924270886506465E-11, 2.1000000000000001E-13
DataValue, -0.15, 0.1, 0, 1.721E-12, -3.1810000000000003E-12, 3.27E-13, 1.721E-12, 1.3118688958886098E-06, 1.9369853144868269E-11, 3.27E-13
DataValue, -0.1, 0.1, 0, -6.9100000000000008E-13, -1.6160000000000002E-12, 4.47E-13, 6.9100000000000008E-13, 8.3126409762481627E-07, 3.0426894043332253E-11, 4.47E-13
DataValue, -0.05, 0.1, 0, -5.7800000000000006E-13, -2.9700000000000005E-13, 2.4000000000000004E-13, 5.7800000000000006E-13, 7.6026311234992855E-07, 1.8384530936412022E-11, 2.4000000000000004E-13
DataValue, 0, 0.1, 0, -1.6200000000000002E-13, -1.143E-12, 2.43E-13, 1.6200000000000002E-13, 4.0249223594996217E-07, 2.6554866089648703E-11, 2.43E-13
DataValue, 0.05, 0.1, 0, -6.0000000000000009E-14, -2.356E-12, 7.340000000000001E-13, 6.0000000000000009E-14, 2.4494897427831784E-07, 1.2757700944268335E-10, 7.340000000000001E-13
DataValue, 0.1, 0.1, 0, -2.347E-12, 9.4E-14, 4.8400000000000006E-13, 2.347E-12, 1.5319921670818032E-06, 1.0685717928170995E-11, 4.8400000000000006E-13
DataValue, 0.15, 0.1, 0, 3.27E-13, -1.604E-12, 3.27E-13, 3.27E-13, 5.718391382198319E-07, 5.5347147459384914E-11, 3.27E-13
DataValue, 0.2, 0.1, 0, 6.2100000000000008E-13, -2.4220000000000004E-12, 5.6E-13, 6.2100000000000008E-13, 7.8803553219382184E-07, 2.3480796228414077E-11, 5.6E-13
DataValue, 0.25, 0.1, 0, 1.116E-12, -1.13E-12, 6.37E-13, 1.116E-12, 1.0564090116995405E-06, 4.5310182595929811E-11, 6.37E-13
DataValue, 0.3, 0.1, 0, 2.135E-12, -2.6170000000000003E-12, 6.5100000000000005E-13, 2.135E-12, 1.4611639196202458E-06, 9.36913140933422E-11, 6.5100000000000005E-13
DataValue, 0.35000000000000003, 0.1, 0, 4.0980000000000005E-12, -6.0860000000000005E-12, 6.2200000000000008E-13, 4.0980000000000005E-12, 2.0243517480912254E-06, 1.3591165177527925E-10, 6.2200000000000008E-13
DataValue, 0.4, 0.1, 0, 6.9010000000000006E-12, -1.0251E-11, 8.1600000000000006E-13, 6.9010000000000006E-12, 2.6269754471635248E-06, 3.3365484960507945E-10, 8.1600000000000006E-13
DataValue, 0.45, 0.1, 0, 1.4830000000000002E-11, -1.4148000000000002E-11, 6.86E-13, 1.4830000000000002E-11, 3.8509739027939414E-06, 5.4286153505347944E-10, 6.86E-13
DataValue, 0.5, 0.1, 0, 2.4571E-11, -2.5799000000000002E-11, 8.1300000000000007E-13, 2.4571E-11, 4.9569143627865914E-06, 5.6945861817611252E-10, 8.1300000000000007E-13
DataValue, 0.55, 0.1, 0, 3.8904000000000005E-11, -3.7863000000000005E-11, 1.017E-12, 3.8904000000000005E-11, 6.2373071112460068E-06, 7.43456297632357E-10, 1.017E-12
DataValue, 0.6, 0.1, 0, 5.903700000000001E-11, -5.9647000000000009E-11, 9.72E-13, 5.903700000000001E-11, 7.6835538652371017E-06, 1.1017842977077792E-09, 9.72E-13
DataValue, 0.65, 0.1, 0, 9.1329E-11, -8.734200000000001E-11, 1.13E-12, 9.1329E-11, 9.5566207416638653E-06, 1.448535508726751E-09, 1.13E-12
DataValue, 0.70000000000000007, 0.1, 0, 1.32009E-10, -1.26855E-10, 1.166E-12, 1.32009E-10, 1.1489516961125911E-05, 1.7215702552447457E-09, 1.166E-12
DataValue, 0.75, 0.1, 0, 1.8784900000000002E-10, -1.7797400000000002E-10, 1.2590000000000002E-12, 1.8784900000000002E-10, 1.3705801691254694E-05, 2.004979238704089E-09, 1.2590000000000002E-12
DataValue, 0.8, 0.1, 0, 2.54952E-10, -2.44418E-10, 1.289E-12, 2.54952E-10, 1.5967216413639543E-05, 2.2372955418470125E-09, 1.289E-12
DataValue, 0.85000000000000009, 0.1, 0, 3.39879E-10, -3.26283E-10, 1.3630000000000002E-12, 3.39879E-10, 1.84358075494403E-05, 2.6682951706496227E-09, 1.3630000000000002E-12
DataValue, 0.9, 0.1, 0, 4.4659400000000004E-10, -4.2911000000000003E-10, 1.362E-12, 4.4659400000000004E-10, 2.1132770760125137E-05, 3.1214735856253292E-09, 1.362E-12
DataValue, 0.95000000000000007, 0.1, 0, 5.7709600000000007E-10, -5.5563200000000009E-10, 1.4360000000000001E-12, 5.7709600000000007E-10, 2.4022822481964939E-05, 3.5117459563911485E-09, 1.4360000000000001E-12
DataValue, 1, 0.1, 0, 7.32177E-10, -7.06685E-10, 1.5030000000000002E-12, 7.32177E-10, 2.705876937334734E-05, 2.8870339132350264E-09, 1.5030000000000002E-12
DataValue, 1.05, 0.1, 0, 8.64121E-10, -8.4584100000000006E-10, 1.416E-12, 8.64121E-10, 2.9395935093138303E-05, 2.9319607522177536E-09, 1.416E-12
DataValue, 1.1, 0.1, 0, 1.05453E-09, -1.01699E-09, 1.544E-12, 1.05453E-09, 3.2473527680250575E-05, 5.3341403567841235E-09, 1.544E-12
DataValue, 1.1500000000000001, 0.1, 0, 1.34685E-09, -1.33104E-09, 1.669E-12, 1.34685E-09, 3.6699455036825821E-05, 6.8657979628379012E-09, 1.669E-12
DataValue, 1.2, 0.1, 0, 1.66134E-09, -1.63588E-09, 1.8950000000000003E-12, 1.66134E-09, 4.0759538760883936E-05, 6.25142976900818E-09, 1.8950000000000003E-12
DataValue, 1.25, 0.1, 0, 1.9897E-09, -1.96121E-09, 1.8450000000000003E-12, 1.9897E-09, 4.4606053400855806E-05, 5.5513375369764321E-09, 1.8450000000000003E-12
DataValue, 1.3, 0.1, 0, 2.32423E-09, -2.29229E-09, 2.0450000000000003E-12, 2.32423E-09, 4.8210268615721274E-05, 4.9822958066606076E-09, 2.0450000000000003E-12
DataValue, 1.35, 0.1, 0, 2.66923E-09, -2.62294E-09, 1.95E-12, 2.66923E-09, 5.1664591356169652E-05, 4.3395703798189618E-09, 1.95E-12
DataValue, 1.4000000000000001, 0.1, 0, 3.0028E-09, -2.95376E-09, 1.955E-12, 3.0028E-09, 5.4797810175225069E-05, 3.7523376350298527E-09, 1.955E-12
DataValue, 1.4500000000000002, 0.1, 0, 3.33971E-09, -3.29213E-09, 2.1000000000000003E-12, 3.33971E-09, 5.7790224086777861E-05, 3.4061885931981147E-09, 2.1000000000000003E-12
DataValue, 1.5, 0.1, 0, 3.67649E-09, -3.6135E-09, 2.156E-12, 3.67649E-09, 6.0634066332384473E-05, 3.0834578391948E-09, 2.156E-12
DataValue, 1.55, 0.1, 0, 4.01235E-09, -3.95267E-09, 2.2170000000000003E-12, 4.01235E-09, 6.3343113279977012E-05, 2.7231910770707618E-09, 2.2170000000000003E-12
DataValue, 1.6, 0.1, 0, 4.33655E-09, -4.26813E-09, 2.265E-12, 4.33655E-09, 6.5852486665273312E-05, 2.4268951993403579E-09, 2.265E-12
DataValue, 1.6500000000000001, 0.1, 0, 4.66072E-09, -4.61118E-09, 2.201E-12, 4.66072E-09, 6.8269466088435174E-05, 2.3034302219859042E-09, 2.201E-12
DataValue, 1.7000000000000002, 0.1, 0, 4.99169E-09, -4.94248E-09, 2.3550000000000004E-12, 4.99169E-09, 7.0651893109809874E-05, 2.2295076630683554E-09, 2.3550000000000004E-12
DataValue, 1.75, 0.1, 0, 5.32772E-09, -5.28081E-09, 2.6040000000000002E-12, 5.32772E-09, 7.2991232350193955E-05, 2.2110101490353989E-09, 2.6040000000000002E-12
DataValue, 1.8, 0.1, 0, 5.67823E-09, -5.63033E-09, 2.6840000000000003E-12, 5.67823E-09, 7.53540310799628E-05, 2.0482847868843315E-09, 2.6840000000000003E-12
DataValue, 1.85, 0.1, 0, 6.00889E-09, -5.90993E-09, 2.9150000000000004E-12, 6.00889E-09, 7.7517030386876917E-05, 1.837224204432702E-09, 2.9150000000000004E-12
DataValue, 1.9000000000000001, 0.1, 0, 6.34258E-09, -6.24152E-09, 2.8050000000000003E-12, 6.34258E-09, 7.964031642327898E-05, 1.6753799544687196E-09, 2.8050000000000003E-12
DataValue, 1.9500000000000002, 0.1, 0, 6.66022E-09, -6.58408E-09, 2.679E-12, 6.66022E-09, 8.1610170934755431E-05, 1.7097551670404885E-09, 2.679E-12
DataValue, 2, 0.1, 0, 7.01829E-09, -6.91011E-09, 2.7550000000000003E-12, 7.01829E-09, 8.3775235004146666E-05, 1.5107576158320528E-09, 2.7550000000000003E-12
DataValue, 2.05, 0.1, 0, 7.30974E-09, -7.22505E-09, 2.8600000000000003E-12, 7.30974E-09, 8.5497017491840033E-05, 1.1701930684725559E-09, 2.8600000000000003E-12
DataValue, 2.1, 0.1, 0, 7.60315E-09, -7.57035E-09, 2.9050000000000002E-12, 7.60315E-09, 8.7196043488222555E-05, 1.9862606393850451E-09, 2.9050000000000002E-12
DataValue, 2.15, 0.1, 0, 8.09168E-09, -7.92264E-09, 3.134E-12, 8.09168E-09, 8.99537659022678E-05, 2.1059210578287546E-09, 3.134E-12
DataValue, 2.2, 0.1, 0, 8.4245E-09, -8.2889E-09, 2.8420000000000002E-12, 8.4245E-09, 9.17850750394638E-05, 1.329658135904315E-09, 2.8420000000000002E-12
DataValue, 2.25, 0.1, 0, 8.761E-09, -8.6561E-09, 2.924E-12, 8.761E-09, 9.3600213674969779E-05, 1.3253989086107192E-09, 2.924E-12
DataValue, 2.3000000000000003, 0.1, 0, 9.10606E-09, -8.9713E-09, 3.2030000000000004E-12, 9.10606E-09, 9.5425677885986224E-05, 1.5128837731603886E-09, 3.2030000000000004E-12
