
SetupTitle, Transfer stab
PrimitiveTest, I/V Sweep
TestParameter, Context.MainFrame, 4155C
TestParameter, Channel.UnitType, SMU, SMU, SMU
TestParameter, Channel.Unit, SMU3:MP, SMU4:MP, SMU1:MP
TestParameter, Channel.IName, ID, IS, IG
TestParameter, Channel.VName, VD, VS, VG
TestParameter, Channel.Mode, V, COMMON, V
TestParameter, Channel.Func, CONST, CONST, VAR1
TestParameter, Channel.Index, 
TestParameter, Channel.Time, 
TestParameter, Measurement.Port.Unit, SMU3:MP, SMU4:MP, SMU1:MP
TestParameter, Measurement.Port.SeriesResistor, NONE, NONE, NONE
TestParameter, Measurement.Port.Filter, ON, ON, ON
TestParameter, Measurement.Primary.Locus, Single
TestParameter, Measurement.Primary.Scale, LINEAR
TestParameter, Measurement.Primary.Start, -2
TestParameter, Measurement.Primary.Stop, 3
TestParameter, Measurement.Primary.Step, 0.05
TestParameter, Measurement.Primary.Compliance, 0.1
TestParameter, Measurement.Primary.PowerCompliance, 0
TestParameter, Measurement.Aborting.Condition, CONTINUE AT ANY
TestParameter, Measurement.PostOutput.Value, START
TestParameter, Measurement.PostOutput.Retention, OFF
TestParameter, Measurement.Bias.Source, 3, 0, -2
TestParameter, Measurement.Bias.Compliance, 0.1, 0.1, 0.1
TestParameter, Measurement.Monitor.Unit, SMU3:MP, SMU4:MP, SMU1:MP
TestParameter, Measurement.Monitor.Adc, HR ADC, HR ADC, HR ADC
TestParameter, Measurement.Monitor.RangingMode, AUTO, AUTO, AUTO
TestParameter, Measurement.Monitor.RangeBoundary, , , 
TestParameter, Measurement.Monitor.RangeRating, BY FULL RANGE, BY FULL RANGE, BY FULL RANGE
TestParameter, Measurement.Monitor.RangeRatingCoeff, 50, 50, 50
TestParameter, Measurement.Timing.Hold, 0.5
TestParameter, Measurement.Timing.Delay, 0.05
TestParameter, Measurement.Adc.HighResolution.AutoZero, OFF
TestParameter, Measurement.Adc.HighResolution.Mode, AUTO
TestParameter, Measurement.Adc.HighResolution.Coeff, 1
TestParameter, Measurement.Ag16440ASelector.SemiconductorRelay.Channel1, DEFAULT
TestParameter, Measurement.Ag16440ASelector.SemiconductorRelay.Channel3, DEFAULT
TestParameter, Function.User.Name, absID, sqrtID, gm2, absIG
TestParameter, Function.User.Unit, A, A, A/V, A
TestParameter, Function.User.Definition, abs(ID), sqrt(abs(ID)), (delta(sqrtID)/delta(VG))^2, abs(IG)
TestParameter, Output.Graph.Enabled, true
TestParameter, Output.Graph.XAxis.Data, VG
TestParameter, Output.Graph.XAxis.Scale, Linear
TestParameter, Output.Graph.XAxis.Left, -5
TestParameter, Output.Graph.XAxis.Right, 7
TestParameter, Output.Graph.YAxis.Data, ID, absIG, gm2
TestParameter, Output.Graph.YAxis.Scale, Log, Log, Linear
TestParameter, Output.Graph.YAxis.Bottom, 1E-14, 1E-14, 0
TestParameter, Output.Graph.YAxis.Top, 0.01, 0.01, 1E-05
TestParameter, Output.Graph.YAxis.Group, , , 
TestParameter, Output.List.Data, VG, IG, VD, ID, VS, IS, sqrtID, gm2, absIG
TestParameter, AutoAnalysis.Interpolation, false
TestParameter, AutoAnalysis.Line1.Enabled, false
TestParameter, AutoAnalysis.Line1.Type, 1
TestParameter, AutoAnalysis.Line1.Fix, True
TestParameter, AutoAnalysis.Line1.YAxis, 0
TestParameter, AutoAnalysis.Line1.Point1.Type, 0
TestParameter, AutoAnalysis.Line1.Point1.XY.X, 
TestParameter, AutoAnalysis.Line1.Point1.XY.Y, 
TestParameter, AutoAnalysis.Line1.Point1.Data.Var, 
TestParameter, AutoAnalysis.Line1.Point1.Data.Condition, 
TestParameter, AutoAnalysis.Line1.Point1.Data.Start, false
TestParameter, AutoAnalysis.Line1.Point1.Data.StartVar, 
TestParameter, AutoAnalysis.Line1.Point1.Data.StartCondition, 
TestParameter, AutoAnalysis.Line1.Point2.Type, 0
TestParameter, AutoAnalysis.Line1.Point2.XY.X, 
TestParameter, AutoAnalysis.Line1.Point2.XY.Y, 
TestParameter, AutoAnalysis.Line1.Point2.Data.Var, 
TestParameter, AutoAnalysis.Line1.Point2.Data.Condition, 
TestParameter, AutoAnalysis.Line1.Point2.Data.Start, false
TestParameter, AutoAnalysis.Line1.Point2.Data.StartVar, 
TestParameter, AutoAnalysis.Line1.Point2.Data.StartCondition, 
TestParameter, AutoAnalysis.Line1.GradientExpr, 0
TestParameter, AutoAnalysis.Line2.Enabled, false
TestParameter, AutoAnalysis.Line2.Type, 1
TestParameter, AutoAnalysis.Line2.Fix, True
TestParameter, AutoAnalysis.Line2.YAxis, 0
TestParameter, AutoAnalysis.Line2.Point1.Type, 0
TestParameter, AutoAnalysis.Line2.Point1.XY.X, 
TestParameter, AutoAnalysis.Line2.Point1.XY.Y, 
TestParameter, AutoAnalysis.Line2.Point1.Data.Var, 
TestParameter, AutoAnalysis.Line2.Point1.Data.Condition, 
TestParameter, AutoAnalysis.Line2.Point1.Data.Start, false
TestParameter, AutoAnalysis.Line2.Point1.Data.StartVar, 
TestParameter, AutoAnalysis.Line2.Point1.Data.StartCondition, 
TestParameter, AutoAnalysis.Line2.Point2.Type, 0
TestParameter, AutoAnalysis.Line2.Point2.XY.X, 
TestParameter, AutoAnalysis.Line2.Point2.XY.Y, 
TestParameter, AutoAnalysis.Line2.Point2.Data.Var, 
TestParameter, AutoAnalysis.Line2.Point2.Data.Condition, 
TestParameter, AutoAnalysis.Line2.Point2.Data.Start, false
TestParameter, AutoAnalysis.Line2.Point2.Data.StartVar, 
TestParameter, AutoAnalysis.Line2.Point2.Data.StartCondition, 
TestParameter, AutoAnalysis.Line2.GradientExpr, 0
TestParameter, AutoAnalysis.Marker.Enabled, false
TestParameter, AutoAnalysis.Marker.Data.Var, 
TestParameter, AutoAnalysis.Marker.Data.Condition, 
TestParameter, AutoAnalysis.Marker.Data.Start, false
TestParameter, AutoAnalysis.Marker.Data.StartVar, 
TestParameter, AutoAnalysis.Marker.Data.StartCondition, 
MetaData, TestRecord.EntryPoint, true
MetaData, TestRecord.RecordTime, 06/18/2019 12:49:21
MetaData, TestRecord.TestTarget, 12-36
MetaData, TestRecord.IterationIndex, 11
MetaData, TestRecord.Preservation, true
MetaData, TestRecord.Flag, 
MetaData, TestRecord.Remarks, leak
MetaData, TestRecord.LinkKey, ea3e1142-67ce-4434-90c1-936194b199ac
Dimension1, 101, 101, 101, 101, 101, 101, 101, 101, 101, 101
Dimension2, 1, 1, 1, 1, 1, 1, 1, 1, 1, 1
DataName, VG, VD, VS, ID, IS, IG, absID, sqrtID, gm2, absIG
DataValue, -2, 3, 0, 0.00196345, 1.4746000000000002E-11, -0.00196325, 0.00196345, 0.044310833889693382, 1.8690578734313858E-05, 0.00196325
DataValue, -1.9500000000000002, 3, 0, 0.0019443400000000001, 1.4767E-11, -0.00194425, 0.0019443400000000001, 0.044094670879824015, 1.8684128565591251E-05, 0.00194425
DataValue, -1.9000000000000001, 3, 0, 0.00192533, 1.6371000000000003E-11, -0.00192527, 0.00192533, 0.043878582474824776, 1.8740475350412675E-05, 0.00192527
DataValue, -1.85, 3, 0, 0.00190635, 1.7074E-11, -0.00190629, 0.00190635, 0.0436617681730825, 1.8907341650603784E-05, 0.00190629
DataValue, -1.8, 3, 0, 0.00188736, 1.7693000000000002E-11, -0.00188733, 0.00188736, 0.043443756743633488, 1.9148074338422323E-05, 0.00188733
DataValue, -1.75, 3, 0, 0.00186833, 1.5652E-11, -0.0018683200000000001, 0.00186833, 0.043224183046068086, 1.9322257688082707E-05, 0.0018683200000000001
DataValue, -1.7000000000000002, 3, 0, 0.00184936, 1.3418000000000001E-11, -0.0018493000000000001, 0.00184936, 0.043004185842775815, 1.9562429620578266E-05, 0.0018493000000000001
DataValue, -1.6500000000000001, 3, 0, 0.00183029, 1.4727E-11, -0.0018303, 0.00183029, 0.042781888691360972, 1.9765189340108016E-05, 0.0018303
DataValue, -1.6, 3, 0, 0.00181132, 1.4300000000000002E-11, -0.0018112900000000001, 0.00181132, 0.042559605261327321, 2.0036689600673954E-05, 0.0018112900000000001
DataValue, -1.55, 3, 0, 0.0017921900000000002, 1.1775000000000001E-11, -0.00179218, 0.0017921900000000002, 0.042334265081609722, 2.0334356480548726E-05, 0.00179218
DataValue, -1.5, 3, 0, 0.00177314, 1.0861E-11, -0.00177313, 0.00177314, 0.04210866894120497, 2.0165922280211509E-05, 0.00177313
DataValue, -1.4500000000000002, 3, 0, 0.00175437, 7.779E-12, -0.00175434, 0.00175437, 0.041885200250207713, 2.0460866162320023E-05, 0.00175434
DataValue, -1.4000000000000001, 3, 0, 0.00173525, 8.408E-12, -0.00173524, 0.00173525, 0.041656332051682128, 2.1090340244651497E-05, 0.00173524
DataValue, -1.35, 3, 0, 0.00171611, 6.3940000000000004E-12, -0.0017161000000000001, 0.00171611, 0.041425958045650559, 2.132533093510276E-05, 0.0017161000000000001
DataValue, -1.3, 3, 0, 0.00169699, 4.7370000000000005E-12, -0.00169699, 0.00169699, 0.041194538472957794, 2.1577210294795331E-05, 0.00169699
DataValue, -1.25, 3, 0, 0.00167784, 3.226E-12, -0.00167782, 0.00167784, 0.04096144528700129, 2.1857533721601E-05, 0.00167782
DataValue, -1.2, 3, 0, 0.00165869, 2.4540000000000002E-12, -0.0016586700000000001, 0.00165869, 0.040727018059268712, 2.21563766527193E-05, 0.0016586700000000001
DataValue, -1.1500000000000001, 3, 0, 0.0016395000000000001, 5.12E-13, -0.00163948, 0.0016395000000000001, 0.0404907396820557, 2.2485812069216944E-05, 0.00163948
DataValue, -1.1, 3, 0, 0.0016202900000000001, 1.418E-12, -0.00162026, 0.0016202900000000001, 0.040252825987748986, 2.2799849151259859E-05, 0.00162026
DataValue, -1.05, 3, 0, 0.00160106, 9.0800000000000007E-13, -0.0016010500000000001, 0.00160106, 0.04001324780619539, 2.3109673085855811E-05, 0.0016010500000000001
DataValue, -1, 3, 0, 0.00158182, -3.5500000000000005E-13, -0.00158182, 0.00158182, 0.039772100774286494, 2.3451849142161319E-05, 0.00158182
DataValue, -0.95000000000000007, 3, 0, 0.00156254, -1.3820000000000002E-12, -0.00156254, 0.00156254, 0.039528976713292238, 2.3740636548074952E-05, 0.00156254
DataValue, -0.9, 3, 0, 0.0015433, -2.18E-12, -0.00154326, 0.0015433, 0.039284857133506289, 2.408750989485406E-05, 0.00154326
DataValue, -0.85000000000000009, 3, 0, 0.00152398, -4.2110000000000005E-12, -0.00152395, 0.00152398, 0.039038186433286062, 2.4468078345097035E-05, 0.00152395
DataValue, -0.8, 3, 0, 0.00150468, -3.8400000000000006E-12, -0.0015046600000000001, 0.00150468, 0.038790204949187883, 2.4795193284900491E-05, 0.0015046600000000001
DataValue, -0.75, 3, 0, 0.00148535, -4.2530000000000006E-12, -0.00148531, 0.00148535, 0.038540238712286151, 2.5195992550570415E-05, 0.00148531
DataValue, -0.70000000000000007, 3, 0, 0.0014659900000000001, -6.2020000000000004E-12, -0.001466, 0.0014659900000000001, 0.038288248850006187, 2.55814067135225E-05, 0.001466
DataValue, -0.65, 3, 0, 0.00144662, -6.245E-12, -0.0014466, 0.00144662, 0.0380344580610793, 2.5923789929809297E-05, 0.0014466
DataValue, -0.6, 3, 0, 0.00142726, -6.5120000000000005E-12, -0.0014272500000000001, 0.00142726, 0.03777909474828639, 2.6357679635789696E-05, 0.0014272500000000001
DataValue, -0.55, 3, 0, 0.00140783, -8.5710000000000013E-12, -0.00140781, 0.00140783, 0.037521060752596, 2.6761800252073727E-05, 0.00140781
DataValue, -0.5, 3, 0, 0.0013884400000000001, -7.8890000000000008E-12, -0.0013884400000000001, 0.0013884400000000001, 0.037261776661882351, 2.7192695625711842E-05, 0.0013884400000000001
DataValue, -0.45, 3, 0, 0.00136897, -8.263E-12, -0.00136897, 0.00136897, 0.036999594592373578, 2.763508809066192E-05, 0.00136897
DataValue, -0.4, 3, 0, 0.00134954, -9.083E-12, -0.00134953, 0.00134954, 0.036736085801293526, 2.8048350166443384E-05, 0.00134953
DataValue, -0.35000000000000003, 3, 0, 0.00133006, -9.1450000000000011E-12, -0.00133004, 0.00133006, 0.03646998766108922, 2.8061680507571556E-05, 0.00133004
DataValue, -0.3, 3, 0, 0.0013109, -8.8390000000000014E-12, -0.00131087, 0.0013109, 0.036206353033687334, 2.8553072708333091E-05, 0.00131087
DataValue, -0.25, 3, 0, 0.00129137, -1.0235E-11, -0.00129135, 0.00129137, 0.035935636908228021, 2.9537832851099086E-05, 0.00129135
DataValue, -0.2, 3, 0, 0.00127184, -1.3088E-11, -0.00127181, 0.00127184, 0.035662865841095834, 2.9975986774691283E-05, 0.00127181
DataValue, -0.15, 3, 0, 0.0012523200000000001, -1.4555000000000002E-11, -0.00125228, 0.0012523200000000001, 0.03538813360435953, 3.0522146630243243E-05, 0.00125228
DataValue, -0.1, 3, 0, 0.00123274, -2.2161000000000003E-11, -0.00123271, 0.00123274, 0.035110397320451958, 3.1053480453635178E-05, 0.00123271
DataValue, -0.05, 3, 0, 0.00121319, -2.9758000000000005E-11, -0.00121317, 0.00121319, 0.034830877106383641, 3.2060814940921835E-05, 0.00121317
DataValue, 0, 3, 0, 0.0011933, -4.4749000000000005E-11, -0.00119327, 0.0011933, 0.034544174617437307, 3.2619400787013475E-05, 0.00119327
DataValue, 0.05, 3, 0, 0.00117373, -6.0833000000000011E-11, -0.00117372, 0.00117373, 0.034259743139725962, 3.2665633719340919E-05, 0.00117372
DataValue, 0.1, 3, 0, 0.0011541400000000001, -9.1181000000000011E-11, -0.0011541, 0.0011541400000000001, 0.033972636047266046, 3.327095174357826E-05, 0.0011541
DataValue, 0.15, 3, 0, 0.00113454, -1.17463E-10, -0.0011345, 0.00113454, 0.033682933363945608, 3.3967593492803204E-05, 0.0011345
DataValue, 0.2, 3, 0, 0.00111488, -1.50833E-10, -0.0011148500000000001, 0.00111488, 0.033389818807534728, 3.4582598867492619E-05, 0.0011148500000000001
DataValue, 0.25, 3, 0, 0.00109527, -1.7634800000000003E-10, -0.00109523, 0.00109527, 0.03309486364981732, 3.5239658232050814E-05, 0.00109523
DataValue, 0.3, 3, 0, 0.00107559, -1.98255E-10, -0.00107556, 0.00107559, 0.032796188802969167, 3.5992916688092123E-05, 0.00107556
DataValue, 0.35000000000000003, 3, 0, 0.0010559200000000001, -2.1975400000000003E-10, -0.00105589, 0.0010559200000000001, 0.032494922680320386, 3.6682675651080832E-05, 0.00105589
DataValue, 0.4, 3, 0, 0.00103623, -2.35498E-10, -0.00103618, 0.00103623, 0.032190526556737153, 3.7436663137221864E-05, 0.00103618
DataValue, 0.45, 3, 0, 0.00101653, -2.49235E-10, -0.00101652, 0.00101653, 0.031883067606489811, 3.821869868568644E-05, 0.00101652
DataValue, 0.5, 3, 0, 0.000996811, -2.56514E-10, -0.000996825, 0.000996811, 0.031572313820814588, 3.8994129184665684E-05, 0.000996825
DataValue, 0.55, 3, 0, 0.000977101, -2.66782E-10, -0.000977119, 0.000977101, 0.031258614812560072, 3.9860776380708937E-05, 0.000977119
DataValue, 0.6, 3, 0, 0.000957343, -2.76443E-10, -0.00095735900000000007, 0.000957343, 0.030940959907540037, 4.0742020317018512E-05, 0.00095735900000000007
DataValue, 0.65, 3, 0, 0.00093760400000000008, -2.8553500000000004E-10, -0.0009376190000000001, 0.00093760400000000008, 0.030620320050580793, 4.1634838891690063E-05, 0.0009376190000000001
DataValue, 0.70000000000000007, 3, 0, 0.00091783, -2.99207E-10, -0.00091784800000000008, 0.00091783, 0.030295709267155309, 4.2597920814642254E-05, 0.00091784800000000008
DataValue, 0.75, 3, 0, 0.00089806, -3.08047E-10, -0.00089807700000000005, 0.00089806, 0.029967649223787973, 4.354499944039179E-05, 0.00089807700000000005
DataValue, 0.8, 3, 0, 0.00087828200000000009, -3.16925E-10, -0.00087829400000000006, 0.00087828200000000009, 0.029635822917543561, 4.4550486877144862E-05, 0.00087829400000000006
DataValue, 0.85000000000000009, 3, 0, 0.000858501, -3.25758E-10, -0.00085851800000000006, 0.000858501, 0.029300187712709282, 4.5661060806788175E-05, 0.00085851800000000006
DataValue, 0.9, 3, 0, 0.00083868700000000007, -3.4246200000000004E-10, -0.00083870200000000009, 0.00083868700000000007, 0.028960093231894128, 4.682193721429832E-05, 0.00083870200000000009
DataValue, 0.95000000000000007, 3, 0, 0.0008188710000000001, -3.5374200000000003E-10, -0.0008188850000000001, 0.0008188710000000001, 0.028615922141353407, 4.8043435495504358E-05, 0.0008188850000000001
DataValue, 1, 3, 0, 0.000799021, -3.70042E-10, -0.00079903100000000007, 0.000799021, 0.028266959511061673, 4.9278009172965811E-05, 0.00079903100000000007
DataValue, 1.05, 3, 0, 0.000779188, -3.8149100000000005E-10, -0.000779202, 0.000779188, 0.027913939170242527, 5.0582821020387951E-05, 0.000779202
DataValue, 1.1, 3, 0, 0.000759319, -3.9888900000000005E-10, -0.00075933300000000006, 0.000759319, 0.027555743502943267, 5.1991897385207414E-05, 0.00075933300000000006
DataValue, 1.1500000000000001, 3, 0, 0.000739453, -4.13107E-10, -0.000739465, 0.000739453, 0.027192885098863636, 5.3392137140623551E-05, 0.000739465
DataValue, 1.2, 3, 0, 0.00071958300000000009, -4.2539200000000003E-10, -0.000719594, 0.00071958300000000009, 0.026825044268369812, 5.4903128579883373E-05, 0.000719594
DataValue, 1.25, 3, 0, 0.000699704, -4.3943300000000003E-10, -0.000699713, 0.000699704, 0.026451918644967893, 5.6555122757175522E-05, 0.000699713
DataValue, 1.3, 3, 0, 0.00067980200000000008, -4.5271700000000004E-10, -0.00067980800000000006, 0.00067980200000000008, 0.02607301286771439, 5.8289814439788733E-05, 0.00067980800000000006
DataValue, 1.35, 3, 0, 0.00065989600000000009, -4.67741E-10, -0.000659912, 0.00065989600000000009, 0.025688440980331993, 5.9151500503798362E-05, 0.000659912
DataValue, 1.4000000000000001, 3, 0, 0.000640288, -4.84164E-10, -0.000640294, 0.000640288, 0.025303912740918155, 6.1120386114441321E-05, 0.000640294
DataValue, 1.4500000000000002, 3, 0, 0.00062034100000000006, -5.01551E-10, -0.00062034900000000007, 0.00062034100000000006, 0.024906645699491532, 6.4080795831379986E-05, 0.00062034900000000007
DataValue, 1.5, 3, 0, 0.000600417, -5.18356E-10, -0.000600433, 0.000600417, 0.024503407926245689, 6.64272108293362E-05, 0.000600433
DataValue, 1.55, 3, 0, 0.000580406, -5.36318E-10, -0.000580421, 0.000580406, 0.024091616799210468, 6.8701658487153292E-05, 0.000580421
DataValue, 1.6, 3, 0, 0.000560484, -5.53139E-10, -0.000560498, 0.000560484, 0.023674543290209422, 7.0985814165309334E-05, 0.000560498
DataValue, 1.6500000000000001, 3, 0, 0.00054052000000000006, -5.7105800000000008E-10, -0.000540532, 0.00054052000000000006, 0.023249086003540011, 7.3697828050969111E-05, 0.000540532
DataValue, 1.7000000000000002, 3, 0, 0.00052057300000000009, -5.9123500000000008E-10, -0.000520583, 0.00052057300000000009, 0.022816068898914205, 7.6682705548373871E-05, 0.000520583
DataValue, 1.75, 3, 0, 0.00050056900000000008, -6.1384800000000009E-10, -0.00050058, 0.00050056900000000008, 0.022373399384090029, 7.9773212074091263E-05, 0.00050058
DataValue, 1.8, 3, 0, 0.00048061400000000003, -6.33221E-10, -0.00048062200000000005, 0.00048061400000000003, 0.021922910390730518, 8.3071015900595312E-05, 0.00048062200000000005
DataValue, 1.85, 3, 0, 0.000460616, -6.547090000000001E-10, -0.00046062100000000003, 0.000460616, 0.021461966359120035, 8.6810544386811892E-05, 0.00046062100000000003
DataValue, 1.9000000000000001, 3, 0, 0.00044063, -6.777660000000001E-10, -0.000440641, 0.00044063, 0.0209911886276123, 9.0796279183704288E-05, 0.000440641
DataValue, 1.9500000000000002, 3, 0, 0.000420623, -6.99644E-10, -0.00042063200000000005, 0.000420623, 0.020509095543197412, 9.5081045921385353E-05, 0.00042063200000000005
DataValue, 2, 3, 0, 0.000400644, -7.21465E-10, -0.00040064800000000003, 0.000400644, 0.020016093524961358, 9.9932396956480861E-05, 0.00040064800000000003
DataValue, 2.05, 3, 0, 0.00038061800000000005, -7.490960000000001E-10, -0.000380626, 0.00038061800000000005, 0.019509433615561473, 0.00010530354324087921, 0.000380626
DataValue, 2.1, 3, 0, 0.00036061700000000003, -7.74966E-10, -0.000360623, 0.00036061700000000003, 0.018989918377918323, 0.00011129175312827989, 0.000360623
DataValue, 2.15, 3, 0, 0.000340568, -8.0306500000000006E-10, -0.00034057, 0.000340568, 0.018454484549832326, 0.00011789892271267528, 0.00034057
DataValue, 2.2, 3, 0, 0.000320557, -8.3129400000000007E-10, -0.00032056200000000004, 0.000320557, 0.017904105674397704, 0.00012524207995369657, 0.00032056200000000004
DataValue, 2.25, 3, 0, 0.000300515, -8.58384E-10, -0.000300518, 0.000300515, 0.0173353684702691, 0.000133723647258483, 0.000300518
DataValue, 2.3000000000000003, 3, 0, 0.00028048600000000004, -8.5431700000000008E-10, -0.000280492, 0.00028048600000000004, 0.01674771626222513, 0.00014323593299886951, 0.000280492
DataValue, 2.35, 3, 0, 0.000260453, -8.6118400000000005E-10, -0.000260461, 0.000260453, 0.016138556317093548, 0.00015421024082800183, 0.000260461
DataValue, 2.4, 3, 0, 0.00024043300000000002, -8.8489300000000006E-10, -0.00024043500000000003, 0.00024043300000000002, 0.015505902102102929, 0.00016727673429064728, 0.00024043500000000003
DataValue, 2.45, 3, 0, 0.00022038, -9.1698200000000009E-10, -0.00022038300000000002, 0.00022038, 0.014845201244846767, 0.00018273256411464292, 0.00022038300000000002
DataValue, 2.5, 3, 0, 0.000200339, -9.3509400000000016E-10, -0.00020034500000000002, 0.000200339, 0.014154116009133175, 0.00020137596864459089, 0.00020034500000000002
