
SetupTitle, Transfer stab
PrimitiveTest, I/V Sweep
TestParameter, Context.MainFrame, 4155C
TestParameter, Channel.UnitType, SMU, SMU, SMU
TestParameter, Channel.Unit, SMU3:MP, SMU4:MP, SMU1:MP
TestParameter, Channel.IName, ID, IS, IG
TestParameter, Channel.VName, VD, VS, VG
TestParameter, Channel.Mode, V, COMMON, V
TestParameter, Channel.Func, CONST, CONST, VAR1
TestParameter, Channel.Index, 
TestParameter, Channel.Time, 
TestParameter, Measurement.Port.Unit, SMU3:MP, SMU4:MP, SMU1:MP
TestParameter, Measurement.Port.SeriesResistor, NONE, NONE, NONE
TestParameter, Measurement.Port.Filter, ON, ON, ON
TestParameter, Measurement.Primary.Locus, Single
TestParameter, Measurement.Primary.Scale, LINEAR
TestParameter, Measurement.Primary.Start, -2
TestParameter, Measurement.Primary.Stop, 3
TestParameter, Measurement.Primary.Step, 0.05
TestParameter, Measurement.Primary.Compliance, 0.1
TestParameter, Measurement.Primary.PowerCompliance, 0
TestParameter, Measurement.Aborting.Condition, CONTINUE AT ANY
TestParameter, Measurement.PostOutput.Value, START
TestParameter, Measurement.PostOutput.Retention, OFF
TestParameter, Measurement.Bias.Source, 3, 0, -2
TestParameter, Measurement.Bias.Compliance, 0.1, 0.1, 0.1
TestParameter, Measurement.Monitor.Unit, SMU3:MP, SMU4:MP, SMU1:MP
TestParameter, Measurement.Monitor.Adc, HR ADC, HR ADC, HR ADC
TestParameter, Measurement.Monitor.RangingMode, AUTO, AUTO, AUTO
TestParameter, Measurement.Monitor.RangeBoundary, , , 
TestParameter, Measurement.Monitor.RangeRating, BY FULL RANGE, BY FULL RANGE, BY FULL RANGE
TestParameter, Measurement.Monitor.RangeRatingCoeff, 50, 50, 50
TestParameter, Measurement.Timing.Hold, 0.5
TestParameter, Measurement.Timing.Delay, 0.05
TestParameter, Measurement.Adc.HighResolution.AutoZero, OFF
TestParameter, Measurement.Adc.HighResolution.Mode, AUTO
TestParameter, Measurement.Adc.HighResolution.Coeff, 1
TestParameter, Measurement.Ag16440ASelector.SemiconductorRelay.Channel1, DEFAULT
TestParameter, Measurement.Ag16440ASelector.SemiconductorRelay.Channel3, DEFAULT
TestParameter, Function.User.Name, absID, sqrtID, gm2, absIG
TestParameter, Function.User.Unit, A, A, A/V, A
TestParameter, Function.User.Definition, abs(ID), sqrt(abs(ID)), (delta(sqrtID)/delta(VG))^2, abs(IG)
TestParameter, Output.Graph.Enabled, true
TestParameter, Output.Graph.XAxis.Data, VG
TestParameter, Output.Graph.XAxis.Scale, Linear
TestParameter, Output.Graph.XAxis.Left, -5
TestParameter, Output.Graph.XAxis.Right, 7
TestParameter, Output.Graph.YAxis.Data, ID, absIG, gm2
TestParameter, Output.Graph.YAxis.Scale, Log, Log, Linear
TestParameter, Output.Graph.YAxis.Bottom, 1E-14, 1E-14, 0
TestParameter, Output.Graph.YAxis.Top, 0.01, 0.01, 1E-05
TestParameter, Output.Graph.YAxis.Group, , , 
TestParameter, Output.List.Data, VG, IG, VD, ID, VS, IS, sqrtID, gm2, absIG
TestParameter, AutoAnalysis.Interpolation, false
TestParameter, AutoAnalysis.Line1.Enabled, false
TestParameter, AutoAnalysis.Line1.Type, 1
TestParameter, AutoAnalysis.Line1.Fix, True
TestParameter, AutoAnalysis.Line1.YAxis, 0
TestParameter, AutoAnalysis.Line1.Point1.Type, 0
TestParameter, AutoAnalysis.Line1.Point1.XY.X, 
TestParameter, AutoAnalysis.Line1.Point1.XY.Y, 
TestParameter, AutoAnalysis.Line1.Point1.Data.Var, 
TestParameter, AutoAnalysis.Line1.Point1.Data.Condition, 
TestParameter, AutoAnalysis.Line1.Point1.Data.Start, false
TestParameter, AutoAnalysis.Line1.Point1.Data.StartVar, 
TestParameter, AutoAnalysis.Line1.Point1.Data.StartCondition, 
TestParameter, AutoAnalysis.Line1.Point2.Type, 0
TestParameter, AutoAnalysis.Line1.Point2.XY.X, 
TestParameter, AutoAnalysis.Line1.Point2.XY.Y, 
TestParameter, AutoAnalysis.Line1.Point2.Data.Var, 
TestParameter, AutoAnalysis.Line1.Point2.Data.Condition, 
TestParameter, AutoAnalysis.Line1.Point2.Data.Start, false
TestParameter, AutoAnalysis.Line1.Point2.Data.StartVar, 
TestParameter, AutoAnalysis.Line1.Point2.Data.StartCondition, 
TestParameter, AutoAnalysis.Line1.GradientExpr, 0
TestParameter, AutoAnalysis.Line2.Enabled, false
TestParameter, AutoAnalysis.Line2.Type, 1
TestParameter, AutoAnalysis.Line2.Fix, True
TestParameter, AutoAnalysis.Line2.YAxis, 0
TestParameter, AutoAnalysis.Line2.Point1.Type, 0
TestParameter, AutoAnalysis.Line2.Point1.XY.X, 
TestParameter, AutoAnalysis.Line2.Point1.XY.Y, 
TestParameter, AutoAnalysis.Line2.Point1.Data.Var, 
TestParameter, AutoAnalysis.Line2.Point1.Data.Condition, 
TestParameter, AutoAnalysis.Line2.Point1.Data.Start, false
TestParameter, AutoAnalysis.Line2.Point1.Data.StartVar, 
TestParameter, AutoAnalysis.Line2.Point1.Data.StartCondition, 
TestParameter, AutoAnalysis.Line2.Point2.Type, 0
TestParameter, AutoAnalysis.Line2.Point2.XY.X, 
TestParameter, AutoAnalysis.Line2.Point2.XY.Y, 
TestParameter, AutoAnalysis.Line2.Point2.Data.Var, 
TestParameter, AutoAnalysis.Line2.Point2.Data.Condition, 
TestParameter, AutoAnalysis.Line2.Point2.Data.Start, false
TestParameter, AutoAnalysis.Line2.Point2.Data.StartVar, 
TestParameter, AutoAnalysis.Line2.Point2.Data.StartCondition, 
TestParameter, AutoAnalysis.Line2.GradientExpr, 0
TestParameter, AutoAnalysis.Marker.Enabled, false
TestParameter, AutoAnalysis.Marker.Data.Var, 
TestParameter, AutoAnalysis.Marker.Data.Condition, 
TestParameter, AutoAnalysis.Marker.Data.Start, false
TestParameter, AutoAnalysis.Marker.Data.StartVar, 
TestParameter, AutoAnalysis.Marker.Data.StartCondition, 
MetaData, TestRecord.EntryPoint, true
MetaData, TestRecord.RecordTime, 06/18/2019 14:55:35
MetaData, TestRecord.TestTarget, 4-32
MetaData, TestRecord.IterationIndex, 3
MetaData, TestRecord.Preservation, true
MetaData, TestRecord.Flag, 
MetaData, TestRecord.Remarks, good
MetaData, TestRecord.LinkKey, 5e250fd8-c477-4ee3-99c7-a94fbfe9e165
Dimension1, 101, 101, 101, 101, 101, 101, 101, 101, 101, 101
Dimension2, 1, 1, 1, 1, 1, 1, 1, 1, 1, 1
DataName, VG, VD, VS, ID, IS, IG, absID, sqrtID, gm2, absIG
DataValue, -2, 3, 0, 2.113E-12, 3.97E-13, -1.5600000000000002E-12, 2.113E-12, 1.4536161804272819E-06, 4.8869285358435269E-11, 1.5600000000000002E-12
DataValue, -1.9500000000000002, 3, 0, 1.2190000000000002E-12, 1.59E-13, -1.721E-12, 1.2190000000000002E-12, 1.104083330188442E-06, 4.8190895537511919E-13, 1.721E-12
DataValue, -1.9000000000000001, 3, 0, 1.9160000000000003E-12, 3.33E-12, -2.603E-12, 1.9160000000000003E-12, 1.3841965178398624E-06, 2.1414740198372E-11, 2.603E-12
DataValue, -1.85, 3, 0, 2.4550000000000003E-12, -1.3210000000000001E-12, -2.4340000000000003E-12, 2.4550000000000003E-12, 1.56684396159924E-06, 3.347677251012615E-11, 2.4340000000000003E-12
DataValue, -1.8, 3, 0, 6.4900000000000006E-13, 3.029E-12, -9.1400000000000014E-13, 6.4900000000000006E-13, 8.056053624449133E-07, 1.4894586603910444E-10, 9.1400000000000014E-13
DataValue, -1.75, 3, 0, -1.2000000000000002E-13, -2.9140000000000003E-12, 1.0200000000000001E-13, 1.2000000000000002E-13, 3.464101615137755E-07, 1.8046923467522892E-11, 1.0200000000000001E-13
DataValue, -1.7000000000000002, 3, 0, 1.4500000000000001E-13, -2.83E-13, -1.6100000000000002E-13, 1.4500000000000001E-13, 3.8078865529319543E-07, 2.1887235486992894E-11, 1.6100000000000002E-13
DataValue, -1.6500000000000001, 3, 0, 6.63E-13, 5.2390000000000006E-12, -1.076E-12, 6.63E-13, 8.1424811943289126E-07, 2.0618556166126546E-11, 1.076E-12
DataValue, -1.6, 3, 0, 6.9700000000000006E-13, -1.4740000000000002E-12, -5.5300000000000007E-13, 6.9700000000000006E-13, 8.3486525858967206E-07, 7.5450603170126692E-13, 5.5300000000000007E-13
DataValue, -1.55, 3, 0, -8.1200000000000007E-13, -1E-13, -1.1600000000000001E-12, 8.1200000000000007E-13, 9.0111042608550486E-07, 3.2219775937045268E-13, 1.1600000000000001E-12
DataValue, -1.5, 3, 0, 7.95E-13, 1.847E-12, -1.4950000000000002E-12, 7.95E-13, 8.9162772500635037E-07, 3.88904009214232E-11, 1.4950000000000002E-12
DataValue, -1.4500000000000002, 3, 0, -7.7E-14, -3.3490000000000004E-12, -3.7000000000000004E-13, 7.7E-14, 2.7748873851023217E-07, 5.4924917080821264E-12, 3.7000000000000004E-13
DataValue, -1.4000000000000001, 3, 0, -4.3200000000000003E-13, -2.5E-13, -2.43E-13, 4.3200000000000003E-13, 6.5726706900619935E-07, 7.4195886209835846E-11, 2.43E-13
DataValue, -1.35, 3, 0, 1.297E-12, 4.9730000000000007E-12, -1.224E-12, 1.297E-12, 1.138859078200635E-06, 2.1544989708253161E-10, 1.224E-12
DataValue, -1.3, 3, 0, -4.5160000000000005E-12, 2E-13, -6.85E-13, 4.5160000000000005E-12, 2.1250882334623192E-06, 2.0662925564223975E-11, 6.85E-13
DataValue, -1.25, 3, 0, 2.5390000000000004E-12, 1.942E-12, -5.5400000000000006E-13, 2.5390000000000004E-12, 1.5934239862635431E-06, 3.1534771810443547E-10, 5.5400000000000006E-13
DataValue, -1.2, 3, 0, 1.22E-13, -2.243E-12, -1.25E-13, 1.22E-13, 3.4928498393145962E-07, 6.28530619427309E-11, 1.25E-13
DataValue, -1.1500000000000001, 3, 0, 6.410000000000001E-13, -6.33E-13, -8.770000000000001E-13, 6.410000000000001E-13, 8.0062475604992383E-07, 1.9016657463651636E-10, 8.770000000000001E-13
DataValue, -1.1, 3, 0, -2.987E-12, 1.879E-12, -8.42E-13, 2.987E-12, 1.7282939564784689E-06, 5.3978234726035949E-12, 8.42E-13
DataValue, -1.05, 3, 0, -1.067E-12, 3.602E-12, -1.6200000000000002E-13, 1.067E-12, 1.0329569206893384E-06, 1.40241285764259E-10, 1.6200000000000002E-13
DataValue, -1, 3, 0, 2.96E-13, -7.1900000000000007E-13, 1.1000000000000001E-13, 2.96E-13, 5.4405882034941774E-07, 7.0135135600755572E-13, 1.1000000000000001E-13
DataValue, -0.95000000000000007, 3, 0, 9.010000000000001E-13, 3.76E-13, -3.63E-13, 9.010000000000001E-13, 9.492101980067429E-07, 1.52383811525275E-13, 3.63E-13
DataValue, -0.9, 3, 0, -3.4E-13, 2.7630000000000002E-12, -2.71E-13, 3.4E-13, 5.8309518948453E-07, 3.8819045833741718E-11, 2.71E-13
DataValue, -0.85000000000000009, 3, 0, -2.4720000000000004E-12, -1.145E-12, -5.69E-13, 2.4720000000000004E-12, 1.5722595205626839E-06, 1.9890711198363607E-13, 5.69E-13
DataValue, -0.8, 3, 0, 3.9400000000000004E-13, -2.11E-13, -2.7400000000000004E-13, 3.9400000000000004E-13, 6.276941930590087E-07, 3.4980545360705169E-11, 2.7400000000000004E-13
DataValue, -0.75, 3, 0, 9.6200000000000014E-13, 3.38E-13, 4.87E-13, 9.6200000000000014E-13, 9.8081598681913842E-07, 3.7230818019192341E-12, 4.87E-13
DataValue, -0.70000000000000007, 3, 0, 1.89E-13, 2.2490000000000002E-12, -1.9500000000000003E-13, 1.89E-13, 4.3474130238568316E-07, 8.0487809408857159E-11, 1.9500000000000003E-13
DataValue, -0.65, 3, 0, 7E-15, 9.38E-13, -5.22E-13, 7E-15, 8.3666002653407552E-08, 6.5975832952242514E-11, 5.22E-13
DataValue, -0.6, 3, 0, -1.5550000000000001E-12, -2.7920000000000002E-12, -1.99E-13, 1.5550000000000001E-12, 1.2469963913339927E-06, 2.85578532209217E-11, 1.99E-13
DataValue, -0.55, 3, 0, 3.8200000000000004E-13, 4.4500000000000006E-12, -7E-14, 3.8200000000000004E-13, 6.1806148561449774E-07, 4.2842766674521165E-11, 7E-14
DataValue, -0.5, 3, 0, 3.51E-13, -4.91E-13, -6.82E-13, 3.51E-13, 5.92452529743945E-07, 4.1421347211354559E-12, 6.82E-13
DataValue, -0.45, 3, 0, 6.7500000000000005E-13, -4.4870000000000006E-12, 2.5300000000000003E-13, 6.7500000000000005E-13, 8.2158383625774918E-07, 1.8641193150229105E-11, 2.5300000000000003E-13
DataValue, -0.4, 3, 0, -1.049E-12, -1.901E-12, 2.23E-13, 1.049E-12, 1.0242070103255494E-06, 6.4121681301723281E-11, 2.23E-13
DataValue, -0.35000000000000003, 3, 0, 2.632E-12, -4.157E-12, 4.3000000000000006E-14, 2.632E-12, 1.6223439832538597E-06, 2.8893076036169524E-11, 4.3000000000000006E-14
DataValue, -0.3, 3, 0, 2.439E-12, -3.159E-12, -6.16E-13, 2.439E-12, 1.5617298101784444E-06, 7.3025438999093374E-11, 6.16E-13
DataValue, -0.25, 3, 0, 6.1350000000000008E-12, -4.28E-12, -3.53E-13, 6.1350000000000008E-12, 2.4768932153001673E-06, 1.5501437789821157E-10, 3.53E-13
DataValue, -0.2, 3, 0, 7.878E-12, -7.244E-12, 5.7900000000000006E-13, 7.878E-12, 2.8067775116670721E-06, 1.258250436492916E-10, 5.7900000000000006E-13
DataValue, -0.15, 3, 0, 1.2950000000000001E-11, -1.2548E-11, 3.3700000000000003E-13, 1.2950000000000001E-11, 3.5986108430893164E-06, 3.8086783554238938E-10, 3.3700000000000003E-13
DataValue, -0.1, 3, 0, 2.2642000000000003E-11, -2.4937000000000003E-11, 3.53E-13, 2.2642000000000003E-11, 4.75836106238272E-06, 6.993196837944779E-10, 3.53E-13
DataValue, -0.05, 3, 0, 3.8976E-11, -3.7928E-11, -1.64E-13, 3.8976E-11, 6.2430761648405353E-06, 1.0285260939701141E-09, 1.64E-13
DataValue, 0, 3, 0, 6.3448000000000007E-11, -6.2863E-11, -1.24E-13, 6.3448000000000007E-11, 7.9654252868255577E-06, 1.4600181837122849E-09, 1.24E-13
DataValue, 0.05, 3, 0, 1.0128600000000001E-10, -9.5821000000000007E-11, 4.92E-13, 1.0128600000000001E-10, 1.0064094594150037E-05, 1.9164348848695043E-09, 4.92E-13
DataValue, 0.1, 3, 0, 1.5235300000000002E-10, -1.4609700000000002E-10, 9.5000000000000012E-14, 1.5235300000000002E-10, 1.2343135744210221E-05, 2.492935342399128E-09, 9.5000000000000012E-14
DataValue, 0.15, 3, 0, 2.2671400000000002E-10, -2.1838000000000003E-10, 3.39E-13, 2.2671400000000002E-10, 1.5057024938546128E-05, 3.3003864231890672E-09, 3.39E-13
DataValue, 0.2, 3, 0, 3.2717700000000003E-10, -3.16731E-10, 4.5200000000000004E-13, 3.2717700000000003E-10, 1.8088034719117498E-05, 4.0206659678352716E-09, 4.5200000000000004E-13
DataValue, 0.25, 3, 0, 4.5787000000000004E-10, -4.4207600000000006E-10, 4.77E-13, 4.5787000000000004E-10, 2.1397897092938829E-05, 4.8005494450988339E-09, 4.77E-13
DataValue, 0.3, 3, 0, 6.25832E-10, -6.02507E-10, -9.4E-14, 6.25832E-10, 2.5016634465890889E-05, 5.59587043295959E-09, 9.4E-14
DataValue, 0.35000000000000003, 3, 0, 8.33965E-10, -8.0365800000000008E-10, -1.18E-13, 8.33965E-10, 2.8878452174588581E-05, 5.0470098482249476E-09, 1.18E-13
DataValue, 0.4, 3, 0, 1.03175E-09, -9.9521E-10, -8.3200000000000009E-13, 1.03175E-09, 3.2120865492698049E-05, 6.6284713024301826E-09, 8.3200000000000009E-13
DataValue, 0.45, 3, 0, 1.37048E-09, -1.36186E-09, 1.326E-12, 1.37048E-09, 3.7019994597514461E-05, 1.0164866960666158E-08, 1.326E-12
DataValue, 0.5, 3, 0, 1.7810899999999999E-09, -1.75135E-09, 1.996E-12, 1.7810899999999999E-09, 4.2202961981358606E-05, 1.031283054672934E-08, 1.996E-12
DataValue, 0.55, 3, 0, 2.2255E-09, -2.19525E-09, 2.68E-13, 2.2255E-09, 4.7175205351964289E-05, 1.0319265821046051E-08, 2.68E-13
DataValue, 0.6, 3, 0, 2.74171E-09, -2.69354E-09, 1.6100000000000002E-13, 2.74171E-09, 5.23613407009408E-05, 1.0766836465335002E-08, 1.6100000000000002E-13
DataValue, 0.65, 3, 0, 3.31218E-09, -3.26656E-09, 6.1900000000000009E-13, 3.31218E-09, 5.7551542116610566E-05, 1.1213274214450647E-08, 6.1900000000000009E-13
DataValue, 0.70000000000000007, 3, 0, 3.96278E-09, -3.89915E-09, -5.2000000000000006E-14, 3.96278E-09, 6.2950615564901351E-05, 1.192540425230477E-08, 5.2000000000000006E-14
DataValue, 0.75, 3, 0, 4.6884E-09, -4.62071E-09, -4.47E-13, 4.6884E-09, 6.8471892043377915E-05, 1.2383669771282939E-08, 4.47E-13
DataValue, 0.8, 3, 0, 5.48767E-09, -5.40467E-09, 3.77E-13, 5.48767E-09, 7.40788093856806E-05, 1.3038575248859675E-08, 3.77E-13
DataValue, 0.85000000000000009, 3, 0, 6.3825E-09, -6.30018E-09, 1.4500000000000001E-13, 6.3825E-09, 7.9890550129536593E-05, 1.3690034732096648E-08, 1.4500000000000001E-13
DataValue, 0.9, 3, 0, 7.35808E-09, -7.27205E-09, 2.2E-14, 7.35808E-09, 8.5779251570528413E-05, 1.4587621745670627E-08, 2.2E-14
DataValue, 0.95000000000000007, 3, 0, 8.4582E-09, -8.34855E-09, 2.57E-13, 8.4582E-09, 9.1968472858909646E-05, 1.4959868219696475E-08, 2.57E-13
DataValue, 1, 3, 0, 9.60602E-09, -9.5065E-09, 7.53E-13, 9.60602E-09, 9.8010305580586773E-05, 1.0652947267507754E-08, 7.53E-13
DataValue, 1.05, 3, 0, 1.0463199999999998E-08, -1.0250299999999999E-08, 5.8E-14, 1.0463199999999998E-08, 0.00010228978443617915, 1.3031291761773254E-08, 5.8E-14
DataValue, 1.1, 3, 0, 1.1973999999999999E-08, -1.1828899999999999E-08, 1.76E-13, 1.1973999999999999E-08, 0.00010942577392917996, 1.983762775343111E-08, 1.76E-13
DataValue, 1.1500000000000001, 3, 0, 1.3543E-08, -1.3389099999999999E-08, 5.23E-13, 1.3543E-08, 0.00011637439580938755, 1.9544209485056064E-08, 5.23E-13
DataValue, 1.2, 3, 0, 1.5228999999999997E-08, -1.50465E-08, 4.4000000000000004E-13, 1.5228999999999997E-08, 0.00012340583454602136, 1.9671111946010028E-08, 4.4000000000000004E-13
DataValue, 1.25, 3, 0, 1.7004099999999997E-08, -1.68387E-08, 1.4500000000000001E-13, 1.7004099999999997E-08, 0.00013039976993844735, 1.9898901813988061E-08, 1.4500000000000001E-13
DataValue, 1.3, 3, 0, 1.8909599999999997E-08, -1.8678199999999998E-08, 1.7400000000000002E-13, 1.8909599999999997E-08, 0.00013751218127860528, 1.9537088625025019E-08, 1.7400000000000002E-13
DataValue, 1.35, 3, 0, 2.0844799999999998E-08, -2.06602E-08, 5.3000000000000006E-13, 2.0844799999999998E-08, 0.00014437728353172461, 1.9946581623043342E-08, 5.3000000000000006E-13
DataValue, 1.4000000000000001, 3, 0, 2.29933E-08, -2.27084E-08, 4.0600000000000004E-13, 2.29933E-08, 0.00015163541802626457, 2.1562983379951594E-08, 4.0600000000000004E-13
DataValue, 1.4500000000000002, 3, 0, 2.5300599999999998E-08, -2.5053099999999998E-08, 4.5000000000000004E-14, 2.5300599999999998E-08, 0.00015906162327852685, 2.1982776068397765E-08, 4.5000000000000004E-14
DataValue, 1.5, 3, 0, 2.7709599999999996E-08, -2.74231E-08, 8.2E-14, 2.7709599999999996E-08, 0.00016646200767742768, 2.1765752210260022E-08, 8.2E-14
DataValue, 1.55, 3, 0, 3.02116E-08, -2.9879299999999995E-08, 1.75E-13, 3.02116E-08, 0.00017381484401511856, 2.2190502992803125E-08, 1.75E-13
DataValue, 1.6, 3, 0, 3.2890899999999994E-08, -3.25352E-08, 6.170000000000001E-13, 3.2890899999999994E-08, 0.00018135848477532005, 2.3646400847586778E-08, 6.170000000000001E-13
DataValue, 1.6500000000000001, 3, 0, 3.57937E-08, -3.54924E-08, 2.58E-13, 3.57937E-08, 0.00018919223028443846, 2.3810781632684408E-08, 2.58E-13
DataValue, 1.7000000000000002, 3, 0, 3.8726E-08, -3.8371499999999994E-08, 1.6000000000000003E-13, 3.8726E-08, 0.00019678922734743382, 2.3610121787046527E-08, 1.6000000000000003E-13
DataValue, 1.75, 3, 0, 4.1843899999999995E-08, -4.13991E-08, 4.1500000000000005E-13, 4.1843899999999995E-08, 0.00020455781578810427, 2.4149886135054465E-08, 4.1500000000000005E-13
DataValue, 1.8, 3, 0, 4.50838E-08, -4.4624299999999993E-08, 3.4700000000000004E-13, 4.50838E-08, 0.00021232946097986496, 2.4389427045767961E-08, 3.4700000000000004E-13
DataValue, 1.85, 3, 0, 4.8477E-08, -4.8047899999999996E-08, 4.76E-13, 4.8477E-08, 0.00022017493045303773, 2.4329572420699658E-08, 4.76E-13
DataValue, 1.9000000000000001, 3, 0, 5.1950899999999994E-08, -5.1446599999999996E-08, 7.31E-13, 5.1950899999999994E-08, 0.00022792740072224751, 2.4815778568353384E-08, 7.31E-13
DataValue, 1.9500000000000002, 3, 0, 5.5661999999999992E-08, -5.5126899999999996E-08, 6.05E-13, 5.5661999999999992E-08, 0.00023592795510494298, 2.5857881515519721E-08, 6.05E-13
DataValue, 2, 3, 0, 5.9539799999999992E-08, -5.8952399999999993E-08, 4.0200000000000005E-13, 5.9539799999999992E-08, 0.0002440077867609966, 2.6612694032312772E-08, 4.0200000000000005E-13
DataValue, 2.05, 3, 0, 6.36257E-08, -6.286039999999999E-08, 2.6600000000000003E-13, 6.36257E-08, 0.00025224135267636034, 2.6204217063297019E-08, 2.6600000000000003E-13
DataValue, 2.1, 3, 0, 6.770169999999999E-08, -6.6976999999999992E-08, 5.91E-13, 6.770169999999999E-08, 0.00026019550342002454, 2.6126084357490764E-08, 5.91E-13
DataValue, 2.15, 3, 0, 7.2041199999999987E-08, -7.1193E-08, 1.0310000000000002E-12, 7.2041199999999987E-08, 0.00026840491798772986, 2.5116968038067059E-08, 1.0310000000000002E-12
DataValue, 2.2, 3, 0, 7.6200199999999992E-08, -7.57095E-08, 7.97E-13, 7.6200199999999992E-08, 0.00027604383709838552, 2.7831540928827928E-08, 7.97E-13
DataValue, 2.25, 3, 0, 8.1274999999999992E-08, -8.031E-08, 1.205E-12, 8.1274999999999992E-08, 0.00028508770580296864, 2.9692909585485105E-08, 1.205E-12
DataValue, 2.3000000000000003, 3, 0, 8.6010499999999988E-08, -8.5170799999999991E-08, 1.2130000000000002E-12, 8.6010499999999988E-08, 0.00029327546777731, 2.4306454865149495E-08, 1.2130000000000002E-12
DataValue, 2.35, 3, 0, 9.0407399999999992E-08, -8.99189E-08, 1.218E-12, 9.0407399999999992E-08, 0.00030067823333257762, 2.79456466946463E-08, 1.218E-12
