
SetupTitle, Transfer stab
PrimitiveTest, I/V Sweep
TestParameter, Context.MainFrame, 4155C
TestParameter, Channel.UnitType, SMU, SMU, SMU
TestParameter, Channel.Unit, SMU3:MP, SMU4:MP, SMU1:MP
TestParameter, Channel.IName, ID, IS, IG
TestParameter, Channel.VName, VD, VS, VG
TestParameter, Channel.Mode, V, COMMON, V
TestParameter, Channel.Func, CONST, CONST, VAR1
TestParameter, Channel.Index, 
TestParameter, Channel.Time, 
TestParameter, Measurement.Port.Unit, SMU3:MP, SMU4:MP, SMU1:MP
TestParameter, Measurement.Port.SeriesResistor, NONE, NONE, NONE
TestParameter, Measurement.Port.Filter, ON, ON, ON
TestParameter, Measurement.Primary.Locus, Single
TestParameter, Measurement.Primary.Scale, LINEAR
TestParameter, Measurement.Primary.Start, -2
TestParameter, Measurement.Primary.Stop, 3
TestParameter, Measurement.Primary.Step, 0.05
TestParameter, Measurement.Primary.Compliance, 0.1
TestParameter, Measurement.Primary.PowerCompliance, 0
TestParameter, Measurement.Aborting.Condition, CONTINUE AT ANY
TestParameter, Measurement.PostOutput.Value, START
TestParameter, Measurement.PostOutput.Retention, OFF
TestParameter, Measurement.Bias.Source, 3, 0, -2
TestParameter, Measurement.Bias.Compliance, 0.1, 0.1, 0.1
TestParameter, Measurement.Monitor.Unit, SMU3:MP, SMU4:MP, SMU1:MP
TestParameter, Measurement.Monitor.Adc, HR ADC, HR ADC, HR ADC
TestParameter, Measurement.Monitor.RangingMode, AUTO, AUTO, AUTO
TestParameter, Measurement.Monitor.RangeBoundary, , , 
TestParameter, Measurement.Monitor.RangeRating, BY FULL RANGE, BY FULL RANGE, BY FULL RANGE
TestParameter, Measurement.Monitor.RangeRatingCoeff, 50, 50, 50
TestParameter, Measurement.Timing.Hold, 0.5
TestParameter, Measurement.Timing.Delay, 0.05
TestParameter, Measurement.Adc.HighResolution.AutoZero, OFF
TestParameter, Measurement.Adc.HighResolution.Mode, AUTO
TestParameter, Measurement.Adc.HighResolution.Coeff, 1
TestParameter, Measurement.Ag16440ASelector.SemiconductorRelay.Channel1, DEFAULT
TestParameter, Measurement.Ag16440ASelector.SemiconductorRelay.Channel3, DEFAULT
TestParameter, Function.User.Name, absID, sqrtID, gm2, absIG
TestParameter, Function.User.Unit, A, A, A/V, A
TestParameter, Function.User.Definition, abs(ID), sqrt(abs(ID)), (delta(sqrtID)/delta(VG))^2, abs(IG)
TestParameter, Output.Graph.Enabled, true
TestParameter, Output.Graph.XAxis.Data, VG
TestParameter, Output.Graph.XAxis.Scale, Linear
TestParameter, Output.Graph.XAxis.Left, -5
TestParameter, Output.Graph.XAxis.Right, 7
TestParameter, Output.Graph.YAxis.Data, ID, absIG, gm2
TestParameter, Output.Graph.YAxis.Scale, Log, Log, Linear
TestParameter, Output.Graph.YAxis.Bottom, 1E-14, 1E-14, 0
TestParameter, Output.Graph.YAxis.Top, 0.01, 0.01, 1E-05
TestParameter, Output.Graph.YAxis.Group, , , 
TestParameter, Output.List.Data, VG, IG, VD, ID, VS, IS, sqrtID, gm2, absIG
TestParameter, AutoAnalysis.Interpolation, false
TestParameter, AutoAnalysis.Line1.Enabled, false
TestParameter, AutoAnalysis.Line1.Type, 1
TestParameter, AutoAnalysis.Line1.Fix, True
TestParameter, AutoAnalysis.Line1.YAxis, 0
TestParameter, AutoAnalysis.Line1.Point1.Type, 0
TestParameter, AutoAnalysis.Line1.Point1.XY.X, 
TestParameter, AutoAnalysis.Line1.Point1.XY.Y, 
TestParameter, AutoAnalysis.Line1.Point1.Data.Var, 
TestParameter, AutoAnalysis.Line1.Point1.Data.Condition, 
TestParameter, AutoAnalysis.Line1.Point1.Data.Start, false
TestParameter, AutoAnalysis.Line1.Point1.Data.StartVar, 
TestParameter, AutoAnalysis.Line1.Point1.Data.StartCondition, 
TestParameter, AutoAnalysis.Line1.Point2.Type, 0
TestParameter, AutoAnalysis.Line1.Point2.XY.X, 
TestParameter, AutoAnalysis.Line1.Point2.XY.Y, 
TestParameter, AutoAnalysis.Line1.Point2.Data.Var, 
TestParameter, AutoAnalysis.Line1.Point2.Data.Condition, 
TestParameter, AutoAnalysis.Line1.Point2.Data.Start, false
TestParameter, AutoAnalysis.Line1.Point2.Data.StartVar, 
TestParameter, AutoAnalysis.Line1.Point2.Data.StartCondition, 
TestParameter, AutoAnalysis.Line1.GradientExpr, 0
TestParameter, AutoAnalysis.Line2.Enabled, false
TestParameter, AutoAnalysis.Line2.Type, 1
TestParameter, AutoAnalysis.Line2.Fix, True
TestParameter, AutoAnalysis.Line2.YAxis, 0
TestParameter, AutoAnalysis.Line2.Point1.Type, 0
TestParameter, AutoAnalysis.Line2.Point1.XY.X, 
TestParameter, AutoAnalysis.Line2.Point1.XY.Y, 
TestParameter, AutoAnalysis.Line2.Point1.Data.Var, 
TestParameter, AutoAnalysis.Line2.Point1.Data.Condition, 
TestParameter, AutoAnalysis.Line2.Point1.Data.Start, false
TestParameter, AutoAnalysis.Line2.Point1.Data.StartVar, 
TestParameter, AutoAnalysis.Line2.Point1.Data.StartCondition, 
TestParameter, AutoAnalysis.Line2.Point2.Type, 0
TestParameter, AutoAnalysis.Line2.Point2.XY.X, 
TestParameter, AutoAnalysis.Line2.Point2.XY.Y, 
TestParameter, AutoAnalysis.Line2.Point2.Data.Var, 
TestParameter, AutoAnalysis.Line2.Point2.Data.Condition, 
TestParameter, AutoAnalysis.Line2.Point2.Data.Start, false
TestParameter, AutoAnalysis.Line2.Point2.Data.StartVar, 
TestParameter, AutoAnalysis.Line2.Point2.Data.StartCondition, 
TestParameter, AutoAnalysis.Line2.GradientExpr, 0
TestParameter, AutoAnalysis.Marker.Enabled, false
TestParameter, AutoAnalysis.Marker.Data.Var, 
TestParameter, AutoAnalysis.Marker.Data.Condition, 
TestParameter, AutoAnalysis.Marker.Data.Start, false
TestParameter, AutoAnalysis.Marker.Data.StartVar, 
TestParameter, AutoAnalysis.Marker.Data.StartCondition, 
MetaData, TestRecord.EntryPoint, true
MetaData, TestRecord.RecordTime, 06/18/2019 13:41:00
MetaData, TestRecord.TestTarget, 6-48
MetaData, TestRecord.IterationIndex, 3
MetaData, TestRecord.Preservation, true
MetaData, TestRecord.Flag, 
MetaData, TestRecord.Remarks, good
MetaData, TestRecord.LinkKey, 3208d75d-bab4-488e-b4f3-f9fabb3c8e22
Dimension1, 101, 101, 101, 101, 101, 101, 101, 101, 101, 101
Dimension2, 1, 1, 1, 1, 1, 1, 1, 1, 1, 1
DataName, VG, VD, VS, ID, IS, IG, absID, sqrtID, gm2, absIG
DataValue, -2, 3, 0, 6.3090000000000007E-12, -4.9660000000000004E-12, -5.4890000000000005E-12, 6.3090000000000007E-12, 2.5117722826721374E-06, 4.6089527171162433E-11, 5.4890000000000005E-12
DataValue, -1.9500000000000002, 3, 0, 4.719E-12, -1.251E-12, -4.767E-12, 4.719E-12, 2.1723259423944652E-06, 6.9750654497137843E-11, 4.767E-12
DataValue, -1.9000000000000001, 3, 0, 2.811E-12, -1.7230000000000002E-12, -3.9800000000000004E-12, 2.811E-12, 1.6766037098849567E-06, 3.7759193638771717E-12, 3.9800000000000004E-12
DataValue, -1.85, 3, 0, 5.601E-12, -7.9900000000000013E-12, -4.4110000000000005E-12, 5.601E-12, 2.3666431923718457E-06, 8.8041786439935409E-12, 4.4110000000000005E-12
DataValue, -1.8, 3, 0, 3.894E-12, -6.9700000000000006E-13, -5.3470000000000005E-12, 3.894E-12, 1.9733220720399396E-06, 2.8766346030583858E-11, 5.3470000000000005E-12
DataValue, -1.75, 3, 0, 3.35E-12, 4.985E-12, -4.7470000000000007E-12, 3.35E-12, 1.8303005217723127E-06, 6.64717364601004E-12, 4.7470000000000007E-12
DataValue, -1.7000000000000002, 3, 0, 4.978E-12, -7.533E-12, -3.159E-12, 4.978E-12, 2.2311432047271191E-06, 4.9563723041729635E-14, 3.159E-12
DataValue, -1.6500000000000001, 3, 0, 3.2690000000000003E-12, -3.322E-12, -3.936E-12, 3.2690000000000003E-12, 1.8080376102282829E-06, 1.2531737482539356E-12, 3.936E-12
DataValue, -1.6, 3, 0, 4.491E-12, 1.019E-12, -5.29E-12, 4.491E-12, 2.1191979614939232E-06, 3.6180461705399024E-12, 5.29E-12
DataValue, -1.55, 3, 0, 3.9930000000000005E-12, 8.491E-12, -4.365E-12, 3.9930000000000005E-12, 1.9982492337043447E-06, 1.6938823920486848E-11, 4.365E-12
DataValue, -1.5, 3, 0, 2.916E-12, 4.869E-12, -3.1E-12, 2.916E-12, 1.7076299364909248E-06, 6.8134125731731451E-14, 3.1E-12
DataValue, -1.4500000000000002, 3, 0, 4.0980000000000005E-12, -1.4400000000000001E-12, -4.128E-12, 4.0980000000000005E-12, 2.0243517480912254E-06, 2.4593671176653404E-12, 4.128E-12
DataValue, -1.4000000000000001, 3, 0, 2.4050000000000004E-12, -1.2151E-11, -2.21E-12, 2.4050000000000004E-12, 1.5508062419270824E-06, 1.9462103697518473E-10, 2.21E-12
DataValue, -1.35, 3, 0, -3.9600000000000003E-13, 9.6620000000000014E-12, -2.491E-12, 3.9600000000000003E-13, 6.29285308902091E-07, 1.6047144370223684E-11, 2.491E-12
DataValue, -1.3, 3, 0, 1.3230000000000001E-12, -1.1520000000000001E-12, -2.779E-12, 1.3230000000000001E-12, 1.150217370760849E-06, 5.2986417401893839E-11, 2.779E-12
DataValue, -1.25, 3, 0, 1.842E-12, 8.253E-12, -3.776E-12, 1.842E-12, 1.3572030061858837E-06, 6.600488374734313E-11, 3.776E-12
DataValue, -1.2, 3, 0, 3.852E-12, -6.905E-12, -2.9480000000000004E-12, 3.852E-12, 1.962651268055535E-06, 5.7131172395152E-11, 2.9480000000000004E-12
DataValue, -1.1500000000000001, 3, 0, 4.465E-12, -3.2480000000000003E-12, -3.0010000000000002E-12, 4.465E-12, 2.1130546609115438E-06, 1.0410401462032625E-10, 3.0010000000000002E-12
DataValue, -1.1, 3, 0, 8.8800000000000005E-13, 3.671E-12, -2.01E-12, 8.8800000000000005E-13, 9.4233751915117972E-07, 4.5141546319238628E-11, 2.01E-12
DataValue, -1.05, 3, 0, 2.077E-12, -2.172E-12, -3.0010000000000002E-12, 2.077E-12, 1.4411800720243117E-06, 7.6961638191350645E-11, 3.0010000000000002E-12
DataValue, -1, 3, 0, 3.3110000000000003E-12, -2.097E-12, -2.791E-12, 3.3110000000000003E-12, 1.8196153439669605E-06, 1.3091980174088092E-11, 2.791E-12
DataValue, -0.95000000000000007, 3, 0, -1.1650000000000002E-12, 3.4918E-11, -3.6690000000000006E-12, 1.1650000000000002E-12, 1.0793516572461453E-06, 4.4000282105131719E-13, 3.6690000000000006E-12
DataValue, -0.9, 3, 0, 3.0740000000000004E-12, 3.0060000000000003E-12, -4.062E-12, 3.0740000000000004E-12, 1.7532826355154494E-06, 4.1700854704757091E-11, 4.062E-12
DataValue, -0.85000000000000009, 3, 0, -1.88E-13, -1.9610000000000002E-12, -3.2480000000000003E-12, 1.88E-13, 4.33589667773576E-07, 9.2559988465974938E-11, 3.2480000000000003E-12
DataValue, -0.8, 3, 0, 6.2600000000000006E-13, 1.0290000000000002E-12, -4.5000000000000005E-13, 6.2600000000000006E-13, 7.912016177940993E-07, 1.3168690799197892E-10, 4.5000000000000005E-13
DataValue, -0.75, 3, 0, 2.5000000000000003E-12, -1.5076000000000002E-11, 4.64E-13, 2.5000000000000003E-12, 1.5811388300841898E-06, 3.0339363346217107E-11, 4.64E-13
DataValue, -0.70000000000000007, 3, 0, 1.801E-12, 1.0623000000000001E-11, -2.857E-12, 1.801E-12, 1.3420134127496639E-06, 5.7479058352382423E-13, 2.857E-12
DataValue, -0.65, 3, 0, 2.2660000000000002E-12, -4.8100000000000007E-12, -1.761E-12, 2.2660000000000002E-12, 1.5053238854146971E-06, 3.172420862930944E-11, 1.761E-12
DataValue, -0.6, 3, 0, 3.63E-12, -2.8940000000000004E-12, -2.372E-12, 3.63E-12, 1.9052558883257651E-06, 1.4732528837985288E-10, 2.372E-12
DataValue, -0.55, 3, 0, -8.5E-14, -3.3560000000000002E-12, -1.7280000000000001E-12, 8.5E-14, 2.91547594742265E-07, 1.1964311813588359E-13, 1.7280000000000001E-12
DataValue, -0.5, 3, 0, 3.763E-12, 2.4750000000000003E-12, -2.19E-12, 3.763E-12, 1.939845354661036E-06, 1.1403336136810131E-10, 2.19E-12
DataValue, -0.45, 3, 0, 1.8480000000000002E-12, -1.6456000000000002E-11, -1.83E-12, 1.8480000000000002E-12, 1.3594116374373143E-06, 4.9873138555528306E-13, 1.83E-12
DataValue, -0.4, 3, 0, 3.4940000000000003E-12, -1.1611000000000001E-11, 9.69E-13, 3.4940000000000003E-12, 1.8692244381026053E-06, 9.0969884954264517E-12, 9.69E-13
DataValue, -0.35000000000000003, 3, 0, 2.7590000000000003E-12, 2.318E-12, -2.649E-12, 2.7590000000000003E-12, 1.6610237806846717E-06, 7.6239091434243955E-12, 2.649E-12
DataValue, -0.3, 3, 0, 2.5380000000000003E-12, -4.475E-12, -2.019E-12, 2.5380000000000003E-12, 1.5931101656822105E-06, 3.2426991044882923E-11, 2.019E-12
DataValue, -0.25, 3, 0, 4.975E-12, -2.063E-12, -1.0040000000000002E-12, 4.975E-12, 2.2304708023195464E-06, 8.2895241431365518E-11, 1.0040000000000002E-12
DataValue, -0.2, 3, 0, -4.66E-13, -5.735E-12, -1.233E-12, 4.66E-13, 6.8264192663504048E-07, 4.1864430110928491E-10, 1.233E-12
DataValue, -0.15, 3, 0, 3.4E-14, 3.033E-12, -6.9800000000000006E-13, 3.4E-14, 1.8439088914585774E-07, 4.8005218389860456E-11, 6.9800000000000006E-13
DataValue, -0.1, 3, 0, 1.892E-12, -4.504E-12, -1.1560000000000001E-12, 1.892E-12, 1.3754999091239518E-06, 2.6577855351234561E-10, 1.1560000000000001E-12
DataValue, -0.05, 3, 0, 3.2930000000000002E-12, 6.103E-12, -5.2500000000000009E-13, 3.2930000000000002E-12, 1.8146625030566978E-06, 3.5527293024790829E-12, 5.2500000000000009E-13
DataValue, 0, 3, 0, 1.4090000000000002E-12, -1.0100000000000001E-13, -1.2840000000000002E-12, 1.4090000000000002E-12, 1.1870130580579137E-06, 1.0487666529192849E-10, 1.2840000000000002E-12
DataValue, 0.05, 3, 0, -6.2500000000000006E-13, 8.3400000000000008E-13, -1.0040000000000002E-12, 6.2500000000000006E-13, 7.905694150420949E-07, 6.9906881165261752E-11, 1.0040000000000002E-12
DataValue, 0.1, 3, 0, 4.0930000000000004E-12, -1.1420000000000002E-12, -1.2170000000000002E-12, 4.0930000000000004E-12, 2.0231164079212052E-06, 9.82643082603839E-11, 1.2170000000000002E-12
DataValue, 0.15, 3, 0, 3.175E-12, -3.9030000000000006E-12, -1.2250000000000001E-12, 3.175E-12, 1.7818529681205462E-06, 5.6180836762303187E-11, 1.2250000000000001E-12
DataValue, 0.2, 3, 0, 1.6220000000000002E-12, 9.8900000000000013E-13, -6.2300000000000007E-13, 1.6220000000000002E-12, 1.2735776379946376E-06, 3.2189417874285337E-11, 6.2300000000000007E-13
DataValue, 0.25, 3, 0, 1.475E-12, -4.3820000000000005E-12, -3.43E-13, 1.475E-12, 1.214495780149112E-06, 6.7963152681387605E-12, 3.43E-13
DataValue, 0.3, 3, 0, 2.3540000000000003E-12, -1.3860000000000002E-12, -1.2000000000000001E-14, 2.3540000000000003E-12, 1.5342750731208536E-06, 8.25876174040337E-13, 1.2000000000000001E-14
DataValue, 0.35000000000000003, 3, 0, 1.7040000000000002E-12, 4.749E-12, -1.8490000000000003E-12, 1.7040000000000002E-12, 1.3053735097664576E-06, 1.0856858379947979E-10, 1.8490000000000003E-12
DataValue, 0.4, 3, 0, 6.6370000000000009E-12, -1.8025E-11, 7.79E-13, 6.6370000000000009E-12, 2.5762375666851845E-06, 6.63440862365407E-10, 7.79E-13
DataValue, 0.45, 3, 0, 1.5063E-11, -1.7059E-11, -5.0600000000000007E-13, 1.5063E-11, 3.8811080891930854E-06, 6.802006513927123E-10, 5.0600000000000007E-13
DataValue, 0.5, 3, 0, 2.6877000000000002E-11, -2.234E-11, -1.5200000000000002E-12, 2.6877000000000002E-11, 5.1843032318721484E-06, 1.2685519180841811E-09, 1.5200000000000002E-12
DataValue, 0.55, 3, 0, 5.5395000000000006E-11, -5.6584E-11, 3.7000000000000004E-13, 5.5395000000000006E-11, 7.442781738033167E-06, 2.9159247521783738E-09, 3.7000000000000004E-13
DataValue, 0.6, 3, 0, 1.12026E-10, -1.0592600000000001E-10, -7.31E-13, 1.12026E-10, 1.0584233557513742E-05, 4.8479720977265421E-09, 7.31E-13
DataValue, 0.65, 3, 0, 2.0751900000000002E-10, -2.01775E-10, 3.2400000000000003E-13, 2.0751900000000002E-10, 1.4405519775419422E-05, 6.9899315267196582E-09, 3.2400000000000003E-13
DataValue, 0.70000000000000007, 3, 0, 3.58906E-10, -3.47082E-10, -1.5600000000000002E-13, 3.58906E-10, 1.8944814593972673E-05, 9.4001853640848776E-09, 1.5600000000000002E-13
DataValue, 0.75, 3, 0, 5.8085700000000008E-10, -5.6041400000000007E-10, 1.1E-14, 5.8085700000000008E-10, 2.4100975084008531E-05, 1.1894444132061954E-08, 1.1E-14
DataValue, 0.8, 3, 0, 8.910810000000001E-10, -8.625630000000001E-10, 1.7E-14, 8.910810000000001E-10, 2.9850979883414214E-05, 1.2134537390858436E-08, 1.7E-14
DataValue, 0.85000000000000009, 3, 0, 1.23318E-09, -1.18655E-09, 8.2E-14, 1.23318E-09, 3.5116662711596043E-05, 1.6315142856248252E-08, 8.2E-14
DataValue, 0.9, 3, 0, 1.81681E-09, -1.78766E-09, -7E-14, 1.81681E-09, 4.2624054241707226E-05, 2.4104769741244927E-08, 7E-14
DataValue, 0.95000000000000007, 3, 0, 2.56465E-09, -2.51763E-09, -1.1000000000000001E-13, 2.56465E-09, 5.0642373562067565E-05, 2.7014765992344016E-08, 1.1000000000000001E-13
DataValue, 1, 3, 0, 3.48811E-09, -3.42151E-09, 2.0200000000000002E-13, 3.48811E-09, 5.9060223501100975E-05, 2.8791487784767876E-08, 2.0200000000000002E-13
DataValue, 1.05, 3, 0, 4.57117E-09, -4.48581E-09, 1.28E-13, 4.57117E-09, 6.7610428189740078E-05, 2.8590917969580769E-08, 1.28E-13
DataValue, 1.1, 3, 0, 5.7713E-09, -5.66868E-09, 2.7700000000000003E-13, 5.7713E-09, 7.59690726546007E-05, 2.8627373170591988E-08, 2.7700000000000003E-13
DataValue, 1.1500000000000001, 3, 0, 7.14533E-09, -7.00994E-09, 1.76E-13, 7.14533E-09, 8.4530053827026514E-05, 2.8862917827527345E-08, 1.76E-13
DataValue, 1.2, 3, 0, 8.64122E-09, -8.44768E-09, 1.46E-13, 8.64122E-09, 9.29581626324445E-05, 2.3187682561924314E-08, 1.46E-13
DataValue, 1.25, 3, 0, 9.95157E-09, -9.3225E-09, 2.7700000000000003E-13, 9.95157E-09, 9.9757556104788372E-05, 1.1750992714458245E-08, 2.7700000000000003E-13
DataValue, 1.3, 3, 0, 1.0774099999999998E-08, -1.03924E-08, 4.8200000000000007E-13, 1.0774099999999998E-08, 0.00010379836222214683, 1.7279251819040943E-08, 4.8200000000000007E-13
DataValue, 1.35, 3, 0, 1.2746999999999998E-08, -1.24695E-08, 5.4800000000000009E-13, 1.2746999999999998E-08, 0.0001129026129015622, 2.8768625670020396E-08, 5.4800000000000009E-13
DataValue, 1.4000000000000001, 3, 0, 1.4582899999999999E-08, -1.43317E-08, 2.1300000000000003E-13, 1.4582899999999999E-08, 0.00012075967870112937, 2.6481821754098343E-08, 2.1300000000000003E-13
DataValue, 1.4500000000000002, 3, 0, 1.66864E-08, -1.6345E-08, 2.8800000000000004E-13, 1.66864E-08, 0.00012917584913597433, 2.415369320425651E-08, 2.8800000000000004E-13
DataValue, 1.5, 3, 0, 1.8578E-08, -1.8236899999999998E-08, 5.38E-13, 1.8578E-08, 0.00013630113719261479, 2.1193340035810411E-08, 5.38E-13
DataValue, 1.55, 3, 0, 2.06594E-08, -2.02008E-08, 6.33E-13, 2.06594E-08, 0.00014373378169379666, 1.8765884221556102E-08, 6.33E-13
DataValue, 1.6, 3, 0, 2.2499999999999996E-08, -2.2006399999999997E-08, 7.78E-13, 2.2499999999999996E-08, 0.00015, 1.5914294210789596E-08, 7.78E-13
DataValue, 1.6500000000000001, 3, 0, 2.4444999999999998E-08, -2.38557E-08, 6.36E-13, 2.4444999999999998E-08, 0.000156348968656656, 1.6648840629223535E-08, 6.36E-13
DataValue, 1.7000000000000002, 3, 0, 2.6537399999999996E-08, -2.5831999999999996E-08, 7.23E-13, 2.6537399999999996E-08, 0.00016290303864569254, 1.3405237288487927E-08, 7.23E-13
DataValue, 1.75, 3, 0, 2.8199499999999997E-08, -2.7614199999999996E-08, 9.000000000000001E-13, 2.8199499999999997E-08, 0.00016792706750253216, 1.0469136511649537E-08, 9.000000000000001E-13
DataValue, 1.8, 3, 0, 2.99757E-08, -2.9293199999999997E-08, 9.28E-13, 2.99757E-08, 0.00017313491848844359, 1.2048438267338953E-08, 9.28E-13
DataValue, 1.85, 3, 0, 3.2006499999999996E-08, -3.1161799999999994E-08, 9.26E-13, 3.2006499999999996E-08, 0.00017890360532979763, 1.1517327247586523E-08, 9.26E-13
DataValue, 1.9000000000000001, 3, 0, 3.3807E-08, -3.2825199999999995E-08, 7.2200000000000005E-13, 3.3807E-08, 0.00018386679961319825, 1.0043070498990221E-08, 7.2200000000000005E-13
DataValue, 1.9500000000000002, 3, 0, 3.56927E-08, -3.47301E-08, 9.84E-13, 3.56927E-08, 0.00018892511744074688, 9.6971737573550508E-09, 9.84E-13
DataValue, 2, 3, 0, 3.75252E-08, -3.6574999999999995E-08, 1.184E-12, 3.75252E-08, 0.00019371422250315023, 7.2117580189271366E-09, 1.184E-12
DataValue, 2.05, 3, 0, 3.8973599999999994E-08, -3.8221499999999996E-08, 1.506E-12, 3.8973599999999994E-08, 0.00019741732446773761, 9.6771392926458376E-09, 1.506E-12
DataValue, 2.1, 3, 0, 4.1433199999999995E-08, -4.01992E-08, 1.9610000000000002E-12, 4.1433199999999995E-08, 0.00020355146769306283, 1.1654384307400576E-08, 1.9610000000000002E-12
DataValue, 2.15, 3, 0, 4.3352599999999996E-08, -4.2339399999999995E-08, 1.404E-12, 4.3352599999999996E-08, 0.00020821287184033554, 9.29476020768551E-09, 1.404E-12
DataValue, 2.2, 3, 0, 4.5450999999999995E-08, -4.4238699999999994E-08, 9.21E-13, 4.5450999999999995E-08, 0.00021319240136552709, 9.3160998470761085E-09, 9.21E-13
DataValue, 2.25, 3, 0, 4.7465099999999994E-08, -4.63711E-08, 1.4110000000000002E-12, 4.7465099999999994E-08, 0.00021786486637363078, 9.0352171042713862E-09, 1.4110000000000002E-12
DataValue, 2.3000000000000003, 3, 0, 4.95943E-08, -4.82583E-08, 1.4070000000000002E-12, 4.95943E-08, 0.0002226977772677581, 1.1603519883902827E-08, 1.4070000000000002E-12
