
SetupTitle, Transfer sat
PrimitiveTest, I/V Sweep
TestParameter, Context.MainFrame, 4155C
TestParameter, Channel.UnitType, SMU, SMU, SMU
TestParameter, Channel.Unit, SMU3:MP, SMU4:MP, SMU1:MP
TestParameter, Channel.IName, IS, ID, IG
TestParameter, Channel.VName, VS, VD, VG
TestParameter, Channel.Mode, COMMON, V, V
TestParameter, Channel.Func, CONST, CONST, VAR1
TestParameter, Channel.Index, 
TestParameter, Channel.Time, 
TestParameter, Measurement.Port.Unit, SMU3:MP, SMU4:MP, SMU1:MP
TestParameter, Measurement.Port.SeriesResistor, NONE, NONE, NONE
TestParameter, Measurement.Port.Filter, ON, ON, ON
TestParameter, Measurement.Primary.Locus, Double
TestParameter, Measurement.Primary.Scale, LINEAR
TestParameter, Measurement.Primary.Start, -2
TestParameter, Measurement.Primary.Stop, 3
TestParameter, Measurement.Primary.Step, 0.05
TestParameter, Measurement.Primary.Compliance, 0.001
TestParameter, Measurement.Primary.PowerCompliance, 0
TestParameter, Measurement.Aborting.Condition, CONTINUE AT ANY
TestParameter, Measurement.PostOutput.Value, START
TestParameter, Measurement.PostOutput.Retention, OFF
TestParameter, Measurement.Bias.Source, 0, 5, -2
TestParameter, Measurement.Bias.Compliance, 0.1, 0.001, 0.001
TestParameter, Measurement.Monitor.Unit, SMU4:MP, SMU3:MP, SMU1:MP
TestParameter, Measurement.Monitor.Adc, HR ADC, HR ADC, HR ADC
TestParameter, Measurement.Monitor.RangingMode, AUTO, AUTO, AUTO
TestParameter, Measurement.Monitor.RangeBoundary, , , 
TestParameter, Measurement.Monitor.RangeRating, BY FULL RANGE, BY FULL RANGE, BY FULL RANGE
TestParameter, Measurement.Monitor.RangeRatingCoeff, 50, 50, 50
TestParameter, Measurement.Timing.Hold, 0.5
TestParameter, Measurement.Timing.Delay, 0.05
TestParameter, Measurement.Adc.HighResolution.AutoZero, OFF
TestParameter, Measurement.Adc.HighResolution.Mode, AUTO
TestParameter, Measurement.Adc.HighResolution.Coeff, 1
TestParameter, Measurement.Ag16440ASelector.SemiconductorRelay.Channel1, DEFAULT
TestParameter, Measurement.Ag16440ASelector.SemiconductorRelay.Channel3, DEFAULT
TestParameter, Function.User.Name, absID, sqrtID, gm2, absIG
TestParameter, Function.User.Unit, A, A, A/V, A
TestParameter, Function.User.Definition, abs(ID), sqrt(abs(ID)), (delta(sqrtID)/delta(VG))^2, abs(IG)
TestParameter, Output.Graph.Enabled, true
TestParameter, Output.Graph.XAxis.Data, VG
TestParameter, Output.Graph.XAxis.Scale, Linear
TestParameter, Output.Graph.XAxis.Left, -5
TestParameter, Output.Graph.XAxis.Right, 7
TestParameter, Output.Graph.YAxis.Data, ID, absIG, gm2
TestParameter, Output.Graph.YAxis.Scale, Log, Log, Linear
TestParameter, Output.Graph.YAxis.Bottom, 1E-14, 1E-14, 0
TestParameter, Output.Graph.YAxis.Top, 0.01, 0.01, 1E-05
TestParameter, Output.Graph.YAxis.Group, , , 
TestParameter, Output.List.Data, VG, IG, VD, ID, VS, IS, sqrtID, gm2, absIG
TestParameter, AutoAnalysis.Interpolation, false
TestParameter, AutoAnalysis.Line1.Enabled, false
TestParameter, AutoAnalysis.Line1.Type, 1
TestParameter, AutoAnalysis.Line1.Fix, True
TestParameter, AutoAnalysis.Line1.YAxis, 0
TestParameter, AutoAnalysis.Line1.Point1.Type, 0
TestParameter, AutoAnalysis.Line1.Point1.XY.X, 
TestParameter, AutoAnalysis.Line1.Point1.XY.Y, 
TestParameter, AutoAnalysis.Line1.Point1.Data.Var, 
TestParameter, AutoAnalysis.Line1.Point1.Data.Condition, 
TestParameter, AutoAnalysis.Line1.Point1.Data.Start, false
TestParameter, AutoAnalysis.Line1.Point1.Data.StartVar, 
TestParameter, AutoAnalysis.Line1.Point1.Data.StartCondition, 
TestParameter, AutoAnalysis.Line1.Point2.Type, 0
TestParameter, AutoAnalysis.Line1.Point2.XY.X, 
TestParameter, AutoAnalysis.Line1.Point2.XY.Y, 
TestParameter, AutoAnalysis.Line1.Point2.Data.Var, 
TestParameter, AutoAnalysis.Line1.Point2.Data.Condition, 
TestParameter, AutoAnalysis.Line1.Point2.Data.Start, false
TestParameter, AutoAnalysis.Line1.Point2.Data.StartVar, 
TestParameter, AutoAnalysis.Line1.Point2.Data.StartCondition, 
TestParameter, AutoAnalysis.Line1.GradientExpr, 0
TestParameter, AutoAnalysis.Line2.Enabled, false
TestParameter, AutoAnalysis.Line2.Type, 1
TestParameter, AutoAnalysis.Line2.Fix, True
TestParameter, AutoAnalysis.Line2.YAxis, 0
TestParameter, AutoAnalysis.Line2.Point1.Type, 0
TestParameter, AutoAnalysis.Line2.Point1.XY.X, 
TestParameter, AutoAnalysis.Line2.Point1.XY.Y, 
TestParameter, AutoAnalysis.Line2.Point1.Data.Var, 
TestParameter, AutoAnalysis.Line2.Point1.Data.Condition, 
TestParameter, AutoAnalysis.Line2.Point1.Data.Start, false
TestParameter, AutoAnalysis.Line2.Point1.Data.StartVar, 
TestParameter, AutoAnalysis.Line2.Point1.Data.StartCondition, 
TestParameter, AutoAnalysis.Line2.Point2.Type, 0
TestParameter, AutoAnalysis.Line2.Point2.XY.X, 
TestParameter, AutoAnalysis.Line2.Point2.XY.Y, 
TestParameter, AutoAnalysis.Line2.Point2.Data.Var, 
TestParameter, AutoAnalysis.Line2.Point2.Data.Condition, 
TestParameter, AutoAnalysis.Line2.Point2.Data.Start, false
TestParameter, AutoAnalysis.Line2.Point2.Data.StartVar, 
TestParameter, AutoAnalysis.Line2.Point2.Data.StartCondition, 
TestParameter, AutoAnalysis.Line2.GradientExpr, 0
TestParameter, AutoAnalysis.Marker.Enabled, false
TestParameter, AutoAnalysis.Marker.Data.Var, 
TestParameter, AutoAnalysis.Marker.Data.Condition, 
TestParameter, AutoAnalysis.Marker.Data.Start, false
TestParameter, AutoAnalysis.Marker.Data.StartVar, 
TestParameter, AutoAnalysis.Marker.Data.StartCondition, 
MetaData, TestRecord.EntryPoint, true
MetaData, TestRecord.RecordTime, 06/18/2019 13:06:51
MetaData, TestRecord.TestTarget, 6-11
MetaData, TestRecord.IterationIndex, 1
MetaData, TestRecord.Preservation, true
MetaData, TestRecord.Flag, 
MetaData, TestRecord.Remarks, bad
MetaData, TestRecord.LinkKey, abd5b634-f5a2-4ef0-a74e-8aaa62eb209f
Dimension1, 202, 202, 202, 202, 202, 202, 202, 202, 202, 202
Dimension2, 1, 1, 1, 1, 1, 1, 1, 1, 1, 1
DataName, VG, VS, VD, ID, IS, IG, absID, sqrtID, gm2, absIG
DataValue, -2, 0, 5, 4.89793E-09, -1.692E-12, -3.90248E-09, 4.89793E-09, 6.9985212723831878E-05, 1.7553178417630722E-08, 3.90248E-09
DataValue, -1.9500000000000002, 0, 5, 4.01459E-09, -1.659E-12, -3.19507E-09, 4.01459E-09, 6.3360792293026138E-05, 2.869459060959488E-08, 3.19507E-09
DataValue, -1.9000000000000001, 0, 5, 2.81385E-09, -2.152E-12, -3.10491E-09, 2.81385E-09, 5.3045734984068234E-05, 1.2971966328773424E-08, 3.10491E-09
DataValue, -1.85, 0, 5, 2.70102E-09, -1.4E-12, -2.00119E-09, 2.70102E-09, 5.1971338254849661E-05, 1.11143062113502E-08, 2.00119E-09
DataValue, -1.8, 0, 5, 1.80653E-09, -4.464E-12, -1.58736E-09, 1.80653E-09, 4.2503293989995647E-05, 1.5725491907268045E-08, 1.58736E-09
DataValue, -1.75, 0, 5, 1.55482E-09, -3.1020000000000003E-12, -1.38085E-09, 1.55482E-09, 3.9431205916126885E-05, 7.6444568235900765E-09, 1.38085E-09
DataValue, -1.7000000000000002, 0, 5, 1.13974E-09, -1.732E-12, -1.33889E-09, 1.13974E-09, 3.3760035545004984E-05, 1.2081303054754856E-09, 1.33889E-09
DataValue, -1.6500000000000001, 0, 5, 1.29279E-09, -1.1810000000000001E-12, -3.71652E-09, 1.29279E-09, 3.5955389025847015E-05, 1.4506591066034656E-08, 3.71652E-09
DataValue, -1.6, 0, 5, 2.09804E-09, -2.11E-12, -1.63053E-09, 2.09804E-09, 4.5804366604069527E-05, 2.9179761893938115E-09, 1.63053E-09
DataValue, -1.55, 0, 5, 9.3352E-10, -1.433E-12, -1.56547E-09, 9.3352E-10, 3.0553559530764986E-05, 6.982054067648192E-09, 1.56547E-09
DataValue, -1.5, 0, 5, 1.40239E-09, -1.5280000000000002E-12, -1.37733E-09, 1.40239E-09, 3.7448497967208245E-05, 2.9495983672849598E-09, 1.37733E-09
DataValue, -1.4500000000000002, 0, 5, 1.29489E-09, -1.5760000000000002E-12, -1.25879E-09, 1.29489E-09, 3.598458003089657E-05, 1.0247440099210378E-09, 1.25879E-09
DataValue, -1.4000000000000001, 0, 5, 1.17288E-09, -4.6100000000000006E-13, -1.24212E-09, 1.17288E-09, 3.4247335662792807E-05, 4.27262521546153E-10, 1.24212E-09
DataValue, -1.35, 0, 5, 1.1504E-09, -1.782E-12, -1.25132E-09, 1.1504E-09, 3.3917547081120119E-05, 2.0713493978016E-09, 1.25132E-09
DataValue, -1.3, 0, 5, 8.8186E-10, -2.18E-12, -6.50591E-10, 8.8186E-10, 2.9696127693690974E-05, 4.9155495727115485E-09, 6.50591E-10
DataValue, -1.25, 0, 5, 7.23957E-10, -4.6210000000000006E-12, -7.9495700000000009E-10, 7.23957E-10, 2.6906449041075637E-05, 1.2112897264303959E-10, 7.9495700000000009E-10
DataValue, -1.2, 0, 5, 8.17705E-10, -2.2290000000000003E-12, -7.3454400000000006E-10, 8.17705E-10, 2.8595541610537821E-05, 1.4008543410167473E-11, 7.3454400000000006E-10
DataValue, -1.1500000000000001, 0, 5, 7.0395600000000009E-10, -1.7620000000000002E-12, -8.6802200000000009E-10, 7.0395600000000009E-10, 2.6532169153689641E-05, 4.2199553499363179E-11, 8.6802200000000009E-10
DataValue, -1.1, 0, 5, 8.5527900000000006E-10, -1.6060000000000002E-12, -9.0315300000000006E-10, 8.5527900000000006E-10, 2.924515344463079E-05, 1.2308904139185063E-08, 9.0315300000000006E-10
DataValue, -1.05, 0, 5, 1.41577E-09, -3.4980000000000002E-12, -2.07306E-09, 1.41577E-09, 3.7626719229823907E-05, 1.2122081689911825E-08, 2.07306E-09
DataValue, -1, 0, 5, 1.62048E-09, -1.6990000000000001E-12, -1.69606E-09, 1.62048E-09, 4.0255186001309197E-05, 1.4179371169695969E-09, 1.69606E-09
DataValue, -0.95000000000000007, 0, 5, 1.71332E-09, -1.623E-12, -1.70347E-09, 1.71332E-09, 4.1392269809712054E-05, 7.7622042878129308E-10, 1.70347E-09
DataValue, -0.9, 0, 5, 1.85255E-09, -1.7200000000000001E-12, -1.82944E-09, 1.85255E-09, 4.30412592752582E-05, 3.8240367861956933E-09, 1.82944E-09
DataValue, -0.85000000000000009, 0, 5, 2.26349E-09, -1.5640000000000002E-12, -2.17089E-09, 2.26349E-09, 4.7576149486901522E-05, 2.0402526778228344E-09, 2.17089E-09
DataValue, -0.8, 0, 5, 2.26178E-09, -1.9580000000000003E-12, -2.24321E-09, 2.26178E-09, 4.7558174901903041E-05, 1.4797961679669182E-10, 2.24321E-09
DataValue, -0.75, 0, 5, 2.14922E-09, -2.019E-12, -1.91744E-09, 2.14922E-09, 4.6359680758176069E-05, 4.3008058506347818E-09, 1.91744E-09
DataValue, -0.70000000000000007, 0, 5, 1.68101E-09, -5.198E-12, -1.66878E-09, 1.68101E-09, 4.1000121951038142E-05, 5.5740849426088689E-09, 1.66878E-09
DataValue, -0.65, 0, 5, 1.51272E-09, -1.6330000000000002E-12, -1.39252E-09, 1.51272E-09, 3.8893701289540445E-05, 1.5623994472490135E-09, 1.39252E-09
DataValue, -0.6, 0, 5, 1.37251E-09, -2.172E-12, -1.33642E-09, 1.37251E-09, 3.7047402068161269E-05, 7.936923929719E-10, 1.33642E-09
DataValue, -0.55, 0, 5, 1.30151E-09, -1.9650000000000002E-12, -1.30285E-09, 1.30151E-09, 3.6076446609942061E-05, 3.1024049931720943E-11, 1.30285E-09
DataValue, -0.5, 0, 5, 1.33155E-09, -2.098E-12, -1.34716E-09, 1.33155E-09, 3.6490409698988038E-05, 4.0781344418279494E-09, 1.34716E-09
DataValue, -0.45, 0, 5, 8.8152100000000008E-10, -2.452E-12, -8.8147000000000006E-10, 8.8152100000000008E-10, 2.9690419330147562E-05, 3.5714181783715008E-09, 8.8147000000000006E-10
DataValue, -0.4, 0, 5, 9.311210000000001E-10, -2.231E-12, -8.8139800000000006E-10, 9.311210000000001E-10, 3.05142753477778E-05, 6.1850314087609958E-12, 8.8139800000000006E-10
DataValue, -0.35000000000000003, 0, 5, 8.6681500000000007E-10, -2.9820000000000004E-12, -8.704700000000001E-10, 8.6681500000000007E-10, 2.9441722096372014E-05, 6.134770910912574E-11, 8.704700000000001E-10
DataValue, -0.3, 0, 5, 8.839340000000001E-10, -2.439E-12, -8.90844E-10, 8.839340000000001E-10, 2.9731027563809498E-05, 5.7062521171848285E-12, 8.90844E-10
DataValue, -0.25, 0, 5, 8.80938E-10, -2.8190000000000004E-12, -8.8283E-10, 8.80938E-10, 2.9680599724399103E-05, 2.652339765227046E-13, 8.8283E-10
DataValue, -0.2, 0, 5, 8.86999E-10, -4.107E-12, -9.1400400000000008E-10, 8.86999E-10, 2.9782528435309183E-05, 1.3439298225156498E-11, 9.1400400000000008E-10
DataValue, -0.15, 0, 5, 9.0283400000000011E-10, -4.788E-12, -9.2574000000000005E-10, 9.0283400000000011E-10, 3.0047196208631515E-05, 6.3100504580759709E-11, 9.2574000000000005E-10
DataValue, -0.1, 0, 5, 9.3494600000000013E-10, -3.2620000000000004E-12, -9.25077E-10, 9.3494600000000013E-10, 3.05768866956726E-05, 1.3318085833727928E-11, 9.25077E-10
DataValue, -0.05, 0, 5, 9.2489800000000007E-10, -4.397E-12, -9.4488000000000015E-10, 9.2489800000000007E-10, 3.0412135735590817E-05, 2.6889104587337032E-11, 9.4488000000000015E-10
DataValue, 0, 0, 5, 9.66926E-10, -3.084E-12, -9.8138500000000012E-10, 9.66926E-10, 3.1095433748381775E-05, 1.650438054042191E-10, 9.8138500000000012E-10
DataValue, 0.05, 0, 5, 1.004689E-09, -2.7800000000000003E-12, -1.0217930000000002E-09, 1.004689E-09, 3.1696829494446285E-05, 9.8931390034086228E-11, 1.0217930000000002E-09
DataValue, 0.1, 0, 5, 1.0297730000000002E-09, -8.618E-12, -1.059867E-09, 1.0297730000000002E-09, 3.2090076347681072E-05, 2.1597664579481904E-10, 1.059867E-09
DataValue, 0.15, 0, 5, 1.1000130000000001E-09, -7.6760000000000008E-12, -1.33008E-09, 1.1000130000000001E-09, 3.3166443885348942E-05, 1.6433317158989138E-09, 1.33008E-09
DataValue, 0.2, 0, 5, 1.30638E-09, -8.586E-12, -1.3005E-09, 1.30638E-09, 3.6143879149864368E-05, 7.9458075349249023E-10, 1.3005E-09
DataValue, 0.25, 0, 5, 1.29494E-09, -1.0104000000000001E-11, -1.32256E-09, 1.29494E-09, 3.598527476621514E-05, 3.714928448476638E-12, 1.32256E-09
DataValue, 0.3, 0, 5, 1.32035E-09, -8.7410000000000008E-12, -1.33742E-09, 1.32035E-09, 3.6336620646394737E-05, 7.6847961008069487E-11, 1.33742E-09
DataValue, 0.35000000000000003, 0, 5, 1.3588E-09, -1.4657E-11, -1.36044E-09, 1.3588E-09, 3.6861904454327912E-05, 5.05018390102368E-11, 1.36044E-09
DataValue, 0.4, 0, 5, 1.3725E-09, -1.8813E-11, -1.39931E-09, 1.3725E-09, 3.7047267105685409E-05, 3.2417752292952164E-11, 1.39931E-09
DataValue, 0.45, 0, 5, 1.4011E-09, -2.7072E-11, -1.39842E-09, 1.4011E-09, 3.7431270349802449E-05, 3.7991917711634264E-11, 1.39842E-09
DataValue, 0.5, 0, 5, 1.41855E-09, -3.3575000000000004E-11, -1.40814E-09, 1.41855E-09, 3.7663642946480895E-05, 5.5565710616878149E-11, 1.40814E-09
DataValue, 0.55, 0, 5, 1.45746E-09, -4.6486000000000004E-11, -1.4488E-09, 1.45746E-09, 3.8176694461411928E-05, 1.250332536911362E-10, 1.4488E-09
DataValue, 0.6, 0, 5, 1.50403E-09, -6.5380000000000011E-11, -1.45218E-09, 1.50403E-09, 3.8781825640369224E-05, 1.5990301249789368E-10, 1.45218E-09
DataValue, 0.65, 0, 5, 1.55561E-09, -9.454E-11, -1.53311E-09, 1.55561E-09, 3.9441222090599577E-05, 4.0197720455137647E-10, 1.53311E-09
DataValue, 0.70000000000000007, 0, 5, 1.66356E-09, -1.3459500000000001E-10, -1.5799E-09, 1.66356E-09, 4.0786762558457614E-05, 8.4793712510918358E-10, 1.5799E-09
DataValue, 0.75, 0, 5, 1.79379E-09, -1.87965E-10, -1.65027E-09, 1.79379E-09, 4.2353158087679841E-05, 1.2251000708761674E-09, 1.65027E-09
DataValue, 0.8, 0, 5, 1.96133E-09, -2.55731E-10, -1.74255E-09, 1.96133E-09, 4.4286905513932672E-05, 1.231939057481309E-09, 1.74255E-09
DataValue, 0.85000000000000009, 0, 5, 2.10342E-09, -3.3647600000000003E-10, -1.78943E-09, 2.10342E-09, 4.5863057028506074E-05, 8.7553310387024422E-10, 1.78943E-09
DataValue, 0.9, 0, 5, 2.23217E-09, -4.2143400000000005E-10, -1.82678E-09, 2.23217E-09, 4.7245846378279649E-05, 7.0631577184719158E-10, 1.82678E-09
DataValue, 0.95000000000000007, 0, 5, 2.35426E-09, -5.1328500000000005E-10, -1.86957E-09, 2.35426E-09, 4.852071722470722E-05, 6.1160431006739951E-10, 1.86957E-09
DataValue, 1, 0, 5, 2.47197E-09, -5.97085E-10, -1.88535E-09, 2.47197E-09, 4.9718909883463855E-05, 4.18964126836644E-10, 1.88535E-09
DataValue, 1.05, 0, 5, 2.55708E-09, -6.7371400000000008E-10, -1.88469E-09, 2.55708E-09, 5.0567578545941866E-05, 3.0751377040118735E-10, 1.88469E-09
DataValue, 1.1, 0, 5, 2.64942E-09, -7.40806E-10, -1.90075E-09, 2.64942E-09, 5.147251693865378E-05, 2.2840395704885772E-10, 1.90075E-09
DataValue, 1.1500000000000001, 0, 5, 2.71221E-09, -8.03001E-10, -1.88207E-09, 2.71221E-09, 5.2078882476489451E-05, 4.7559517893513041E-11, 1.88207E-09
DataValue, 1.2, 0, 5, 2.72089E-09, -8.11003E-10, -1.89084E-09, 2.72089E-09, 5.2162151029266424E-05, 1.7653873976170386E-11, 1.89084E-09
DataValue, 1.25, 0, 5, 2.75615E-09, -8.5333800000000006E-10, -1.89583E-09, 2.75615E-09, 5.2499047610409084E-05, 4.6030573817731415E-11, 1.89583E-09
DataValue, 1.3, 0, 5, 2.79213E-09, -8.9211900000000011E-10, -1.88712E-09, 2.79213E-09, 5.2840609383314272E-05, 3.6568474768790386E-11, 1.88712E-09
DataValue, 1.35, 0, 5, 2.82001E-09, -9.13382E-10, -1.84511E-09, 2.82001E-09, 5.3103766344770692E-05, 1.6981823302785784E-11, 1.84511E-09
DataValue, 1.4000000000000001, 0, 5, 2.83585E-09, -9.8417E-10, -1.7628899999999999E-09, 2.83585E-09, 5.3252699462093E-05, 1.1556803371595306E-11, 1.7628899999999999E-09
DataValue, 1.4500000000000002, 0, 5, 2.78402E-09, -1.07127E-09, -1.67704E-09, 2.78402E-09, 5.2763813357262194E-05, 1.5309757759683607E-11, 1.67704E-09
DataValue, 1.5, 0, 5, 2.79433E-09, -1.15856E-09, -1.60747E-09, 2.79433E-09, 5.2861422606660896E-05, 2.5964005297119572E-12, 1.60747E-09
DataValue, 1.55, 0, 5, 2.80105E-09, -1.22077E-09, -1.54614E-09, 2.80105E-09, 5.2924946858735722E-05, 4.039837538915092E-12, 1.54614E-09
DataValue, 1.6, 0, 5, 2.81562E-09, -1.28704E-09, -1.50583E-09, 2.81562E-09, 5.3062416077672148E-05, 3.9474749852474911E-12, 1.50583E-09
DataValue, 1.6500000000000001, 0, 5, 2.82212E-09, -1.35719E-09, -1.44861E-09, 2.82212E-09, 5.3123629394084139E-05, 1.7964360085823208E-11, 1.44861E-09
DataValue, 1.7000000000000002, 0, 5, 2.86078E-09, -1.42495E-09, -1.39867E-09, 2.86078E-09, 5.34862599178518E-05, 3.9312713057043345E-11, 1.39867E-09
DataValue, 1.75, 0, 5, 2.88913E-09, -1.48131E-09, -1.37327E-09, 2.88913E-09, 5.3750627903309187E-05, 3.22592316468146E-11, 1.37327E-09
DataValue, 1.8, 0, 5, 2.92186E-09, -1.56105E-09, -1.33084E-09, 2.92186E-09, 5.4054232026734043E-05, 4.3285769920673458E-11, 1.33084E-09
DataValue, 1.85, 0, 5, 2.96029E-09, -1.64435E-09, -1.28675E-09, 2.96029E-09, 5.4408547122671819E-05, 4.7571010651770118E-11, 1.28675E-09
DataValue, 1.9000000000000001, 0, 5, 2.9969E-09, -1.70613E-09, -1.25918E-09, 2.9969E-09, 5.4743949437357917E-05, 3.592340873890402E-11, 1.25918E-09
DataValue, 1.9500000000000002, 0, 5, 3.02587E-09, -1.76859E-09, -1.21725E-09, 3.02587E-09, 5.5007908522320679E-05, 4.7544362855955553E-11, 1.21725E-09
DataValue, 2, 0, 5, 3.07287E-09, -1.84228E-09, -1.1847E-09, 3.07287E-09, 5.5433473641834855E-05, 8.8985307496537115E-11, 1.1847E-09
DataValue, 2.05, 0, 5, 3.13054E-09, -1.92491E-09, -1.17009E-09, 3.13054E-09, 5.5951228762199674E-05, 7.5456629799914532E-11, 1.17009E-09
DataValue, 2.1, 0, 5, 3.16993E-09, -2.02959E-09, -1.11775E-09, 3.16993E-09, 5.630213139837603E-05, 8.1281693468651691E-11, 1.11775E-09
DataValue, 2.15, 0, 5, 3.23224E-09, -2.09189E-09, -1.08001E-09, 3.23224E-09, 5.6852792367657724E-05, 4.9193006865143385E-11, 1.08001E-09
DataValue, 2.2, 0, 5, 3.2494E-09, -2.16145E-09, -1.05794E-09, 3.2494E-09, 5.7003508663941029E-05, 7.1981783888256729E-11, 1.05794E-09
DataValue, 2.25, 0, 5, 3.32943E-09, -2.28887E-09, -1.01086E-09, 3.32943E-09, 5.7701213158823622E-05, 5.6812694700529082E-11, 1.01086E-09
DataValue, 2.3000000000000003, 0, 5, 3.3359E-09, -2.36355E-09, -9.44111E-10, 3.3359E-09, 5.7757250627085772E-05, 2.3488456775528486E-12, 9.44111E-10
DataValue, 2.35, 0, 5, 3.34714E-09, -2.40978E-09, -8.8737900000000008E-10, 3.34714E-09, 5.7854472601519753E-05, 2.5937843117111125E-11, 8.8737900000000008E-10
DataValue, 2.4, 0, 5, 3.39499E-09, -2.49972E-09, -8.4638400000000006E-10, 3.39499E-09, 5.8266542715352524E-05, 1.7421461946043242E-11, 8.4638400000000006E-10
DataValue, 2.45, 0, 5, 3.39561E-09, -2.57712E-09, -7.967300000000001E-10, 3.39561E-09, 5.8271862849920973E-05, 3.8056743280781014E-11, 7.967300000000001E-10
DataValue, 2.5, 0, 5, 3.46726E-09, -2.66417E-09, -7.468420000000001E-10, 3.46726E-09, 5.8883444192744021E-05, 1.6482075947012698E-10, 7.468420000000001E-10
DataValue, 2.5500000000000003, 0, 5, 3.54688E-09, -2.77891E-09, -7.05285E-10, 3.54688E-09, 5.95556882253912E-05, 1.1706428545423408E-10, 7.05285E-10
DataValue, 2.6, 0, 5, 3.59585E-09, -2.86757E-09, -6.66393E-10, 3.59585E-09, 5.9965406694193282E-05, 1.1002584675957526E-10, 6.66393E-10
DataValue, 2.65, 0, 5, 3.67292E-09, -2.99236E-09, -6.37091E-10, 3.67292E-09, 6.06046202859155E-05, 1.7916046085728245E-10, 6.37091E-10
