
SetupTitle, Transfer stab
PrimitiveTest, I/V Sweep
TestParameter, Context.MainFrame, 4155C
TestParameter, Channel.UnitType, SMU, SMU, SMU
TestParameter, Channel.Unit, SMU3:MP, SMU4:MP, SMU1:MP
TestParameter, Channel.IName, ID, IS, IG
TestParameter, Channel.VName, VD, VS, VG
TestParameter, Channel.Mode, V, COMMON, V
TestParameter, Channel.Func, CONST, CONST, VAR1
TestParameter, Channel.Index, 
TestParameter, Channel.Time, 
TestParameter, Measurement.Port.Unit, SMU3:MP, SMU4:MP, SMU1:MP
TestParameter, Measurement.Port.SeriesResistor, NONE, NONE, NONE
TestParameter, Measurement.Port.Filter, ON, ON, ON
TestParameter, Measurement.Primary.Locus, Single
TestParameter, Measurement.Primary.Scale, LINEAR
TestParameter, Measurement.Primary.Start, -2
TestParameter, Measurement.Primary.Stop, 3
TestParameter, Measurement.Primary.Step, 0.05
TestParameter, Measurement.Primary.Compliance, 0.1
TestParameter, Measurement.Primary.PowerCompliance, 0
TestParameter, Measurement.Aborting.Condition, CONTINUE AT ANY
TestParameter, Measurement.PostOutput.Value, START
TestParameter, Measurement.PostOutput.Retention, OFF
TestParameter, Measurement.Bias.Source, 3, 0, -2
TestParameter, Measurement.Bias.Compliance, 0.1, 0.1, 0.1
TestParameter, Measurement.Monitor.Unit, SMU3:MP, SMU4:MP, SMU1:MP
TestParameter, Measurement.Monitor.Adc, HR ADC, HR ADC, HR ADC
TestParameter, Measurement.Monitor.RangingMode, AUTO, AUTO, AUTO
TestParameter, Measurement.Monitor.RangeBoundary, , , 
TestParameter, Measurement.Monitor.RangeRating, BY FULL RANGE, BY FULL RANGE, BY FULL RANGE
TestParameter, Measurement.Monitor.RangeRatingCoeff, 50, 50, 50
TestParameter, Measurement.Timing.Hold, 0.5
TestParameter, Measurement.Timing.Delay, 0.05
TestParameter, Measurement.Adc.HighResolution.AutoZero, OFF
TestParameter, Measurement.Adc.HighResolution.Mode, AUTO
TestParameter, Measurement.Adc.HighResolution.Coeff, 1
TestParameter, Measurement.Ag16440ASelector.SemiconductorRelay.Channel1, DEFAULT
TestParameter, Measurement.Ag16440ASelector.SemiconductorRelay.Channel3, DEFAULT
TestParameter, Function.User.Name, absID, sqrtID, gm2, absIG
TestParameter, Function.User.Unit, A, A, A/V, A
TestParameter, Function.User.Definition, abs(ID), sqrt(abs(ID)), (delta(sqrtID)/delta(VG))^2, abs(IG)
TestParameter, Output.Graph.Enabled, true
TestParameter, Output.Graph.XAxis.Data, VG
TestParameter, Output.Graph.XAxis.Scale, Linear
TestParameter, Output.Graph.XAxis.Left, -5
TestParameter, Output.Graph.XAxis.Right, 7
TestParameter, Output.Graph.YAxis.Data, ID, absIG, gm2
TestParameter, Output.Graph.YAxis.Scale, Log, Log, Linear
TestParameter, Output.Graph.YAxis.Bottom, 1E-14, 1E-14, 0
TestParameter, Output.Graph.YAxis.Top, 0.01, 0.01, 1E-05
TestParameter, Output.Graph.YAxis.Group, , , 
TestParameter, Output.List.Data, VG, IG, VD, ID, VS, IS, sqrtID, gm2, absIG
TestParameter, AutoAnalysis.Interpolation, false
TestParameter, AutoAnalysis.Line1.Enabled, false
TestParameter, AutoAnalysis.Line1.Type, 1
TestParameter, AutoAnalysis.Line1.Fix, True
TestParameter, AutoAnalysis.Line1.YAxis, 0
TestParameter, AutoAnalysis.Line1.Point1.Type, 0
TestParameter, AutoAnalysis.Line1.Point1.XY.X, 
TestParameter, AutoAnalysis.Line1.Point1.XY.Y, 
TestParameter, AutoAnalysis.Line1.Point1.Data.Var, 
TestParameter, AutoAnalysis.Line1.Point1.Data.Condition, 
TestParameter, AutoAnalysis.Line1.Point1.Data.Start, false
TestParameter, AutoAnalysis.Line1.Point1.Data.StartVar, 
TestParameter, AutoAnalysis.Line1.Point1.Data.StartCondition, 
TestParameter, AutoAnalysis.Line1.Point2.Type, 0
TestParameter, AutoAnalysis.Line1.Point2.XY.X, 
TestParameter, AutoAnalysis.Line1.Point2.XY.Y, 
TestParameter, AutoAnalysis.Line1.Point2.Data.Var, 
TestParameter, AutoAnalysis.Line1.Point2.Data.Condition, 
TestParameter, AutoAnalysis.Line1.Point2.Data.Start, false
TestParameter, AutoAnalysis.Line1.Point2.Data.StartVar, 
TestParameter, AutoAnalysis.Line1.Point2.Data.StartCondition, 
TestParameter, AutoAnalysis.Line1.GradientExpr, 0
TestParameter, AutoAnalysis.Line2.Enabled, false
TestParameter, AutoAnalysis.Line2.Type, 1
TestParameter, AutoAnalysis.Line2.Fix, True
TestParameter, AutoAnalysis.Line2.YAxis, 0
TestParameter, AutoAnalysis.Line2.Point1.Type, 0
TestParameter, AutoAnalysis.Line2.Point1.XY.X, 
TestParameter, AutoAnalysis.Line2.Point1.XY.Y, 
TestParameter, AutoAnalysis.Line2.Point1.Data.Var, 
TestParameter, AutoAnalysis.Line2.Point1.Data.Condition, 
TestParameter, AutoAnalysis.Line2.Point1.Data.Start, false
TestParameter, AutoAnalysis.Line2.Point1.Data.StartVar, 
TestParameter, AutoAnalysis.Line2.Point1.Data.StartCondition, 
TestParameter, AutoAnalysis.Line2.Point2.Type, 0
TestParameter, AutoAnalysis.Line2.Point2.XY.X, 
TestParameter, AutoAnalysis.Line2.Point2.XY.Y, 
TestParameter, AutoAnalysis.Line2.Point2.Data.Var, 
TestParameter, AutoAnalysis.Line2.Point2.Data.Condition, 
TestParameter, AutoAnalysis.Line2.Point2.Data.Start, false
TestParameter, AutoAnalysis.Line2.Point2.Data.StartVar, 
TestParameter, AutoAnalysis.Line2.Point2.Data.StartCondition, 
TestParameter, AutoAnalysis.Line2.GradientExpr, 0
TestParameter, AutoAnalysis.Marker.Enabled, false
TestParameter, AutoAnalysis.Marker.Data.Var, 
TestParameter, AutoAnalysis.Marker.Data.Condition, 
TestParameter, AutoAnalysis.Marker.Data.Start, false
TestParameter, AutoAnalysis.Marker.Data.StartVar, 
TestParameter, AutoAnalysis.Marker.Data.StartCondition, 
MetaData, TestRecord.EntryPoint, true
MetaData, TestRecord.RecordTime, 06/18/2019 16:05:03
MetaData, TestRecord.TestTarget, 7-43
MetaData, TestRecord.IterationIndex, 1
MetaData, TestRecord.Preservation, true
MetaData, TestRecord.Flag, 
MetaData, TestRecord.Remarks, leak
MetaData, TestRecord.LinkKey, 75c4014f-b691-4d5c-8559-893988fba0f7
Dimension1, 101, 101, 101, 101, 101, 101, 101, 101, 101, 101
Dimension2, 1, 1, 1, 1, 1, 1, 1, 1, 1, 1
DataName, VG, VD, VS, ID, IS, IG, absID, sqrtID, gm2, absIG
DataValue, -2, 3, 0, 4.06876E-10, 0.000933078, -0.00093318, 4.06876E-10, 2.0171167541815718E-05, 2.0176594486210838E-11, 0.00093318
DataValue, -1.9500000000000002, 3, 0, 4.1598700000000005E-10, 0.000907929, -0.00090767100000000009, 4.1598700000000005E-10, 2.0395759363161747E-05, 4.95999857509944E-11, 0.00090767100000000009
DataValue, -1.9000000000000001, 3, 0, 4.3578400000000005E-10, 0.00088293600000000007, -0.00088232, 4.3578400000000005E-10, 2.0875440115120928E-05, 2.7566898375661428E-10, 0.00088232
DataValue, -1.85, 3, 0, 4.8647100000000009E-10, 0.000857352, -0.0008577700000000001, 4.8647100000000009E-10, 2.2056087595038248E-05, 8.4212795456747414E-10, 0.0008577700000000001
DataValue, -1.8, 3, 0, 5.65364E-10, 0.000834575, -0.000834389, 5.65364E-10, 2.3777384212734588E-05, 1.3789124719491438E-09, 0.000834389
DataValue, -1.75, 3, 0, 6.64065E-10, 0.00081081, -0.00081070900000000006, 6.64065E-10, 2.5769458667189732E-05, 2.3884828168545553E-09, 0.00081070900000000006
DataValue, -1.7000000000000002, 3, 0, 8.21659E-10, 0.000786642, -0.0007862870000000001, 8.21659E-10, 2.8664594886375073E-05, 3.1992594360293064E-09, 0.0007862870000000001
DataValue, -1.6500000000000001, 3, 0, 9.8757200000000015E-10, 0.00076254300000000007, -0.000762449, 9.8757200000000015E-10, 3.1425658306549448E-05, 5.9272265068345948E-09, 0.000762449
DataValue, -1.6, 3, 0, 1.3223E-09, 0.00073875100000000006, -0.000738747, 1.3223E-09, 3.636344318130504E-05, 5.2024397912634478E-09, 0.000738747
DataValue, -1.55, 3, 0, 1.49293E-09, 0.00071521700000000009, -0.000715269, 1.49293E-09, 3.8638452349958325E-05, 3.1125435200803358E-09, 0.000715269
DataValue, -1.5, 3, 0, 1.75917E-09, 0.00069185, -0.00069178400000000008, 1.75917E-09, 4.1942460585902682E-05, 3.1124850837071682E-09, 0.00069178400000000008
DataValue, -1.4500000000000002, 3, 0, 1.95518E-09, 0.000668759, -0.000668491, 1.95518E-09, 4.421741738274636E-05, 1.404273115063567E-09, 0.000668491
DataValue, -1.4000000000000001, 3, 0, 2.08756E-09, 0.00064527600000000007, -0.000645418, 2.08756E-09, 4.568982381231077E-05, 1.3149953687619157E-09, 0.000645418
DataValue, -1.35, 3, 0, 2.28902E-09, 0.00062207700000000007, -0.00062198800000000008, 2.28902E-09, 4.7843703869997358E-05, 7.7833336355616848E-10, 0.00062198800000000008
DataValue, -1.3, 3, 0, 2.35028E-09, 0.000598599, -0.00059861000000000007, 2.35028E-09, 4.8479686467633017E-05, 1.6880528079295762E-10, 0.00059861000000000007
DataValue, -1.25, 3, 0, 2.41503E-09, 0.000575271, -0.00057537000000000007, 2.41503E-09, 4.9142954734122366E-05, 5.2431499345792466E-10, 0.00057537000000000007
DataValue, -1.2, 3, 0, 2.57754E-09, 0.000552051, -0.00055217100000000006, 2.57754E-09, 5.0769479020372076E-05, 1.3120226153913437E-09, 0.00055217100000000006
DataValue, -1.1500000000000001, 3, 0, 2.78416E-09, 0.000528874, -0.000528906, 2.78416E-09, 5.2765140007395035E-05, 6.222461823623437E-10, 0.000528906
DataValue, -1.1, 3, 0, 2.83705E-09, 0.000505724, -0.00050562, 2.83705E-09, 5.3263965304885065E-05, 1.5824908988623997E-09, 0.00050562
DataValue, -1.05, 3, 0, 3.21979E-09, 0.000482475, -0.000482417, 3.21979E-09, 5.6743193424409948E-05, 1.8268750974933972E-09, 0.000482417
DataValue, -1, 3, 0, 3.31064E-09, 0.000459326, -0.00045938, 3.31064E-09, 5.75381612497306E-05, 3.2487532228865496E-10, 0.00045938
DataValue, -0.95000000000000007, 3, 0, 3.42759E-09, 0.00043613, -0.000436144, 3.42759E-09, 5.8545623235217167E-05, 9.7358131851406717E-10, 0.000436144
DataValue, -0.9, 3, 0, 3.67944E-09, 0.00041299200000000005, -0.00041301500000000003, 3.67944E-09, 6.0658387713489387E-05, 2.3864459998996342E-09, 0.00041301500000000003
DataValue, -0.85000000000000009, 3, 0, 4.02346E-09, 0.00038995800000000004, -0.00038992700000000004, 4.02346E-09, 6.3430749640848482E-05, 2.9216381638374116E-09, 0.00038992700000000004
DataValue, -0.8, 3, 0, 4.3644E-09, 0.000366875, -0.000366875, 4.3644E-09, 6.6063605714493056E-05, 3.0993953490991863E-09, 0.000366875
DataValue, -0.75, 3, 0, 4.76072E-09, 0.000343752, -0.000343787, 4.76072E-09, 6.8997970984660125E-05, 3.5963934438492311E-09, 0.000343787
DataValue, -0.70000000000000007, 3, 0, 5.19273E-09, 0.00032077, -0.00032073000000000003, 5.19273E-09, 7.2060599497922575E-05, 4.6044400383223016E-09, 0.00032073000000000003
DataValue, -0.65, 3, 0, 5.74315E-09, 0.00029767300000000003, -0.000297688, 5.74315E-09, 7.5783573417990787E-05, 5.8846361636565014E-09, 0.000297688
DataValue, -0.6, 3, 0, 6.35715E-09, 0.000274721, -0.000274732, 6.35715E-09, 7.9731737720935189E-05, 7.1276663931953523E-09, 0.000274732
DataValue, -0.55, 3, 0, 7.09404E-09, 0.000251711, -0.000251729, 7.09404E-09, 8.4226124213334188E-05, 8.4808287519792736E-09, 0.000251729
DataValue, -0.5, 3, 0, 7.91048E-09, 0.00022876300000000002, -0.00022877500000000002, 7.91048E-09, 8.8940879240088463E-05, 9.4695344784479153E-09, 0.00022877500000000002
DataValue, -0.45, 3, 0, 8.82797E-09, 0.00020578500000000002, -0.00020581600000000002, 8.82797E-09, 9.395727752547963E-05, 1.0787119816898131E-08, 0.00020581600000000002
DataValue, -0.4, 3, 0, 9.86585E-09, 0.000182859, -0.00018288900000000002, 9.86585E-09, 9.9326985255770243E-05, 1.2486725582216087E-08, 0.00018288900000000002
DataValue, -0.35000000000000003, 3, 0, 1.105267E-08, 0.00015994500000000001, -0.00015996100000000002, 1.105267E-08, 0.0001051316793359642, 1.1702737802062424E-08, 0.00015996100000000002
DataValue, -0.3, 3, 0, 1.2131899999999999E-08, 0.00013743500000000002, -0.000137441, 1.2131899999999999E-08, 0.00011014490455758722, 1.6576820336530384E-08, 0.000137441
DataValue, -0.25, 3, 0, 1.3925599999999998E-08, 0.00011454100000000001, -0.00011456400000000001, 1.3925599999999998E-08, 0.00011800677946626625, 7.2824715084815676E-08, 0.00011456400000000001
DataValue, -0.2, 3, 0, 1.8804899999999997E-08, 9.16604E-05, -9.16747E-05, 1.8804899999999997E-08, 0.00013713095930532974, 2.2279402562688344E-08, 9.16747E-05
DataValue, -0.15, 3, 0, 1.7671199999999997E-08, 6.88183E-05, -6.88352E-05, 1.7671199999999997E-08, 0.00013293306586399035, 7.3694325138819916E-10, 6.88352E-05
DataValue, -0.1, 3, 0, 1.9556799999999997E-08, 4.5939900000000004E-05, -4.59624E-05, 1.9556799999999997E-08, 0.00013984562917731822, 2.0303782393192394E-08, 4.59624E-05
DataValue, -0.05, 3, 0, 2.16626E-08, 2.31006E-05, -2.3121600000000002E-05, 2.16626E-08, 0.00014718220001073499, 2.358417924866404E-08, 2.3121600000000002E-05
DataValue, 0, 3, 0, 2.4087899999999998E-08, -1.123568E-07, 8.7118299999999989E-08, 2.4087899999999998E-08, 0.00015520277059382671, 2.1256654392788403E-08, 8.7118299999999989E-08
DataValue, 0.05, 3, 0, 2.6166899999999997E-08, -2.29073E-05, 2.28792E-05, 2.6166899999999997E-08, 0.00016176186200708744, 2.2589240789894207E-08, 2.28792E-05
DataValue, 0.1, 3, 0, 2.8979099999999996E-08, -4.57438E-05, 4.5720400000000004E-05, 2.8979099999999996E-08, 0.00017023248808614646, 3.2262679040395375E-08, 4.5720400000000004E-05
DataValue, 0.15, 3, 0, 3.23006E-08, -6.85616E-05, 6.8532500000000008E-05, 3.23006E-08, 0.00017972367679301466, 3.8503046533069259E-08, 6.8532500000000008E-05
DataValue, 0.2, 3, 0, 3.60448E-08, -9.1441600000000009E-05, 9.14059E-05, 3.60448E-08, 0.00018985468126964897, 4.0473434847951952E-08, 9.14059E-05
DataValue, 0.25, 3, 0, 3.99367E-08, -0.00011429800000000001, 0.00011425400000000001, 3.99367E-08, 0.00019984168734275639, 3.9798307529496368E-08, 0.00011425400000000001
DataValue, 0.3, 3, 0, 4.4017799999999993E-08, -0.00013716500000000002, 0.00013715, 4.4017799999999993E-08, 0.00020980419442899608, 4.2813941828696179E-08, 0.00013715
DataValue, 0.35000000000000003, 3, 0, 4.8634899999999993E-08, -0.000160087, 0.00016003500000000002, 4.8634899999999993E-08, 0.0002205332174526096, 4.5607545736402574E-08, 0.00016003500000000002
DataValue, 0.4, 3, 0, 5.3434999999999995E-08, -0.000183014, 0.00018297200000000002, 5.3434999999999995E-08, 0.00023116011766738655, 4.5178890578876373E-08, 0.00018297200000000002
DataValue, 0.45, 3, 0, 5.8461699999999995E-08, -0.00020590900000000002, 0.000205903, 5.8461699999999995E-08, 0.00024178854398006534, 4.6002000588427261E-08, 0.000205903
DataValue, 0.5, 3, 0, 6.38109E-08, -0.00022897700000000003, 0.00022888900000000002, 6.38109E-08, 0.00025260819464142486, 4.9094522518354786E-08, 0.00022888900000000002
DataValue, 0.55, 3, 0, 6.9667399999999993E-08, -0.000251897, 0.000251911, 6.9667399999999993E-08, 0.0002639458277753221, 5.1025504611109923E-08, 0.000251911
DataValue, 0.6, 3, 0, 7.5733399999999989E-08, -0.00027496300000000003, 0.000274902, 7.5733399999999989E-08, 0.00027519702033270636, 5.22421567287268E-08, 0.000274902
DataValue, 0.65, 3, 0, 8.22556E-08, -0.00029801100000000004, 0.00029791700000000003, 8.22556E-08, 0.00028680237098043665, 5.3936153990850076E-08, 0.00029791700000000003
DataValue, 0.70000000000000007, 3, 0, 8.90552E-08, -0.000321055, 0.00032096100000000003, 8.90552E-08, 0.000298421178873082, 5.4704632906851891E-08, 0.00032096100000000003
DataValue, 0.75, 3, 0, 9.6218699999999993E-08, -0.000344217, 0.00034413, 9.6218699999999993E-08, 0.0003101913925304827, 5.4250499513318069E-08, 0.00034413
DataValue, 0.8, 3, 0, 1.0349919999999999E-07, -0.000367518, 0.000367363, 1.0349919999999999E-07, 0.00032171291550076134, 5.5675542270770137E-08, 0.000367363
DataValue, 0.85000000000000009, 3, 0, 1.1141379999999998E-07, -0.000390562, 0.00039046, 1.1141379999999998E-07, 0.00033378705786773696, 4.15430022426913E-08, 0.00039046
DataValue, 0.9, 3, 0, 1.17029E-07, -0.00041390400000000004, 0.000413734, 1.17029E-07, 0.00034209501604086546, 4.7731701900761406E-08, 0.000413734
DataValue, 0.95000000000000007, 3, 0, 1.26476E-07, -0.000437094, 0.000436956, 1.26476E-07, 0.00035563464398171335, 7.0611668499640248E-08, 0.000436956
DataValue, 1, 3, 0, 1.3591599999999998E-07, -0.00046041, 0.00046032600000000005, 1.3591599999999998E-07, 0.00036866787221020493, 6.658843593827121E-08, 0.00046032600000000005
DataValue, 1.05, 3, 0, 1.45496E-07, -0.00048369300000000005, 0.00048357, 1.45496E-07, 0.00038143937919412566, 6.37928555206666E-08, 0.00048357
DataValue, 1.1, 3, 0, 1.55177E-07, -0.00050706800000000006, 0.000506832, 1.55177E-07, 0.00039392511978801251, 6.669766265208638E-08, 0.000506832
DataValue, 1.1500000000000001, 3, 0, 1.65865E-07, -0.00053033000000000008, 0.00053028, 1.65865E-07, 0.000407265269818088, 6.5931206606699739E-08, 0.00053028
DataValue, 1.2, 3, 0, 1.7606599999999998E-07, -0.00055394100000000007, 0.000553723, 1.7606599999999998E-07, 0.0004196021925586185, 6.4549843973674278E-08, 0.000553723
DataValue, 1.25, 3, 0, 1.87205E-07, -0.000577283, 0.000577213, 1.87205E-07, 0.00043267193114414067, 6.9052467265561454E-08, 0.000577213
DataValue, 1.3, 3, 0, 1.98809E-07, -0.000600795, 0.000600625, 1.98809E-07, 0.00044588002870727457, 6.907028141471233E-08, 0.000600625
DataValue, 1.35, 3, 0, 2.1063799999999998E-07, -0.00062418400000000007, 0.000623987, 2.1063799999999998E-07, 0.00045895315665109, 6.7172185496323479E-08, 0.000623987
DataValue, 1.4000000000000001, 3, 0, 2.22593E-07, -0.00064725200000000007, 0.000647117, 2.22593E-07, 0.00047179762610678744, 7.4090946218490548E-08, 0.000647117
DataValue, 1.4500000000000002, 3, 0, 2.3636399999999999E-07, -0.000670717, 0.00067045700000000006, 2.3636399999999999E-07, 0.00048617280878304986, 8.4162190213196086E-08, 0.00067045700000000006
DataValue, 1.5, 3, 0, 2.50809E-07, -0.000693688, 0.000693426, 2.50809E-07, 0.00050080834657581334, 8.3807394330890751E-08, 0.000693426
DataValue, 1.55, 3, 0, 2.65351E-07, -0.00071695800000000007, 0.000716674, 2.65351E-07, 0.00051512231557174844, 9.4202089939180276E-08, 0.000716674
DataValue, 1.6, 3, 0, 2.82493E-07, -0.000739535, 0.00073921, 2.82493E-07, 0.000531500705549861, 1.0133330660543019E-07, 0.00073921
DataValue, 1.6500000000000001, 3, 0, 2.9916E-07, -0.000762298, 0.00076198600000000009, 2.9916E-07, 0.00054695520840375954, 8.1312607804485356E-08, 0.00076198600000000009
DataValue, 1.7000000000000002, 3, 0, 3.1361799999999997E-07, -0.00078627, 0.0007857570000000001, 3.1361799999999997E-07, 0.00056001607119796125, 8.53510695470428E-08, 0.0007857570000000001
DataValue, 1.75, 3, 0, 3.31972E-07, -0.000808792, 0.00080816, 3.31972E-07, 0.00057617011376849461, 1.4474191698532426E-07, 0.00080816
DataValue, 1.8, 3, 0, 3.57677E-07, -0.000829711, 0.000829243, 3.57677E-07, 0.00059806103367465767, 2.126314386449254E-07, 0.000829243
DataValue, 1.85, 3, 0, 3.87235E-07, -0.00084960200000000008, 0.00084940900000000008, 3.87235E-07, 0.00062228209037381113, 1.3356050949098954E-07, 0.00084940900000000008
DataValue, 1.9000000000000001, 3, 0, 4.02726E-07, -0.00087400400000000006, 0.000872666, 4.02726E-07, 0.000634606964979112, 7.1648376560691072E-08, 0.000872666
DataValue, 1.9500000000000002, 3, 0, 4.21265E-07, -0.000897615, 0.00089777600000000009, 4.21265E-07, 0.00064904930475272833, 3.5000520081478444E-08, 0.00089777600000000009
DataValue, 2, 3, 0, 4.26821E-07, -0.000924317, 0.0009228140000000001, 4.26821E-07, 0.00065331539091008719, 1.4733743323262778E-08, 0.0009228140000000001
DataValue, 2.05, 3, 0, 4.37169E-07, -0.00094929100000000011, 0.00095001200000000008, 4.37169E-07, 0.00066118756794120083, 4.0033822777038574E-08, 0.00095001200000000008
DataValue, 2.1, 3, 0, 4.53365E-07, -0.000976505, 0.00097619800000000006, 4.53365E-07, 0.000673323844817633, 4.1980082581917454E-08, 0.00097619800000000006
DataValue, 2.15, 3, 0, 4.64683E-07, -0.000999316, 0.000998383, 4.64683E-07, 0.0006816766095444378, 7.755692981099884E-09, 0.000998383
DataValue, 2.2, 3, 0, 4.6530199999999997E-07, -0.001029914, 0.0010310760000000001, 4.6530199999999997E-07, 0.00068213048605087281, 1.748324602744228E-08, 0.0010310760000000001
DataValue, 2.25, 3, 0, 4.46831E-07, -0.0010620550000000001, 0.0010645370000000002, 4.46831E-07, 0.00066845418691186312, 6.4767385069181754E-08, 0.0010645370000000002
DataValue, 2.3000000000000003, 3, 0, 4.3123E-07, -0.001094755, 0.0010956960000000002, 4.3123E-07, 0.00065668104891187466, 3.5467280002110574E-08, 0.0010956960000000002
