
SetupTitle, Transfer lin
PrimitiveTest, I/V Sweep
TestParameter, Context.MainFrame, 4155C
TestParameter, Channel.UnitType, SMU, SMU, SMU
TestParameter, Channel.Unit, SMU3:MP, SMU4:MP, SMU1:MP
TestParameter, Channel.IName, ID, IS, IG
TestParameter, Channel.VName, VD, VS, VG
TestParameter, Channel.Mode, V, COMMON, V
TestParameter, Channel.Func, CONST, CONST, VAR1
TestParameter, Channel.Index, 
TestParameter, Channel.Time, 
TestParameter, Measurement.Port.Unit, SMU3:MP, SMU4:MP, SMU1:MP
TestParameter, Measurement.Port.SeriesResistor, NONE, NONE, NONE
TestParameter, Measurement.Port.Filter, ON, ON, ON
TestParameter, Measurement.Primary.Locus, Double
TestParameter, Measurement.Primary.Scale, LINEAR
TestParameter, Measurement.Primary.Start, -2
TestParameter, Measurement.Primary.Stop, 3
TestParameter, Measurement.Primary.Step, 0.05
TestParameter, Measurement.Primary.Compliance, 0.001
TestParameter, Measurement.Primary.PowerCompliance, 0
TestParameter, Measurement.Aborting.Condition, CONTINUE AT ANY
TestParameter, Measurement.PostOutput.Value, START
TestParameter, Measurement.PostOutput.Retention, OFF
TestParameter, Measurement.Bias.Source, 0.1, 0, -2
TestParameter, Measurement.Bias.Compliance, 0.001, 0.1, 0.001
TestParameter, Measurement.Monitor.Unit, SMU3:MP, SMU4:MP, SMU1:MP
TestParameter, Measurement.Monitor.Adc, HR ADC, HR ADC, HR ADC
TestParameter, Measurement.Monitor.RangingMode, AUTO, AUTO, AUTO
TestParameter, Measurement.Monitor.RangeBoundary, , , 
TestParameter, Measurement.Monitor.RangeRating, BY FULL RANGE, BY FULL RANGE, BY FULL RANGE
TestParameter, Measurement.Monitor.RangeRatingCoeff, 50, 50, 50
TestParameter, Measurement.Timing.Hold, 0.5
TestParameter, Measurement.Timing.Delay, 0.05
TestParameter, Measurement.Adc.HighResolution.AutoZero, OFF
TestParameter, Measurement.Adc.HighResolution.Mode, AUTO
TestParameter, Measurement.Adc.HighResolution.Coeff, 1
TestParameter, Measurement.Ag16440ASelector.SemiconductorRelay.Channel1, DEFAULT
TestParameter, Measurement.Ag16440ASelector.SemiconductorRelay.Channel3, DEFAULT
TestParameter, Function.User.Name, absID, sqrtID, gm2, absIG
TestParameter, Function.User.Unit, A, A, A/V, A
TestParameter, Function.User.Definition, abs(ID), sqrt(abs(ID)), (delta(sqrtID)/delta(VG))^2, abs(IG)
TestParameter, Output.Graph.Enabled, true
TestParameter, Output.Graph.XAxis.Data, VG
TestParameter, Output.Graph.XAxis.Scale, Linear
TestParameter, Output.Graph.XAxis.Left, -5
TestParameter, Output.Graph.XAxis.Right, 7
TestParameter, Output.Graph.YAxis.Data, ID, absIG, gm2
TestParameter, Output.Graph.YAxis.Scale, Log, Log, Linear
TestParameter, Output.Graph.YAxis.Bottom, 1E-14, 1E-14, 0
TestParameter, Output.Graph.YAxis.Top, 0.01, 0.01, 1E-05
TestParameter, Output.Graph.YAxis.Group, , , 
TestParameter, Output.List.Data, VG, IG, VD, ID, VS, IS, sqrtID, gm2, absIG
TestParameter, AutoAnalysis.Interpolation, false
TestParameter, AutoAnalysis.Line1.Enabled, false
TestParameter, AutoAnalysis.Line1.Type, 1
TestParameter, AutoAnalysis.Line1.Fix, True
TestParameter, AutoAnalysis.Line1.YAxis, 0
TestParameter, AutoAnalysis.Line1.Point1.Type, 0
TestParameter, AutoAnalysis.Line1.Point1.XY.X, 
TestParameter, AutoAnalysis.Line1.Point1.XY.Y, 
TestParameter, AutoAnalysis.Line1.Point1.Data.Var, 
TestParameter, AutoAnalysis.Line1.Point1.Data.Condition, 
TestParameter, AutoAnalysis.Line1.Point1.Data.Start, false
TestParameter, AutoAnalysis.Line1.Point1.Data.StartVar, 
TestParameter, AutoAnalysis.Line1.Point1.Data.StartCondition, 
TestParameter, AutoAnalysis.Line1.Point2.Type, 0
TestParameter, AutoAnalysis.Line1.Point2.XY.X, 
TestParameter, AutoAnalysis.Line1.Point2.XY.Y, 
TestParameter, AutoAnalysis.Line1.Point2.Data.Var, 
TestParameter, AutoAnalysis.Line1.Point2.Data.Condition, 
TestParameter, AutoAnalysis.Line1.Point2.Data.Start, false
TestParameter, AutoAnalysis.Line1.Point2.Data.StartVar, 
TestParameter, AutoAnalysis.Line1.Point2.Data.StartCondition, 
TestParameter, AutoAnalysis.Line1.GradientExpr, 0
TestParameter, AutoAnalysis.Line2.Enabled, false
TestParameter, AutoAnalysis.Line2.Type, 1
TestParameter, AutoAnalysis.Line2.Fix, True
TestParameter, AutoAnalysis.Line2.YAxis, 0
TestParameter, AutoAnalysis.Line2.Point1.Type, 0
TestParameter, AutoAnalysis.Line2.Point1.XY.X, 
TestParameter, AutoAnalysis.Line2.Point1.XY.Y, 
TestParameter, AutoAnalysis.Line2.Point1.Data.Var, 
TestParameter, AutoAnalysis.Line2.Point1.Data.Condition, 
TestParameter, AutoAnalysis.Line2.Point1.Data.Start, false
TestParameter, AutoAnalysis.Line2.Point1.Data.StartVar, 
TestParameter, AutoAnalysis.Line2.Point1.Data.StartCondition, 
TestParameter, AutoAnalysis.Line2.Point2.Type, 0
TestParameter, AutoAnalysis.Line2.Point2.XY.X, 
TestParameter, AutoAnalysis.Line2.Point2.XY.Y, 
TestParameter, AutoAnalysis.Line2.Point2.Data.Var, 
TestParameter, AutoAnalysis.Line2.Point2.Data.Condition, 
TestParameter, AutoAnalysis.Line2.Point2.Data.Start, false
TestParameter, AutoAnalysis.Line2.Point2.Data.StartVar, 
TestParameter, AutoAnalysis.Line2.Point2.Data.StartCondition, 
TestParameter, AutoAnalysis.Line2.GradientExpr, 0
TestParameter, AutoAnalysis.Marker.Enabled, false
TestParameter, AutoAnalysis.Marker.Data.Var, 
TestParameter, AutoAnalysis.Marker.Data.Condition, 
TestParameter, AutoAnalysis.Marker.Data.Start, false
TestParameter, AutoAnalysis.Marker.Data.StartVar, 
TestParameter, AutoAnalysis.Marker.Data.StartCondition, 
MetaData, TestRecord.EntryPoint, true
MetaData, TestRecord.RecordTime, 06/18/2019 13:14:47
MetaData, TestRecord.TestTarget, 6-41
MetaData, TestRecord.IterationIndex, 1
MetaData, TestRecord.Preservation, true
MetaData, TestRecord.Flag, 
MetaData, TestRecord.Remarks, good
MetaData, TestRecord.LinkKey, 896ec5f0-6a9c-47a3-9c23-f1ef2fa1cef4
Dimension1, 202, 202, 202, 202, 202, 202, 202, 202, 202, 202
Dimension2, 1, 1, 1, 1, 1, 1, 1, 1, 1, 1
DataName, VG, VD, VS, ID, IS, IG, absID, sqrtID, gm2, absIG
DataValue, -2, 0.1, 0, 2.067E-12, 2.9270000000000004E-12, -4.3710000000000007E-12, 2.067E-12, 1.4377065069060514E-06, 6.6795064989724161E-11, 4.3710000000000007E-12
DataValue, -1.9500000000000002, 0.1, 0, 3.409E-12, -6.7200000000000006E-13, -3.322E-12, 3.409E-12, 1.846347746227671E-06, 1.0305060768625655E-11, 3.322E-12
DataValue, -1.9000000000000001, 0.1, 0, 1.247E-12, 4.194E-12, -3.2060000000000003E-12, 1.247E-12, 1.1166915420114903E-06, 3.2136964408854455E-11, 3.2060000000000003E-12
DataValue, -1.85, 0.1, 0, 1.6370000000000002E-12, 2.444E-12, -3.8010000000000005E-12, 1.6370000000000002E-12, 1.2794530081249566E-06, 4.6645182442120167E-12, 3.8010000000000005E-12
DataValue, -1.8, 0.1, 0, 1.7760000000000001E-12, -2.365E-12, -3.396E-12, 1.7760000000000001E-12, 1.3326664999166147E-06, 1.4227863240427139E-12, 3.396E-12
DataValue, -1.75, 0.1, 0, -1.3460000000000001E-12, 3.201E-12, -2.799E-12, 1.3460000000000001E-12, 1.1601724009818541E-06, 9.5147256718780779E-12, 2.799E-12
DataValue, -1.7000000000000002, 0.1, 0, 1.049E-12, 4.1800000000000004E-13, -3.0280000000000004E-12, 1.049E-12, 1.0242070103255494E-06, 7.0918034406547531E-12, 3.0280000000000004E-12
DataValue, -1.6500000000000001, 0.1, 0, 7.99E-13, 2.3380000000000003E-12, -2.201E-12, 7.99E-13, 8.9386799920346186E-07, 5.4742116455168394E-11, 2.201E-12
DataValue, -1.6, 0.1, 0, 3.112E-12, -1.226E-12, -2.5260000000000003E-12, 3.112E-12, 1.7640861656959956E-06, 2.7223764266258042E-13, 2.5260000000000003E-12
DataValue, -1.55, 0.1, 0, 8.95E-13, -5.64E-13, -2.2200000000000002E-12, 8.95E-13, 9.4604439642122507E-07, 1.970107342330634E-11, 2.2200000000000002E-12
DataValue, -1.5, 0.1, 0, -1.7430000000000002E-12, 1.3730000000000001E-12, -2.4420000000000003E-12, 1.7430000000000002E-12, 1.3202272531651513E-06, 8.2953816117651234E-12, 2.4420000000000003E-12
DataValue, -1.4500000000000002, 0.1, 0, 4.33E-13, 2.051E-12, -2.6960000000000002E-12, 4.33E-13, 6.58027355054484E-07, 3.2402042370578215E-11, 2.6960000000000002E-12
DataValue, -1.4000000000000001, 0.1, 0, -5.64E-13, 7.72E-13, -1.331E-12, 5.64E-13, 7.5099933422074346E-07, 5.6938309531011818E-13, 1.331E-12
DataValue, -1.35, 0.1, 0, 5.38E-13, 1.5430000000000002E-12, -2.027E-12, 5.38E-13, 7.3348483283569E-07, 4.72748751545664E-13, 2.027E-12
DataValue, -1.3, 0.1, 0, 6.7200000000000006E-13, 1.579E-12, -2.0500000000000004E-12, 6.7200000000000006E-13, 8.1975606127676794E-07, 1.2936662544083953E-11, 2.0500000000000004E-12
DataValue, -1.25, 0.1, 0, 1.195E-12, 1.5680000000000002E-12, -1.7970000000000001E-12, 1.195E-12, 1.0931605554537724E-06, 1.1006779782747468E-11, 1.7970000000000001E-12
DataValue, -1.2, 0.1, 0, 1.326E-12, -7.5E-13, -1.803E-12, 1.326E-12, 1.1515207336387825E-06, 2.0873677906767481E-12, 1.803E-12
DataValue, -1.1500000000000001, 0.1, 0, 9.000000000000001E-13, -3.7100000000000003E-13, -1.9530000000000003E-12, 9.000000000000001E-13, 9.4868329805051386E-07, 6.4358219810847231E-11, 1.9530000000000003E-12
DataValue, -1.1, 0.1, 0, 1.22E-13, 7.26E-13, -1.684E-12, 1.22E-13, 3.4928498393145962E-07, 2.5714559737386311E-11, 1.684E-12
DataValue, -1.05, 0.1, 0, 1.9500000000000003E-13, 1.191E-12, -1.2840000000000002E-12, 1.9500000000000003E-13, 4.415880433163924E-07, 3.137236821665704E-11, 1.2840000000000002E-12
DataValue, -1, 0.1, 0, 8.2700000000000011E-13, 2.443E-12, -1.854E-12, 8.2700000000000011E-13, 9.0939540355117258E-07, 4.5862710577189641E-12, 1.854E-12
DataValue, -0.95000000000000007, 0.1, 0, 4.3000000000000004E-13, 5.2400000000000009E-13, -1.663E-12, 4.3000000000000004E-13, 6.5574385243020006E-07, 8.9365735569884178E-13, 1.663E-12
DataValue, -0.9, 0.1, 0, 6.640000000000001E-13, 8.4000000000000008E-14, -1.076E-12, 6.640000000000001E-13, 8.1486195149853454E-07, 2.2412188212533861E-11, 1.076E-12
DataValue, -0.85000000000000009, 0.1, 0, 1.2750000000000001E-12, -1.6530000000000001E-12, -1.084E-12, 1.2750000000000001E-12, 1.1291589790636216E-06, 3.3052366981159977E-13, 1.084E-12
DataValue, -0.8, 0.1, 0, 7.6100000000000009E-13, -6.77E-13, -1.3510000000000002E-12, 7.6100000000000009E-13, 8.7235313950257562E-07, 1.6481293171908783E-11, 1.3510000000000002E-12
DataValue, -0.75, 0.1, 0, 5.23E-13, -5.43E-13, -1.2230000000000001E-12, 5.23E-13, 7.2318738927058183E-07, 2.9234639031627937E-11, 1.2230000000000001E-12
DataValue, -0.70000000000000007, 0.1, 0, 1.1000000000000001E-13, 7.8400000000000009E-13, -9.0400000000000009E-13, 1.1000000000000001E-13, 3.3166247903554E-07, 6.5680816206143956E-12, 9.0400000000000009E-13
DataValue, -0.65, 0.1, 0, 2.18E-13, 2.23E-13, -1.0580000000000001E-12, 2.18E-13, 4.6690470119715008E-07, 1.8128782636207275E-10, 1.0580000000000001E-12
DataValue, -0.6, 0.1, 0, 2.816E-12, -1.324E-12, -8.19E-13, 2.816E-12, 1.6780941570722426E-06, 1.6329824580842471E-12, 8.19E-13
DataValue, -0.55, 0.1, 0, 1.1500000000000002E-13, 4.4000000000000004E-13, -6.28E-13, 1.1500000000000002E-13, 3.3911649915626343E-07, 1.0851348357164496E-10, 6.28E-13
DataValue, -0.5, 0.1, 0, -4.0500000000000004E-13, -1.141E-12, -7.5700000000000011E-13, 4.0500000000000004E-13, 6.3639610306789277E-07, 2.1539277941596527E-12, 7.5700000000000011E-13
DataValue, -0.45, 0.1, 0, -3.7E-14, -4.5600000000000008E-13, -5.84E-13, 3.7E-14, 1.9235384061671344E-07, 2.9325232921501146E-11, 5.84E-13
DataValue, -0.4, 0.1, 0, -9.0000000000000011E-15, -4.3700000000000006E-13, -6.2500000000000006E-13, 9.0000000000000011E-15, 9.4868329805051389E-08, 1.8260536918797863E-11, 6.2500000000000006E-13
DataValue, -0.35000000000000003, 0.1, 0, 3.8400000000000003E-13, -4.0500000000000004E-13, -4.0800000000000003E-13, 3.8400000000000003E-13, 6.1967733539318668E-07, 5.5005567935635078E-14, 4.0800000000000003E-13
DataValue, -0.3, 0.1, 0, 1.4E-14, -9.0500000000000008E-13, -4.0800000000000003E-13, 1.4E-14, 1.1832159566199232E-07, 2.3940792098620656E-11, 4.0800000000000003E-13
DataValue, -0.25, 0.1, 0, -1.7E-14, -8.1600000000000006E-13, -4.8500000000000005E-13, 1.7E-14, 1.3038404810405297E-07, 8.64295126587963E-12, 4.8500000000000005E-13
DataValue, -0.2, 0.1, 0, 1.7E-13, -2.5E-14, -1.9000000000000002E-13, 1.7E-13, 4.1231056256176606E-07, 2.736004694842148E-11, 1.9000000000000002E-13
DataValue, -0.15, 0.1, 0, -4.2700000000000005E-13, -1.4380000000000001E-12, -2.32E-13, 4.2700000000000005E-13, 6.5345237010818166E-07, 5.0920158150875376E-12, 2.32E-13
DataValue, -0.1, 0.1, 0, 4.0700000000000003E-13, -9.950000000000001E-13, -1.7E-14, 4.0700000000000003E-13, 6.379655163094633E-07, 2.3925363798192065E-11, 1.7E-14
DataValue, -0.05, 0.1, 0, -2.7000000000000002E-14, -7.94E-13, 4.5000000000000004E-14, 2.7000000000000002E-14, 1.6431676725154984E-07, 5.7225000614220439E-12, 4.5000000000000004E-14
DataValue, 0, 0.1, 0, -1.59E-13, -9.2200000000000011E-13, 1.28E-13, 1.59E-13, 3.9874804074753774E-07, 1.5261579015715205E-11, 1.28E-13
DataValue, 0.05, 0.1, 0, -3.08E-13, 1.304E-12, 1.06E-13, 3.08E-13, 5.5497747702046433E-07, 6.6439115288393582E-12, 1.06E-13
DataValue, 0.1, 0.1, 0, -4.3100000000000003E-13, -5.7200000000000009E-13, 2.49E-13, 4.3100000000000003E-13, 6.5650590248679407E-07, 1.4144522166414629E-11, 2.49E-13
DataValue, 0.15, 0.1, 0, 3.2E-14, -3.51E-13, 3.7900000000000005E-13, 3.2E-14, 1.7888543819998319E-07, 5.75192690293205E-11, 3.7900000000000005E-13
DataValue, 0.2, 0.1, 0, -2.002E-12, -1.1210000000000002E-12, 3.7000000000000004E-13, 2.002E-12, 1.4149204924659196E-06, 1.6309526393583294E-12, 3.7000000000000004E-13
DataValue, 0.25, 0.1, 0, -9.4E-14, -1.6300000000000001E-12, 5.4900000000000008E-13, 9.4E-14, 3.0659419433511785E-07, 1.4035216810975221E-10, 5.4900000000000008E-13
DataValue, 0.3, 0.1, 0, -5.3E-14, -5.7900000000000006E-13, 4.75E-13, 5.3E-14, 2.3021728866442677E-07, 7.366947431244815E-11, 4.75E-13
DataValue, 0.35000000000000003, 0.1, 0, 1.3570000000000002E-12, -1.5360000000000001E-12, 5.6E-13, 1.3570000000000002E-12, 1.1649034294738771E-06, 4.8375593845778884E-11, 5.6E-13
DataValue, 0.4, 0.1, 0, -8.5700000000000008E-13, -5.85E-13, 7.340000000000001E-13, 8.5700000000000008E-13, 9.2574294488264943E-07, 1.1455875187010719E-11, 7.340000000000001E-13
DataValue, 0.45, 0.1, 0, -6.83E-13, -1.544E-12, 7.8400000000000009E-13, 6.83E-13, 8.2643814045577542E-07, 8.8359161940420765E-12, 7.8400000000000009E-13
DataValue, 0.5, 0.1, 0, -3.9500000000000003E-13, -2.0540000000000003E-12, 8.9E-13, 3.9500000000000003E-13, 6.2849025449882681E-07, 6.8650223907969491E-11, 8.9E-13
DataValue, 0.55, 0.1, 0, -2.7390000000000003E-12, -1.506E-12, 9.99E-13, 2.7390000000000003E-12, 1.6549924471126749E-06, 6.46809593478062E-12, 9.99E-13
DataValue, 0.6, 0.1, 0, 1.4E-13, -1.262E-12, 1.0040000000000002E-12, 1.4E-13, 3.7416573867739413E-07, 9.8191082983424035E-11, 1.0040000000000002E-12
DataValue, 0.65, 0.1, 0, 4.4100000000000004E-13, -3.1560000000000003E-12, 9.69E-13, 4.4100000000000004E-13, 6.6407830863535974E-07, 2.5249050405096291E-10, 9.69E-13
DataValue, 0.70000000000000007, 0.1, 0, 3.854E-12, -3.9160000000000007E-12, 1.241E-12, 3.854E-12, 1.96316071680339E-06, 1.3537052094976191E-10, 1.241E-12
DataValue, 0.75, 0.1, 0, 3.3400000000000003E-12, -4.3060000000000004E-12, 1.358E-12, 3.3400000000000003E-12, 1.8275666882497065E-06, 3.1285904785276208E-11, 1.358E-12
DataValue, 0.8, 0.1, 0, 6.363E-12, -8.04E-12, 1.377E-12, 6.363E-12, 2.5224987611493489E-06, 2.6034104058050893E-10, 1.377E-12
DataValue, 0.85000000000000009, 0.1, 0, 1.1841E-11, -1.321E-11, 1.3570000000000002E-12, 1.1841E-11, 3.4410754132974187E-06, 4.20620147012938E-10, 1.3570000000000002E-12
DataValue, 0.9, 0.1, 0, 2.0916000000000002E-11, -2.3703000000000003E-11, 1.4700000000000002E-12, 2.0916000000000002E-11, 4.5734013600382816E-06, 8.2780047029876347E-10, 1.4700000000000002E-12
DataValue, 0.95000000000000007, 0.1, 0, 3.992E-11, -4.0036E-11, 1.602E-12, 3.992E-11, 6.3182275995725263E-06, 1.3713184613983951E-09, 1.602E-12
DataValue, 1, 0.1, 0, 6.8501E-11, -6.6291000000000007E-11, 1.698E-12, 6.8501E-11, 8.2765330906122759E-06, 1.9017135891462021E-09, 1.698E-12
DataValue, 1.05, 0.1, 0, 1.1404300000000001E-10, -1.1117700000000001E-10, 1.7580000000000002E-12, 1.1404300000000001E-10, 1.0679091721677458E-05, 2.8032144124278871E-09, 1.7580000000000002E-12
DataValue, 1.1, 0.1, 0, 1.84174E-10, -1.77657E-10, 1.7410000000000002E-12, 1.84174E-10, 1.3571072175771523E-05, 3.8612490931698346E-09, 1.7410000000000002E-12
DataValue, 1.1500000000000001, 0.1, 0, 2.8537300000000004E-10, -2.7533E-10, 1.883E-12, 2.8537300000000004E-10, 1.6892986710466568E-05, 4.9792230760416552E-09, 1.883E-12
DataValue, 1.2, 0.1, 0, 4.2549100000000006E-10, -4.09818E-10, 1.8870000000000003E-12, 4.2549100000000006E-10, 2.062743318980818E-05, 6.1430534789107437E-09, 1.8870000000000003E-12
DataValue, 1.25, 0.1, 0, 6.1161E-10, -5.89168E-10, 2.035E-12, 6.1161E-10, 2.4730750089716243E-05, 7.222188082192357E-09, 2.035E-12
DataValue, 1.3, 0.1, 0, 8.48311E-10, -8.1658200000000011E-10, 2.1660000000000003E-12, 8.48311E-10, 2.9125778959540293E-05, 6.7920003709721865E-09, 2.1660000000000003E-12
DataValue, 1.35, 0.1, 0, 1.08716E-09, -1.0416E-09, 2.168E-12, 1.08716E-09, 3.2972109425998213E-05, 8.099645409696753E-09, 2.168E-12
DataValue, 1.4000000000000001, 0.1, 0, 1.45356E-09, -1.43395E-09, 2.184E-12, 1.45356E-09, 3.81255819627714E-05, 1.0735071013142328E-08, 2.184E-12
DataValue, 1.4500000000000002, 0.1, 0, 1.87776E-09, -1.858E-09, 2.389E-12, 1.87776E-09, 4.3333128204642689E-05, 1.0486405362536934E-08, 2.389E-12
DataValue, 1.5, 0.1, 0, 2.33926E-09, -2.30227E-09, 2.3910000000000002E-12, 2.33926E-09, 4.836589707634916E-05, 9.5776521740444668E-09, 2.3910000000000002E-12
DataValue, 1.55, 0.1, 0, 2.8217E-09, -2.77902E-09, 2.5640000000000004E-12, 2.8217E-09, 5.3119676203832414E-05, 8.1630755129731758E-09, 2.5640000000000004E-12
DataValue, 1.6, 0.1, 0, 3.29486E-09, -3.24017E-09, 2.623E-12, 3.29486E-09, 5.7400871073529889E-05, 6.8889104729739366E-09, 2.623E-12
DataValue, 1.6500000000000001, 0.1, 0, 3.77237E-09, -3.71157E-09, 2.715E-12, 3.77237E-09, 6.1419622271713788E-05, 5.7399999792210878E-09, 2.715E-12
DataValue, 1.7000000000000002, 0.1, 0, 4.22203E-09, -4.16058E-09, 2.8510000000000003E-12, 4.22203E-09, 6.4977149829767081E-05, 4.7458535141434505E-09, 2.8510000000000003E-12
DataValue, 1.75, 0.1, 0, 4.66607E-09, -4.58606E-09, 2.8640000000000003E-12, 4.66607E-09, 6.8308637813969036E-05, 3.8099524539823333E-09, 2.8640000000000003E-12
DataValue, 1.8, 0.1, 0, 5.06227E-09, -4.98576E-09, 2.8390000000000003E-12, 5.06227E-09, 7.11496310601819E-05, 3.1647259618278895E-09, 2.8390000000000003E-12
DataValue, 1.85, 0.1, 0, 5.46627E-09, -5.4049E-09, 3.083E-12, 5.46627E-09, 7.3934227526903934E-05, 2.8043839900255743E-09, 3.083E-12
DataValue, 1.9000000000000001, 0.1, 0, 5.84388E-09, -5.76818E-09, 2.9890000000000003E-12, 5.84388E-09, 7.6445274543296657E-05, 2.500872473128567E-09, 2.9890000000000003E-12
DataValue, 1.9500000000000002, 0.1, 0, 6.23075E-09, -6.14728E-09, 3.1140000000000003E-12, 6.23075E-09, 7.893509992392485E-05, 2.2302144472412493E-09, 3.1140000000000003E-12
DataValue, 2, 0.1, 0, 6.58821E-09, -6.49652E-09, 2.996E-12, 6.58821E-09, 8.1167789177727389E-05, 2.0835032658858526E-09, 2.996E-12
DataValue, 2.05, 0.1, 0, 6.97219E-09, -6.89323E-09, 3.4290000000000004E-12, 6.97219E-09, 8.3499640717789921E-05, 1.9442019639210735E-09, 3.4290000000000004E-12
DataValue, 2.1, 0.1, 0, 7.32344E-09, -7.22866E-09, 4.067E-12, 7.32344E-09, 8.5577099740526382E-05, 1.56318882377724E-09, 4.067E-12
DataValue, 2.15, 0.1, 0, 7.64809E-09, -7.56943E-09, 3.4280000000000003E-12, 7.64809E-09, 8.7453358997810948E-05, 1.5336591876152341E-09, 3.4280000000000003E-12
DataValue, 2.2, 0.1, 0, 8.00905E-09, -7.91709E-09, 3.129E-12, 8.00905E-09, 8.9493295838291708E-05, 1.5202051853476332E-09, 3.129E-12
DataValue, 2.25, 0.1, 0, 8.34525E-09, -8.22301E-09, 3.7270000000000006E-12, 8.34525E-09, 9.1352339871510684E-05, 1.6035256746632585E-09, 3.7270000000000006E-12
DataValue, 2.3000000000000003, 0.1, 0, 8.74182E-09, -8.58405E-09, 3.779E-12, 8.74182E-09, 9.349770050648305E-05, 1.2644275111858009E-09, 3.779E-12
DataValue, 2.35, 0.1, 0, 9.00757E-09, -8.94456E-09, 3.7320000000000007E-12, 9.00757E-09, 9.4908218822186316E-05, 1.4217723494306246E-09, 3.7320000000000007E-12
