
SetupTitle, Transfer stab
PrimitiveTest, I/V Sweep
TestParameter, Context.MainFrame, 4155C
TestParameter, Channel.UnitType, SMU, SMU, SMU
TestParameter, Channel.Unit, SMU3:MP, SMU4:MP, SMU1:MP
TestParameter, Channel.IName, ID, IS, IG
TestParameter, Channel.VName, VD, VS, VG
TestParameter, Channel.Mode, V, COMMON, V
TestParameter, Channel.Func, CONST, CONST, VAR1
TestParameter, Channel.Index, 
TestParameter, Channel.Time, 
TestParameter, Measurement.Port.Unit, SMU3:MP, SMU4:MP, SMU1:MP
TestParameter, Measurement.Port.SeriesResistor, NONE, NONE, NONE
TestParameter, Measurement.Port.Filter, ON, ON, ON
TestParameter, Measurement.Primary.Locus, Single
TestParameter, Measurement.Primary.Scale, LINEAR
TestParameter, Measurement.Primary.Start, -2
TestParameter, Measurement.Primary.Stop, 3
TestParameter, Measurement.Primary.Step, 0.05
TestParameter, Measurement.Primary.Compliance, 0.1
TestParameter, Measurement.Primary.PowerCompliance, 0
TestParameter, Measurement.Aborting.Condition, CONTINUE AT ANY
TestParameter, Measurement.PostOutput.Value, START
TestParameter, Measurement.PostOutput.Retention, OFF
TestParameter, Measurement.Bias.Source, 3, 0, -2
TestParameter, Measurement.Bias.Compliance, 0.1, 0.1, 0.1
TestParameter, Measurement.Monitor.Unit, SMU3:MP, SMU4:MP, SMU1:MP
TestParameter, Measurement.Monitor.Adc, HR ADC, HR ADC, HR ADC
TestParameter, Measurement.Monitor.RangingMode, AUTO, AUTO, AUTO
TestParameter, Measurement.Monitor.RangeBoundary, , , 
TestParameter, Measurement.Monitor.RangeRating, BY FULL RANGE, BY FULL RANGE, BY FULL RANGE
TestParameter, Measurement.Monitor.RangeRatingCoeff, 50, 50, 50
TestParameter, Measurement.Timing.Hold, 0.5
TestParameter, Measurement.Timing.Delay, 0.05
TestParameter, Measurement.Adc.HighResolution.AutoZero, OFF
TestParameter, Measurement.Adc.HighResolution.Mode, AUTO
TestParameter, Measurement.Adc.HighResolution.Coeff, 1
TestParameter, Measurement.Ag16440ASelector.SemiconductorRelay.Channel1, DEFAULT
TestParameter, Measurement.Ag16440ASelector.SemiconductorRelay.Channel3, DEFAULT
TestParameter, Function.User.Name, absID, sqrtID, gm2, absIG
TestParameter, Function.User.Unit, A, A, A/V, A
TestParameter, Function.User.Definition, abs(ID), sqrt(abs(ID)), (delta(sqrtID)/delta(VG))^2, abs(IG)
TestParameter, Output.Graph.Enabled, true
TestParameter, Output.Graph.XAxis.Data, VG
TestParameter, Output.Graph.XAxis.Scale, Linear
TestParameter, Output.Graph.XAxis.Left, -5
TestParameter, Output.Graph.XAxis.Right, 7
TestParameter, Output.Graph.YAxis.Data, ID, absIG, gm2
TestParameter, Output.Graph.YAxis.Scale, Log, Log, Linear
TestParameter, Output.Graph.YAxis.Bottom, 1E-14, 1E-14, 0
TestParameter, Output.Graph.YAxis.Top, 0.01, 0.01, 1E-05
TestParameter, Output.Graph.YAxis.Group, , , 
TestParameter, Output.List.Data, VG, IG, VD, ID, VS, IS, sqrtID, gm2, absIG
TestParameter, AutoAnalysis.Interpolation, false
TestParameter, AutoAnalysis.Line1.Enabled, false
TestParameter, AutoAnalysis.Line1.Type, 1
TestParameter, AutoAnalysis.Line1.Fix, True
TestParameter, AutoAnalysis.Line1.YAxis, 0
TestParameter, AutoAnalysis.Line1.Point1.Type, 0
TestParameter, AutoAnalysis.Line1.Point1.XY.X, 
TestParameter, AutoAnalysis.Line1.Point1.XY.Y, 
TestParameter, AutoAnalysis.Line1.Point1.Data.Var, 
TestParameter, AutoAnalysis.Line1.Point1.Data.Condition, 
TestParameter, AutoAnalysis.Line1.Point1.Data.Start, false
TestParameter, AutoAnalysis.Line1.Point1.Data.StartVar, 
TestParameter, AutoAnalysis.Line1.Point1.Data.StartCondition, 
TestParameter, AutoAnalysis.Line1.Point2.Type, 0
TestParameter, AutoAnalysis.Line1.Point2.XY.X, 
TestParameter, AutoAnalysis.Line1.Point2.XY.Y, 
TestParameter, AutoAnalysis.Line1.Point2.Data.Var, 
TestParameter, AutoAnalysis.Line1.Point2.Data.Condition, 
TestParameter, AutoAnalysis.Line1.Point2.Data.Start, false
TestParameter, AutoAnalysis.Line1.Point2.Data.StartVar, 
TestParameter, AutoAnalysis.Line1.Point2.Data.StartCondition, 
TestParameter, AutoAnalysis.Line1.GradientExpr, 0
TestParameter, AutoAnalysis.Line2.Enabled, false
TestParameter, AutoAnalysis.Line2.Type, 1
TestParameter, AutoAnalysis.Line2.Fix, True
TestParameter, AutoAnalysis.Line2.YAxis, 0
TestParameter, AutoAnalysis.Line2.Point1.Type, 0
TestParameter, AutoAnalysis.Line2.Point1.XY.X, 
TestParameter, AutoAnalysis.Line2.Point1.XY.Y, 
TestParameter, AutoAnalysis.Line2.Point1.Data.Var, 
TestParameter, AutoAnalysis.Line2.Point1.Data.Condition, 
TestParameter, AutoAnalysis.Line2.Point1.Data.Start, false
TestParameter, AutoAnalysis.Line2.Point1.Data.StartVar, 
TestParameter, AutoAnalysis.Line2.Point1.Data.StartCondition, 
TestParameter, AutoAnalysis.Line2.Point2.Type, 0
TestParameter, AutoAnalysis.Line2.Point2.XY.X, 
TestParameter, AutoAnalysis.Line2.Point2.XY.Y, 
TestParameter, AutoAnalysis.Line2.Point2.Data.Var, 
TestParameter, AutoAnalysis.Line2.Point2.Data.Condition, 
TestParameter, AutoAnalysis.Line2.Point2.Data.Start, false
TestParameter, AutoAnalysis.Line2.Point2.Data.StartVar, 
TestParameter, AutoAnalysis.Line2.Point2.Data.StartCondition, 
TestParameter, AutoAnalysis.Line2.GradientExpr, 0
TestParameter, AutoAnalysis.Marker.Enabled, false
TestParameter, AutoAnalysis.Marker.Data.Var, 
TestParameter, AutoAnalysis.Marker.Data.Condition, 
TestParameter, AutoAnalysis.Marker.Data.Start, false
TestParameter, AutoAnalysis.Marker.Data.StartVar, 
TestParameter, AutoAnalysis.Marker.Data.StartCondition, 
MetaData, TestRecord.EntryPoint, true
MetaData, TestRecord.RecordTime, 06/18/2019 14:15:30
MetaData, TestRecord.TestTarget, 3-41
MetaData, TestRecord.IterationIndex, 1
MetaData, TestRecord.Preservation, true
MetaData, TestRecord.Flag, 
MetaData, TestRecord.Remarks, leak
MetaData, TestRecord.LinkKey, 5a7fcb03-6107-4ce4-939a-5e555b57677a
Dimension1, 101, 101, 101, 101, 101, 101, 101, 101, 101, 101
Dimension2, 1, 1, 1, 1, 1, 1, 1, 1, 1, 1
DataName, VG, VD, VS, ID, IS, IG, absID, sqrtID, gm2, absIG
DataValue, -2, 3, 0, 8.66604E-10, 1.7279000000000002E-11, -7.4557E-10, 8.66604E-10, 2.94381385281067E-05, 8.2788691810045035E-08, 7.4557E-10
DataValue, -1.9500000000000002, 3, 0, 1.9206E-09, 1.2043000000000001E-11, -1.94967E-09, 1.9206E-09, 4.3824650597580352E-05, 2.9595582214708322E-08, 1.94967E-09
DataValue, -1.9000000000000001, 3, 0, 2.17543E-09, 9.2520000000000014E-12, -3.67484E-09, 2.17543E-09, 4.6641505121511678E-05, 5.5180373540014E-09, 3.67484E-09
DataValue, -1.85, 3, 0, 2.62687E-09, 5.3540000000000008E-12, -3.00599E-09, 2.62687E-09, 5.1252999912200263E-05, 6.490987822421304E-09, 3.00599E-09
DataValue, -1.8, 3, 0, 2.99189E-09, 1.243E-12, -3.18706E-09, 2.99189E-09, 5.4698171815884305E-05, 3.4536225453986863E-10, 3.18706E-09
DataValue, -1.75, 3, 0, 2.82082E-09, -5.085E-12, -5.80805E-09, 2.82082E-09, 5.3111392374894484E-05, 7.0510007078682492E-08, 5.80805E-09
DataValue, -1.7000000000000002, 3, 0, 6.60187E-09, -1.4447000000000001E-11, -6.54849E-09, 6.60187E-09, 8.1251892285656954E-05, 6.3504187421731564E-08, 6.54849E-09
DataValue, -1.6500000000000001, 3, 0, 6.13268E-09, -2.3718000000000002E-11, -6.13964E-09, 6.13268E-09, 7.8311429561718515E-05, 1.3354677460385413E-09, 6.13964E-09
DataValue, -1.6, 3, 0, 6.02137E-09, -3.0951E-11, -5.60868E-09, 6.02137E-09, 7.759748707271389E-05, 1.4477925212341718E-09, 5.60868E-09
DataValue, -1.55, 3, 0, 5.55121E-09, -3.8712000000000005E-11, -5.18538E-09, 5.55121E-09, 7.4506442674442588E-05, 4.37138286282426E-09, 5.18538E-09
DataValue, -1.5, 3, 0, 5.03899E-09, -4.7888000000000004E-11, -4.94919E-09, 5.03899E-09, 7.0985843659140933E-05, 2.8565559190321535E-09, 4.94919E-09
DataValue, -1.4500000000000002, 3, 0, 4.78335E-09, -5.7798000000000006E-11, -4.65464E-09, 4.78335E-09, 6.9161766894722975E-05, 9.7520038394839625E-10, 4.65464E-09
DataValue, -1.4000000000000001, 3, 0, 4.60539E-09, -6.7480000000000009E-11, -4.48469E-09, 4.60539E-09, 6.7863023805309473E-05, 1.7739741622298663E-10, 4.48469E-09
DataValue, -1.35, 3, 0, 4.60089E-09, -7.9583000000000011E-11, -4.74537E-09, 4.60089E-09, 6.782986068097147E-05, 5.2070001033921438E-11, 4.74537E-09
DataValue, -1.3, 3, 0, 4.70385E-09, -9.4399000000000009E-11, -4.43781E-09, 4.70385E-09, 6.8584619267004747E-05, 6.3183354062943878E-10, 4.43781E-09
DataValue, -1.25, 3, 0, 4.26621E-09, -1.1539000000000002E-10, -4.10025E-09, 4.26621E-09, 6.5316230754690674E-05, 2.2322737470774478E-09, 4.10025E-09
DataValue, -1.2, 3, 0, 4.07809E-09, -1.39259E-10, -3.89258E-09, 4.07809E-09, 6.38599248355336E-05, 8.8558298971710075E-10, 3.89258E-09
DataValue, -1.1500000000000001, 3, 0, 3.88632E-09, -1.7398E-10, -3.68639E-09, 3.88632E-09, 6.23403561106287E-05, 5.9888982893877107E-10, 3.68639E-09
DataValue, -1.1, 3, 0, 3.77152E-09, -2.11451E-10, -3.69162E-09, 3.77152E-09, 6.1412702269156009E-05, 1.9661388423051295E-10, 3.69162E-09
DataValue, -1.05, 3, 0, 3.71346E-09, -2.5718100000000004E-10, -3.29454E-09, 3.71346E-09, 6.0938165380982717E-05, 1.0754511335061927E-09, 3.29454E-09
DataValue, -1, 3, 0, 3.37948E-09, -3.06771E-10, -2.99589E-09, 3.37948E-09, 5.8133295107021069E-05, 1.682854724677606E-09, 2.99589E-09
DataValue, -0.95000000000000007, 3, 0, 3.23032E-09, -3.68083E-10, -2.81845E-09, 3.23032E-09, 5.6835904145179218E-05, 5.044506128992674E-10, 2.81845E-09
DataValue, -0.9, 3, 0, 3.12339E-09, -4.36455E-10, -2.65739E-09, 3.12339E-09, 5.588729730448593E-05, 2.8136883839639042E-10, 2.65739E-09
DataValue, -0.85000000000000009, 3, 0, 3.04246E-09, -5.13801E-10, -2.43588E-09, 3.04246E-09, 5.5158498891829896E-05, 2.6240882547095907E-10, 2.43588E-09
DataValue, -0.8, 3, 0, 2.94495E-09, -6.12202E-10, -2.35526E-09, 2.94495E-09, 5.4267393525025684E-05, 3.6107472360356962E-11, 2.35526E-09
DataValue, -0.75, 3, 0, 3.10911E-09, -7.179510000000001E-10, -2.29256E-09, 3.10911E-09, 5.575939382740813E-05, 6.5155935351272907E-11, 2.29256E-09
DataValue, -0.70000000000000007, 3, 0, 3.03321E-09, -7.4314000000000008E-10, -2.15871E-09, 3.03321E-09, 5.5074585790544085E-05, 1.3833397412834626E-10, 2.15871E-09
DataValue, -0.65, 3, 0, 2.97933E-09, -8.19624E-10, -2.00356E-09, 2.97933E-09, 5.4583239185669442E-05, 3.1061116841976324E-09, 2.00356E-09
DataValue, -0.6, 3, 0, 3.67816E-09, -9.3333200000000014E-10, -3.14925E-09, 3.67816E-09, 6.064783590533136E-05, 1.0811017196172045E-08, 3.14925E-09
DataValue, -0.55, 3, 0, 4.22251E-09, -1.11261E-09, -3.07285E-09, 4.22251E-09, 6.49808433309387E-05, 2.9012463850280216E-09, 3.07285E-09
DataValue, -0.5, 3, 0, 4.36051E-09, -1.47063E-09, -2.83295E-09, 4.36051E-09, 6.6034157827597073E-05, 5.2051462459365933E-10, 2.83295E-09
DataValue, -0.45, 3, 0, 4.52422E-09, -1.85188E-09, -2.60289E-09, 4.52422E-09, 6.72623222911609E-05, 1.0019354463173263E-09, 2.60289E-09
DataValue, -0.4, 3, 0, 4.78857E-09, -2.29466E-09, -2.39725E-09, 4.78857E-09, 6.91994942178048E-05, 2.0591150982377011E-09, 2.39725E-09
DataValue, -0.35000000000000003, 3, 0, 5.15525E-09, -2.84229E-09, -2.1661E-09, 5.15525E-09, 7.1800069637849236E-05, 3.7274523331669965E-09, 2.1661E-09
DataValue, -0.3, 3, 0, 5.67081E-09, -3.48821E-09, -2.08086E-09, 5.67081E-09, 7.5304780724732214E-05, 6.8419131175945855E-09, 2.08086E-09
DataValue, -0.25, 3, 0, 6.41147E-09, -4.33557E-09, -1.92239E-09, 6.41147E-09, 8.0071655409389412E-05, 1.1419253837744605E-08, 1.92239E-09
DataValue, -0.2, 3, 0, 7.39443E-09, -5.45016E-09, -1.77635E-09, 7.39443E-09, 8.5990871608560875E-05, 1.8632705974875756E-08, 1.77635E-09
DataValue, -0.15, 3, 0, 8.78378E-09, -6.95803E-09, -1.62379E-09, 8.78378E-09, 9.3721822432131572E-05, 1.9308669629292247E-08, 1.62379E-09
DataValue, -0.1, 3, 0, 9.9772999999999986E-09, -8.3495E-09, -1.49791E-09, 9.9772999999999986E-09, 9.9886435515539335E-05, 3.3847744752847804E-08, 1.49791E-09
DataValue, -0.05, 3, 0, 1.2570799999999998E-08, -1.05104E-08, -1.34944E-09, 1.2570799999999998E-08, 0.00011211957902168558, 6.636131184573484E-08, 1.34944E-09
DataValue, 0, 3, 0, 1.57872E-08, -1.4261999999999999E-08, -1.22524E-09, 1.57872E-08, 0.0001256471249173653, 8.9227148036126832E-08, 1.22524E-09
DataValue, 0.05, 3, 0, 2.0161299999999997E-08, -1.8657499999999997E-08, -1.09791E-09, 2.0161299999999997E-08, 0.00014199049263947217, 1.1669019288521481E-07, 1.09791E-09
DataValue, 0.1, 3, 0, 2.5538299999999996E-08, -2.3993899999999998E-08, -9.8121000000000017E-10, 2.5538299999999996E-08, 0.00015980707118272333, 1.1429789381376624E-07, 9.8121000000000017E-10
DataValue, 0.15, 3, 0, 3.0905099999999997E-08, -2.9462299999999996E-08, -8.7044800000000012E-10, 3.0905099999999997E-08, 0.00017579846415711372, 1.241611897024973E-07, 8.7044800000000012E-10
DataValue, 0.2, 3, 0, 3.8042E-08, -3.6440599999999993E-08, -7.99649E-10, 3.8042E-08, 0.00019504358487271503, 1.4758900846555015E-07, 7.99649E-10
DataValue, 0.25, 3, 0, 4.5888399999999996E-08, -4.4255199999999993E-08, -7.08927E-10, 4.5888399999999996E-08, 0.00021421577906400826, 1.4988551995916446E-07, 7.08927E-10
DataValue, 0.3, 3, 0, 5.4643099999999994E-08, -5.2975899999999992E-08, -6.34641E-10, 5.4643099999999994E-08, 0.00023375863620409834, 1.5560805074126839E-07, 6.34641E-10
DataValue, 0.35000000000000003, 3, 0, 6.4344899999999993E-08, -6.25402E-08, -5.69229E-10, 6.4344899999999993E-08, 0.00025366296536940506, 1.5622045355642847E-07, 5.69229E-10
DataValue, 0.4, 3, 0, 7.46838E-08, -7.28829E-08, -5.1948300000000008E-10, 7.46838E-08, 0.00027328336941716741, 1.5808255390456906E-07, 5.1948300000000008E-10
DataValue, 0.45, 3, 0, 8.60968E-08, -8.39838E-08, -4.6269800000000005E-10, 8.60968E-08, 0.00029342256218634587, 9.682998998650047E-08, 4.6269800000000005E-10
DataValue, 0.5, 3, 0, 9.2659899999999992E-08, -8.9257299999999993E-08, -4.0493800000000003E-10, 9.2659899999999992E-08, 0.00030440088698950927, 6.3960811996903769E-08, 4.0493800000000003E-10
DataValue, 0.55, 3, 0, 1.01578E-07, -9.8457599999999986E-08, -3.52524E-10, 1.01578E-07, 0.00031871303707253648, 1.5033097460042911E-07, 3.52524E-10
DataValue, 0.6, 3, 0, 1.17768E-07, -1.12307E-07, -3.27078E-10, 1.17768E-07, 0.000343173425544578, 2.1667640674313204E-07, 3.27078E-10
DataValue, 0.65, 3, 0, 1.33416E-07, -1.30941E-07, -2.9956600000000005E-10, 1.33416E-07, 0.00036526155012538619, 2.0594886986823777E-07, 2.9956600000000005E-10
DataValue, 0.70000000000000007, 3, 0, 1.50975E-07, -1.47947E-07, -2.62891E-10, 1.50975E-07, 0.00038855501540965853, 2.2138377976824833E-07, 2.62891E-10
DataValue, 0.75, 3, 0, 1.70002E-07, -1.66572E-07, -2.3081300000000003E-10, 1.70002E-07, 0.00041231298791088306, 2.2442843048733376E-07, 2.3081300000000003E-10
DataValue, 0.8, 3, 0, 1.90034E-07, -1.87176E-07, -1.97587E-10, 1.90034E-07, 0.00043592889328421443, 2.1073968138430319E-07, 1.97587E-10
DataValue, 0.85000000000000009, 3, 0, 2.09965E-07, -2.06494E-07, -1.67122E-10, 2.09965E-07, 0.00045821937977348794, 2.2760883276547885E-07, 1.67122E-10
DataValue, 0.9, 3, 0, 2.33905E-07, -2.29894E-07, -1.3800700000000002E-10, 2.33905E-07, 0.00048363726076471817, 2.4172060584946075E-07, 1.3800700000000002E-10
DataValue, 0.95000000000000007, 3, 0, 2.57439E-07, -2.53102E-07, -1.1343500000000001E-10, 2.57439E-07, 0.00050738446960859967, 2.4314962000964204E-07, 1.1343500000000001E-10
DataValue, 1, 3, 0, 2.84033E-07, -2.7900099999999997E-07, -9.1166000000000011E-11, 2.84033E-07, 0.00053294746457788872, 2.4281349379323567E-07, 9.1166000000000011E-11
DataValue, 1.05, 3, 0, 3.09871E-07, -3.04806E-07, -7.3398000000000009E-11, 3.09871E-07, 0.00055666057880902615, 2.5696767262589713E-07, 7.3398000000000009E-11
DataValue, 1.1, 3, 0, 3.40635E-07, -3.33849E-07, -5.7335E-11, 3.40635E-07, 0.0005836394434922986, 2.7608530608793176E-07, 5.7335E-11
DataValue, 1.1500000000000001, 3, 0, 3.7113E-07, -3.64468E-07, -4.5554E-11, 3.7113E-07, 0.00060920439919619749, 2.6971728715432254E-07, 4.5554E-11
DataValue, 1.2, 3, 0, 4.0395399999999997E-07, -3.97149E-07, -3.533E-11, 4.0395399999999997E-07, 0.00063557375653813775, 3.0695761828011843E-07, 3.533E-11
DataValue, 1.25, 3, 0, 4.41704E-07, -4.33869E-07, -2.8042000000000002E-11, 4.41704E-07, 0.00066460815523133627, 3.1532482417942744E-07, 2.8042000000000002E-11
DataValue, 1.3, 3, 0, 4.78487E-07, -4.7099999999999997E-07, -2.0548000000000002E-11, 4.78487E-07, 0.00069172754752142116, 3.2628107374677713E-07, 2.0548000000000002E-11
DataValue, 1.35, 3, 0, 5.20893E-07, -5.13524E-07, -1.5558E-11, 5.20893E-07, 0.00072172917358244567, 3.6439171694798585E-07, 1.5558E-11
DataValue, 1.4000000000000001, 3, 0, 5.65643E-07, -5.56494E-07, -1.1609E-11, 5.65643E-07, 0.00075209241453427778, 3.5496982583978876E-07, 1.1609E-11
DataValue, 1.4500000000000002, 3, 0, 6.10443E-07, -6.01411E-07, -8.205E-12, 6.10443E-07, 0.00078130851780842633, 4.0958565616856148E-07, 8.205E-12
DataValue, 1.5, 3, 0, 6.66005E-07, -6.55336E-07, -5.558E-12, 6.66005E-07, 0.00081609129391263567, 4.494266165578096E-07, 5.558E-12
DataValue, 1.55, 3, 0, 7.19694E-07, -7.09993E-07, -3.691E-12, 7.19694E-07, 0.000848347806032408, 4.3879243692247264E-07, 3.691E-12
DataValue, 1.6, 3, 0, 7.78511E-07, -7.68125E-07, -5.375E-12, 7.78511E-07, 0.000882332703689487, 4.7878122138052091E-07, 5.375E-12
DataValue, 1.6500000000000001, 3, 0, 8.41883E-07, -8.31267E-07, -4.9710000000000005E-12, 8.41883E-07, 0.0009175418246597808, 5.1785006764357878E-07, 4.9710000000000005E-12
DataValue, 1.7000000000000002, 3, 0, 9.1067799999999994E-07, -8.95896E-07, -3.2490000000000004E-12, 9.1067799999999994E-07, 0.00095429450380896564, 5.3795853037906122E-07, 3.2490000000000004E-12
DataValue, 1.75, 3, 0, 9.81858E-07, -9.6471699999999989E-07, -1.4510000000000002E-12, 9.81858E-07, 0.00099088748099872563, 3.0323392800342054E-07, 1.4510000000000002E-12
DataValue, 1.8, 3, 0, 1.0188100000000002E-06, -9.988E-07, 3.2660000000000004E-12, 1.0188100000000002E-06, 0.0010093611841159734, 4.5630088065561403E-07, 3.2660000000000004E-12
DataValue, 1.85, 3, 0, 1.12029E-06, -1.10241E-06, 5.6120000000000007E-12, 1.12029E-06, 0.001058437527679362, 8.7861489857444386E-07, 5.6120000000000007E-12
DataValue, 1.9000000000000001, 3, 0, 1.21682E-06, -1.1995100000000002E-06, 7.7320000000000014E-12, 1.21682E-06, 0.0011030956440853169, 7.8789436192836345E-07, 7.7320000000000014E-12
DataValue, 1.9500000000000002, 3, 0, 1.3160700000000002E-06, -1.2938600000000002E-06, 9.65E-12, 1.3160700000000002E-06, 0.0011472009414222079, 7.42072129339221E-07, 9.65E-12
DataValue, 2, 3, 0, 1.41429E-06, -1.3940100000000002E-06, 1.0801000000000001E-11, 1.41429E-06, 0.0011892392526316983, 7.3094446841404232E-07, 1.0801000000000001E-11
DataValue, 2.05, 3, 0, 1.51954E-06, -1.5015600000000001E-06, 1.178E-11, 1.51954E-06, 0.001232696231843028, 8.0632389503659752E-07, 1.178E-11
DataValue, 2.1, 3, 0, 1.63593E-06, -1.6136100000000002E-06, 1.2983000000000002E-11, 1.63593E-06, 0.0012790347923336567, 8.1603002186054562E-07, 1.2983000000000002E-11
DataValue, 2.15, 3, 0, 1.7504100000000003E-06, -1.7239000000000001E-06, 1.383E-11, 1.7504100000000003E-06, 0.0013230306118907455, 8.61720532864059E-07, 1.383E-11
DataValue, 2.2, 3, 0, 1.8820100000000002E-06, -1.8603500000000001E-06, 1.4947E-11, 1.8820100000000002E-06, 0.0013718636958531996, 1.0324529831434282E-06, 1.4947E-11
DataValue, 2.25, 3, 0, 2.0296E-06, -2.00065E-06, 1.5607000000000002E-11, 2.0296E-06, 0.0014246403054806501, 9.8414224361496652E-07, 1.5607000000000002E-11
DataValue, 2.3000000000000003, 3, 0, 2.16404E-06, -2.1391000000000004E-06, 1.6425E-11, 2.16404E-06, 0.0014710676395054037, 9.8263702210656878E-07, 1.6425E-11
DataValue, 2.35, 3, 0, 2.32187E-06, -2.29448E-06, 1.7227000000000002E-11, 2.32187E-06, 0.0015237683550986352, 1.0714008316683363E-06, 1.7227000000000002E-11
DataValue, 2.4, 3, 0, 2.4792900000000003E-06, -2.4480100000000004E-06, 1.7899000000000002E-11, 2.4792900000000003E-06, 0.0015745761334403619, 1.067778384287164E-06, 1.7899000000000002E-11
DataValue, 2.45, 3, 0, 2.6474600000000002E-06, -2.61918E-06, 1.8595E-11, 2.6474600000000002E-06, 0.0016271017177791928, 1.2340967444261705E-06, 1.8595E-11
DataValue, 2.5, 3, 0, 2.8414700000000003E-06, -2.8058300000000003E-06, 1.936E-11, 2.8414700000000003E-06, 0.0016856660404718368, 1.2592035595206394E-06, 1.936E-11
