
SetupTitle, Transfer lin
PrimitiveTest, I/V Sweep
TestParameter, Context.MainFrame, 4155C
TestParameter, Channel.UnitType, SMU, SMU, SMU
TestParameter, Channel.Unit, SMU3:MP, SMU4:MP, SMU1:MP
TestParameter, Channel.IName, ID, IS, IG
TestParameter, Channel.VName, VD, VS, VG
TestParameter, Channel.Mode, V, COMMON, V
TestParameter, Channel.Func, CONST, CONST, VAR1
TestParameter, Channel.Index, 
TestParameter, Channel.Time, 
TestParameter, Measurement.Port.Unit, SMU3:MP, SMU4:MP, SMU1:MP
TestParameter, Measurement.Port.SeriesResistor, NONE, NONE, NONE
TestParameter, Measurement.Port.Filter, ON, ON, ON
TestParameter, Measurement.Primary.Locus, Double
TestParameter, Measurement.Primary.Scale, LINEAR
TestParameter, Measurement.Primary.Start, -2
TestParameter, Measurement.Primary.Stop, 3
TestParameter, Measurement.Primary.Step, 0.05
TestParameter, Measurement.Primary.Compliance, 0.001
TestParameter, Measurement.Primary.PowerCompliance, 0
TestParameter, Measurement.Aborting.Condition, CONTINUE AT ANY
TestParameter, Measurement.PostOutput.Value, START
TestParameter, Measurement.PostOutput.Retention, OFF
TestParameter, Measurement.Bias.Source, 0.1, 0, -2
TestParameter, Measurement.Bias.Compliance, 0.001, 0.1, 0.001
TestParameter, Measurement.Monitor.Unit, SMU3:MP, SMU4:MP, SMU1:MP
TestParameter, Measurement.Monitor.Adc, HR ADC, HR ADC, HR ADC
TestParameter, Measurement.Monitor.RangingMode, AUTO, AUTO, AUTO
TestParameter, Measurement.Monitor.RangeBoundary, , , 
TestParameter, Measurement.Monitor.RangeRating, BY FULL RANGE, BY FULL RANGE, BY FULL RANGE
TestParameter, Measurement.Monitor.RangeRatingCoeff, 50, 50, 50
TestParameter, Measurement.Timing.Hold, 0.5
TestParameter, Measurement.Timing.Delay, 0.05
TestParameter, Measurement.Adc.HighResolution.AutoZero, OFF
TestParameter, Measurement.Adc.HighResolution.Mode, AUTO
TestParameter, Measurement.Adc.HighResolution.Coeff, 1
TestParameter, Measurement.Ag16440ASelector.SemiconductorRelay.Channel1, DEFAULT
TestParameter, Measurement.Ag16440ASelector.SemiconductorRelay.Channel3, DEFAULT
TestParameter, Function.User.Name, absID, sqrtID, gm2, absIG
TestParameter, Function.User.Unit, A, A, A/V, A
TestParameter, Function.User.Definition, abs(ID), sqrt(abs(ID)), (delta(sqrtID)/delta(VG))^2, abs(IG)
TestParameter, Output.Graph.Enabled, true
TestParameter, Output.Graph.XAxis.Data, VG
TestParameter, Output.Graph.XAxis.Scale, Linear
TestParameter, Output.Graph.XAxis.Left, -5
TestParameter, Output.Graph.XAxis.Right, 7
TestParameter, Output.Graph.YAxis.Data, ID, absIG, gm2
TestParameter, Output.Graph.YAxis.Scale, Log, Log, Linear
TestParameter, Output.Graph.YAxis.Bottom, 1E-14, 1E-14, 0
TestParameter, Output.Graph.YAxis.Top, 0.01, 0.01, 1E-05
TestParameter, Output.Graph.YAxis.Group, , , 
TestParameter, Output.List.Data, VG, IG, VD, ID, VS, IS, sqrtID, gm2, absIG
TestParameter, AutoAnalysis.Interpolation, false
TestParameter, AutoAnalysis.Line1.Enabled, false
TestParameter, AutoAnalysis.Line1.Type, 1
TestParameter, AutoAnalysis.Line1.Fix, True
TestParameter, AutoAnalysis.Line1.YAxis, 0
TestParameter, AutoAnalysis.Line1.Point1.Type, 0
TestParameter, AutoAnalysis.Line1.Point1.XY.X, 
TestParameter, AutoAnalysis.Line1.Point1.XY.Y, 
TestParameter, AutoAnalysis.Line1.Point1.Data.Var, 
TestParameter, AutoAnalysis.Line1.Point1.Data.Condition, 
TestParameter, AutoAnalysis.Line1.Point1.Data.Start, false
TestParameter, AutoAnalysis.Line1.Point1.Data.StartVar, 
TestParameter, AutoAnalysis.Line1.Point1.Data.StartCondition, 
TestParameter, AutoAnalysis.Line1.Point2.Type, 0
TestParameter, AutoAnalysis.Line1.Point2.XY.X, 
TestParameter, AutoAnalysis.Line1.Point2.XY.Y, 
TestParameter, AutoAnalysis.Line1.Point2.Data.Var, 
TestParameter, AutoAnalysis.Line1.Point2.Data.Condition, 
TestParameter, AutoAnalysis.Line1.Point2.Data.Start, false
TestParameter, AutoAnalysis.Line1.Point2.Data.StartVar, 
TestParameter, AutoAnalysis.Line1.Point2.Data.StartCondition, 
TestParameter, AutoAnalysis.Line1.GradientExpr, 0
TestParameter, AutoAnalysis.Line2.Enabled, false
TestParameter, AutoAnalysis.Line2.Type, 1
TestParameter, AutoAnalysis.Line2.Fix, True
TestParameter, AutoAnalysis.Line2.YAxis, 0
TestParameter, AutoAnalysis.Line2.Point1.Type, 0
TestParameter, AutoAnalysis.Line2.Point1.XY.X, 
TestParameter, AutoAnalysis.Line2.Point1.XY.Y, 
TestParameter, AutoAnalysis.Line2.Point1.Data.Var, 
TestParameter, AutoAnalysis.Line2.Point1.Data.Condition, 
TestParameter, AutoAnalysis.Line2.Point1.Data.Start, false
TestParameter, AutoAnalysis.Line2.Point1.Data.StartVar, 
TestParameter, AutoAnalysis.Line2.Point1.Data.StartCondition, 
TestParameter, AutoAnalysis.Line2.Point2.Type, 0
TestParameter, AutoAnalysis.Line2.Point2.XY.X, 
TestParameter, AutoAnalysis.Line2.Point2.XY.Y, 
TestParameter, AutoAnalysis.Line2.Point2.Data.Var, 
TestParameter, AutoAnalysis.Line2.Point2.Data.Condition, 
TestParameter, AutoAnalysis.Line2.Point2.Data.Start, false
TestParameter, AutoAnalysis.Line2.Point2.Data.StartVar, 
TestParameter, AutoAnalysis.Line2.Point2.Data.StartCondition, 
TestParameter, AutoAnalysis.Line2.GradientExpr, 0
TestParameter, AutoAnalysis.Marker.Enabled, false
TestParameter, AutoAnalysis.Marker.Data.Var, 
TestParameter, AutoAnalysis.Marker.Data.Condition, 
TestParameter, AutoAnalysis.Marker.Data.Start, false
TestParameter, AutoAnalysis.Marker.Data.StartVar, 
TestParameter, AutoAnalysis.Marker.Data.StartCondition, 
MetaData, TestRecord.EntryPoint, true
MetaData, TestRecord.RecordTime, 06/18/2019 13:47:36
MetaData, TestRecord.TestTarget, 6-49
MetaData, TestRecord.IterationIndex, 1
MetaData, TestRecord.Preservation, true
MetaData, TestRecord.Flag, 
MetaData, TestRecord.Remarks, some leak
MetaData, TestRecord.LinkKey, e44855ae-fb63-406c-82d2-cf3fd0b40637
Dimension1, 202, 202, 202, 202, 202, 202, 202, 202, 202, 202
Dimension2, 1, 1, 1, 1, 1, 1, 1, 1, 1, 1
DataName, VG, VD, VS, ID, IS, IG, absID, sqrtID, gm2, absIG
DataValue, -2, 0.1, 0, 6.1849E-11, 3.5000000000000004E-12, -6.4965E-11, 6.1849E-11, 7.8644135191379665E-06, 1.186246868429028E-11, 6.4965E-11
DataValue, -1.9500000000000002, 0.1, 0, 5.917E-11, -1.35E-13, -6.093E-11, 5.917E-11, 7.6922038454528756E-06, 1.8090352800367077E-11, 6.093E-11
DataValue, -1.9000000000000001, 0.1, 0, 5.5340000000000006E-11, -3.873E-12, -5.568E-11, 5.5340000000000006E-11, 7.4390859653589169E-06, 1.3024960129757066E-11, 5.568E-11
DataValue, -1.85, 0.1, 0, 5.3748000000000004E-11, -3.1470000000000002E-12, -5.2373E-11, 5.3748000000000004E-11, 7.3313027491708458E-06, 3.3632054297195442E-11, 5.2373E-11
DataValue, -1.8, 0.1, 0, 4.7048000000000004E-11, 5.645E-12, -4.844E-11, 4.7048000000000004E-11, 6.859154466842105E-06, 5.5010362659638257E-11, 4.844E-11
DataValue, -1.75, 0.1, 0, 4.3423000000000003E-11, -3.791E-12, -4.3033000000000005E-11, 4.3423000000000003E-11, 6.5896130387147929E-06, 3.8232109294683639E-11, 4.3033000000000005E-11
DataValue, -1.7000000000000002, 0.1, 0, 3.8948E-11, -1.835E-12, -4.0657000000000005E-11, 3.8948E-11, 6.2408332776961763E-06, 6.3525933344197179E-11, 4.0657000000000005E-11
DataValue, -1.6500000000000001, 0.1, 0, 3.3554000000000005E-11, -5.2890000000000006E-12, -3.4801E-11, 3.3554000000000005E-11, 5.7925814625260135E-06, 5.1730517776761983E-11, 3.4801E-11
DataValue, -1.6, 0.1, 0, 3.0488000000000005E-11, 5.561E-12, -3.2012000000000005E-11, 3.0488000000000005E-11, 5.5215939727582295E-06, 2.5698870743959806E-11, 3.2012000000000005E-11
DataValue, -1.55, 0.1, 0, 2.7938E-11, 8.02E-13, -2.9966000000000005E-11, 2.7938E-11, 5.2856409261318537E-06, 1.6709043257569783E-11, 2.9966000000000005E-11
DataValue, -1.5, 0.1, 0, 2.6141000000000002E-11, 5.5000000000000005E-14, -2.6087E-11, 2.6141000000000002E-11, 5.1128270066568845E-06, 1.5006010895514861E-11, 2.6087E-11
DataValue, -1.4500000000000002, 0.1, 0, 2.3993000000000002E-11, -2.36E-13, -2.3197E-11, 2.3993000000000002E-11, 4.8982649989562634E-06, 4.9223042534689991E-11, 2.3197E-11
DataValue, -1.4000000000000001, 0.1, 0, 1.9459E-11, 5.82E-13, -2.0437000000000003E-11, 1.9459E-11, 4.4112356545530415E-06, 5.0708256531110706E-11, 2.0437000000000003E-11
DataValue, -1.35, 0.1, 0, 1.7524E-11, 4.8200000000000007E-13, -1.7906E-11, 1.7524E-11, 4.1861676985042059E-06, 2.2501619497685527E-11, 1.7906E-11
DataValue, -1.3, 0.1, 0, 1.5499000000000003E-11, 2.3380000000000003E-12, -1.6180000000000003E-11, 1.5499000000000003E-11, 3.9368769348304505E-06, 1.3616468890870949E-10, 1.6180000000000003E-11
DataValue, -1.25, 0.1, 0, 9.1160000000000011E-12, -2.92E-13, -1.3235000000000002E-11, 9.1160000000000011E-12, 3.0192714352969328E-06, 3.0771190542618238E-11, 1.3235000000000002E-11
DataValue, -1.2, 0.1, 0, 1.1439000000000001E-11, 6.52E-13, -1.1129E-11, 1.1439000000000001E-11, 3.382159073727905E-06, 8.89425933644069E-16, 1.1129E-11
DataValue, -1.1500000000000001, 0.1, 0, 9.098E-12, 2.209E-12, -1.0472000000000001E-11, 9.098E-12, 3.0162891108114952E-06, 1.3236562352075734E-12, 1.0472000000000001E-11
DataValue, -1.1, 0.1, 0, 1.0674E-11, 4.3290000000000006E-12, -9.474000000000001E-12, 1.0674E-11, 3.2671088136148757E-06, 2.3054432340810313E-11, 9.474000000000001E-12
DataValue, -1.05, 0.1, 0, 6.4320000000000009E-12, 2.5220000000000004E-12, -8.0350000000000012E-12, 6.4320000000000009E-12, 2.5361387974635775E-06, 8.7853495422280518E-11, 8.0350000000000012E-12
DataValue, -1, 0.1, 0, 5.4280000000000007E-12, -5.0520000000000007E-12, -5.9810000000000005E-12, 5.4280000000000007E-12, 2.3298068589477543E-06, 1.0085750556761153E-11, 5.9810000000000005E-12
DataValue, -0.95000000000000007, 0.1, 0, 4.922E-12, 2.3090000000000004E-12, -5.366E-12, 4.922E-12, 2.2185580902919808E-06, 4.1893163295115179E-11, 5.366E-12
DataValue, -0.9, 0.1, 0, 2.8310000000000004E-12, 1.3460000000000001E-12, -3.9720000000000004E-12, 2.8310000000000004E-12, 1.6825575770237404E-06, 4.9509848331590065E-11, 3.9720000000000004E-12
DataValue, -0.85000000000000009, 0.1, 0, 2.2950000000000002E-12, -8.168E-12, -2.386E-12, 2.2950000000000002E-12, 1.5149257407543117E-06, 2.2274141248546152E-14, 2.386E-12
DataValue, -0.8, 0.1, 0, 2.7810000000000004E-12, 1.205E-12, -3.187E-12, 2.7810000000000004E-12, 1.6676330531624756E-06, 4.6657146500837987E-11, 3.187E-12
DataValue, -0.75, 0.1, 0, 6.9200000000000008E-13, -7.8900000000000007E-13, -2.2790000000000003E-12, 6.9200000000000008E-13, 8.31865373723417E-07, 1.1050038910542659E-10, 2.2790000000000003E-12
DataValue, -0.70000000000000007, 0.1, 0, 3.8000000000000005E-13, -7.6000000000000009E-13, -8.6400000000000005E-13, 3.8000000000000005E-13, 6.1644140029689773E-07, 1.7501162800524035E-11, 8.6400000000000005E-13
DataValue, -0.65, 0.1, 0, 1.71E-13, 9.73E-13, -8.3600000000000007E-13, 1.71E-13, 4.1352146256270667E-07, 3.5314566003916672E-12, 8.3600000000000007E-13
DataValue, -0.6, 0.1, 0, -6.4700000000000007E-13, -1.3780000000000002E-12, 9.2000000000000012E-14, 6.4700000000000007E-13, 8.0436310208760826E-07, 3.1259711586792529E-11, 9.2000000000000012E-14
DataValue, -0.55, 0.1, 0, -9.46E-13, 4.8100000000000007E-13, 9.5000000000000012E-14, 9.46E-13, 9.7262531326302622E-07, 2.2060340391703486E-12, 9.5000000000000012E-14
DataValue, -0.5, 0.1, 0, -9.0800000000000007E-13, -1.3300000000000001E-13, 4.7E-13, 9.0800000000000007E-13, 9.5289033996572769E-07, 2.0324800462953742E-12, 4.7E-13
DataValue, -0.45, 0.1, 0, -6.8900000000000009E-13, -3.9000000000000005E-13, 4.12E-13, 6.8900000000000009E-13, 8.3006023877788539E-07, 2.7592350121619879E-11, 4.12E-13
DataValue, -0.4, 0.1, 0, -2.185E-12, -7.0540000000000004E-12, 1.329E-12, 2.185E-12, 1.4781745499094483E-06, 2.3177240509863102E-11, 1.329E-12
DataValue, -0.35000000000000003, 0.1, 0, -1.7200000000000001E-12, -2.507E-12, 1.835E-12, 1.7200000000000001E-12, 1.3114877048604001E-06, 2.3188780055855734E-12, 1.835E-12
DataValue, -0.3, 0.1, 0, -1.7580000000000002E-12, 1.331E-12, 1.575E-12, 1.7580000000000002E-12, 1.3258959235173779E-06, 1.6237613725093728E-12, 1.575E-12
DataValue, -0.25, 0.1, 0, -1.402E-12, -3.3520000000000003E-12, 1.456E-12, 1.402E-12, 1.1840608092492547E-06, 2.0311396229801948E-11, 1.456E-12
DataValue, -0.2, 0.1, 0, -7.6600000000000007E-13, -8.3400000000000008E-13, 1.136E-12, 7.6600000000000007E-13, 8.7521425948164258E-07, 3.4112702890089419E-11, 1.136E-12
DataValue, -0.15, 0.1, 0, -3.6000000000000003E-13, -2.143E-12, 1.6580000000000002E-12, 3.6000000000000003E-13, 6.0000000000000008E-07, 2.0277414892429059E-11, 1.6580000000000002E-12
DataValue, -0.1, 0.1, 0, 1.757E-12, -3.8610000000000006E-12, 1.8410000000000003E-12, 1.757E-12, 1.3255187663703596E-06, 1.4867913521607702E-10, 1.8410000000000003E-12
DataValue, -0.05, 0.1, 0, 3.3100000000000002E-12, -5.8700000000000006E-12, 2.046E-12, 3.3100000000000002E-12, 1.8193405398660252E-06, 7.3586765873481428E-11, 2.046E-12
DataValue, 0, 0.1, 0, 4.767E-12, -7.692E-12, 1.5840000000000001E-12, 4.767E-12, 2.1833460559425755E-06, 2.9080040935679049E-10, 1.5840000000000001E-12
DataValue, 0.05, 0.1, 0, 1.2423E-11, -1.6156E-11, 1.6060000000000002E-12, 1.2423E-11, 3.5246276399075125E-06, 4.5878577068948834E-10, 1.6060000000000002E-12
DataValue, 0.1, 0.1, 0, 1.8708E-11, -2.0644E-11, 1.6490000000000001E-12, 1.8708E-11, 4.3252745577593107E-06, 2.4150816318910624E-10, 1.6490000000000001E-12
DataValue, 0.15, 0.1, 0, 2.5793000000000002E-11, -2.8887000000000003E-11, 1.7000000000000002E-12, 2.5793000000000002E-11, 5.0786809311079981E-06, 2.90781353187619E-10, 1.7000000000000002E-12
DataValue, 0.2, 0.1, 0, 3.6367E-11, -3.7788E-11, 1.8870000000000003E-12, 3.6367E-11, 6.0305057830997894E-06, 3.30586005095773E-10, 1.8870000000000003E-12
DataValue, 0.25, 0.1, 0, 4.7567000000000004E-11, -5.0403E-11, 1.6140000000000002E-12, 4.7567000000000004E-11, 6.89688335409553E-06, 2.6167308446752355E-10, 1.6140000000000002E-12
DataValue, 0.3, 0.1, 0, 5.8494E-11, -5.5354000000000003E-11, 1.193E-12, 5.8494E-11, 7.6481370280611479E-06, 2.427907161328931E-10, 1.193E-12
DataValue, 0.35000000000000003, 0.1, 0, 7.1488E-11, -5.8898000000000007E-11, 6.870000000000001E-13, 7.1488E-11, 8.4550576579938235E-06, 2.5872150688112844E-10, 6.870000000000001E-13
DataValue, 0.4, 0.1, 0, 8.5685000000000012E-11, -8.712E-11, 2.1950000000000002E-12, 8.5685000000000012E-11, 9.2566192532695232E-06, 1.5578476981728548E-10, 2.1950000000000002E-12
DataValue, 0.45, 0.1, 0, 9.415200000000001E-11, -9.6912000000000009E-11, 2.023E-12, 9.415200000000001E-11, 9.70319534998652E-06, 2.0725684423605489E-10, 2.023E-12
DataValue, 0.5, 0.1, 0, 1.1441000000000001E-10, -1.08318E-10, 9.470000000000001E-13, 1.1441000000000001E-10, 1.0696261028976434E-05, 3.2678245563282689E-10, 9.470000000000001E-13
DataValue, 0.55, 0.1, 0, 1.3250100000000002E-10, -1.3822600000000002E-10, 2.301E-12, 1.3250100000000002E-10, 1.1510907870363659E-05, 3.3409835101265891E-10, 2.301E-12
DataValue, 0.6, 0.1, 0, 1.56853E-10, -1.4860100000000002E-10, 1.08E-12, 1.56853E-10, 1.252409677381966E-05, 4.8358297553274455E-10, 1.08E-12
DataValue, 0.65, 0.1, 0, 1.8796300000000002E-10, -1.8886E-10, 1.9660000000000003E-12, 1.8796300000000002E-10, 1.3709959883238172E-05, 6.804533381548002E-10, 1.9660000000000003E-12
DataValue, 0.70000000000000007, 0.1, 0, 2.28997E-10, -2.19761E-10, 1.3230000000000001E-12, 2.28997E-10, 1.5132646827306848E-05, 8.5954209365628246E-10, 1.3230000000000001E-12
DataValue, 0.75, 0.1, 0, 2.7694800000000004E-10, -2.7349E-10, 1.9030000000000003E-12, 2.7694800000000004E-10, 1.664175471517352E-05, 1.2130670302099461E-09, 1.9030000000000003E-12
DataValue, 0.8, 0.1, 0, 3.46539E-10, -3.34148E-10, 1.099E-12, 3.46539E-10, 1.8615558009364102E-05, 1.6524089380629183E-09, 1.099E-12
DataValue, 0.85000000000000009, 0.1, 0, 4.2876900000000005E-10, -4.1347200000000004E-10, 1.5030000000000002E-12, 4.2876900000000005E-10, 2.0706738033789872E-05, 1.92382028734014E-09, 1.5030000000000002E-12
DataValue, 0.9, 0.1, 0, 5.2907800000000008E-10, -5.15054E-10, 1.8660000000000003E-12, 5.2907800000000008E-10, 2.3001695589673387E-05, 2.2754363997060178E-09, 1.8660000000000003E-12
DataValue, 0.95000000000000007, 0.1, 0, 6.49072E-10, -6.2771900000000007E-10, 9.8500000000000014E-13, 6.49072E-10, 2.5476891490132778E-05, 2.6222090405405204E-09, 9.8500000000000014E-13
DataValue, 1, 0.1, 0, 7.908720000000001E-10, -7.6716200000000009E-10, 1.765E-12, 7.908720000000001E-10, 2.8122446550753724E-05, 2.0401101364273239E-09, 1.765E-12
DataValue, 1.05, 0.1, 0, 8.99619E-10, -8.8283800000000011E-10, 1.822E-12, 8.99619E-10, 2.9993649327816046E-05, 2.0580278165105506E-09, 1.822E-12
DataValue, 1.1, 0.1, 0, 1.06661E-09, -1.03379E-09, 1.856E-12, 1.06661E-09, 3.265899569796965E-05, 3.6059565697053869E-09, 1.856E-12
DataValue, 1.1500000000000001, 0.1, 0, 1.2959E-09, -1.27661E-09, 2.2120000000000003E-12, 1.2959E-09, 3.5998611084318242E-05, 4.6520847568516071E-09, 2.2120000000000003E-12
DataValue, 1.2, 0.1, 0, 1.55864E-09, -1.5331E-09, 1.6240000000000002E-12, 1.55864E-09, 3.9479614993056859E-05, 4.5821172008173382E-09, 1.6240000000000002E-12
DataValue, 1.25, 0.1, 0, 1.82908E-09, -1.79658E-09, 1.542E-12, 1.82908E-09, 4.276774485520601E-05, 4.0362189604190446E-09, 1.542E-12
DataValue, 1.3, 0.1, 0, 2.10064E-09, -2.06849E-09, 1.3360000000000002E-12, 2.10064E-09, 4.5832739390091008E-05, 3.796395605882289E-09, 1.3360000000000002E-12
DataValue, 1.35, 0.1, 0, 2.39407E-09, -2.37147E-09, 1.9190000000000002E-12, 2.39407E-09, 4.8929234614900734E-05, 3.43124765477966E-09, 1.9190000000000002E-12
DataValue, 1.4000000000000001, 0.1, 0, 2.6719E-09, -2.64048E-09, 2.143E-12, 2.6719E-09, 5.1690424645189361E-05, 3.2778205931046443E-09, 2.143E-12
DataValue, 1.4500000000000002, 0.1, 0, 2.98711E-09, -2.94065E-09, 1.4860000000000001E-12, 2.98711E-09, 5.4654460019288452E-05, 3.24234030438908E-09, 1.4860000000000001E-12
DataValue, 1.5, 0.1, 0, 3.29299E-09, -3.24961E-09, 1.696E-12, 3.29299E-09, 5.7384579810259129E-05, 2.8762170468848338E-09, 1.696E-12
DataValue, 1.55, 0.1, 0, 3.6020999999999998E-09, -3.55742E-09, 2.6630000000000003E-12, 3.6020999999999998E-09, 6.0017497448660753E-05, 2.5144795491091654E-09, 2.6630000000000003E-12
DataValue, 1.6, 0.1, 0, 3.89364E-09, -3.84114E-09, 3.0060000000000003E-12, 3.89364E-09, 6.2399038454130041E-05, 2.3049037231695611E-09, 3.0060000000000003E-12
DataValue, 1.6500000000000001, 0.1, 0, 4.20143E-09, -4.15447E-09, 2.5140000000000004E-12, 4.20143E-09, 6.48184387346687E-05, 2.2579241989273358E-09, 2.5140000000000004E-12
DataValue, 1.7000000000000002, 0.1, 0, 4.50923E-09, -4.44632E-09, 2.21E-12, 4.50923E-09, 6.715080044199027E-05, 2.0403740827885264E-09, 2.21E-12
DataValue, 1.75, 0.1, 0, 4.80741E-09, -4.7356E-09, 2.272E-12, 4.80741E-09, 6.93354887485478E-05, 1.9226953400744313E-09, 2.272E-12
DataValue, 1.8, 0.1, 0, 5.11735E-09, -5.04977E-09, 2.6710000000000002E-12, 5.11735E-09, 7.1535655445379123E-05, 1.99306508369451E-09, 2.6710000000000002E-12
DataValue, 1.85, 0.1, 0, 5.44642E-09, -5.38915E-09, 2.531E-12, 5.44642E-09, 7.37998644985206E-05, 1.8652693274118108E-09, 2.531E-12
DataValue, 1.9000000000000001, 0.1, 0, 5.75391E-09, -5.64569E-09, 2.2370000000000003E-12, 5.75391E-09, 7.5854531835612831E-05, 1.6297499961103053E-09, 2.2370000000000003E-12
DataValue, 1.9500000000000002, 0.1, 0, 6.05858E-09, -5.99985E-09, 2.299E-12, 6.05858E-09, 7.7836880718589954E-05, 1.5826320794689961E-09, 2.299E-12
DataValue, 2, 0.1, 0, 6.37327E-09, -6.31964E-09, 2.5050000000000003E-12, 6.37327E-09, 7.9832762698030184E-05, 1.7275251219331305E-09, 2.5050000000000003E-12
DataValue, 2.05, 0.1, 0, 6.72289E-09, -6.63727E-09, 2.821E-12, 6.72289E-09, 8.1993231427966051E-05, 1.6661877659054944E-09, 2.821E-12
DataValue, 2.1, 0.1, 0, 7.04167E-09, -6.95958E-09, 2.7520000000000004E-12, 7.04167E-09, 8.3914659029278073E-05, 1.593931291702375E-09, 2.7520000000000004E-12
DataValue, 2.15, 0.1, 0, 7.39353E-09, -7.32048E-09, 2.457E-12, 7.39353E-09, 8.5985638335712777E-05, 1.723738638654841E-09, 2.457E-12
DataValue, 2.2, 0.1, 0, 7.7557E-09, -7.63891E-09, 2.5930000000000004E-12, 7.7557E-09, 8.80664521824287E-05, 1.521572870383326E-09, 2.5930000000000004E-12
