
SetupTitle, Transfer sat
PrimitiveTest, I/V Sweep
TestParameter, Context.MainFrame, 4155C
TestParameter, Channel.UnitType, SMU, SMU, SMU
TestParameter, Channel.Unit, SMU3:MP, SMU4:MP, SMU1:MP
TestParameter, Channel.IName, IS, ID, IG
TestParameter, Channel.VName, VS, VD, VG
TestParameter, Channel.Mode, COMMON, V, V
TestParameter, Channel.Func, CONST, CONST, VAR1
TestParameter, Channel.Index, 
TestParameter, Channel.Time, 
TestParameter, Measurement.Port.Unit, SMU3:MP, SMU4:MP, SMU1:MP
TestParameter, Measurement.Port.SeriesResistor, NONE, NONE, NONE
TestParameter, Measurement.Port.Filter, ON, ON, ON
TestParameter, Measurement.Primary.Locus, Double
TestParameter, Measurement.Primary.Scale, LINEAR
TestParameter, Measurement.Primary.Start, -2
TestParameter, Measurement.Primary.Stop, 3
TestParameter, Measurement.Primary.Step, 0.05
TestParameter, Measurement.Primary.Compliance, 0.001
TestParameter, Measurement.Primary.PowerCompliance, 0
TestParameter, Measurement.Aborting.Condition, CONTINUE AT ANY
TestParameter, Measurement.PostOutput.Value, START
TestParameter, Measurement.PostOutput.Retention, OFF
TestParameter, Measurement.Bias.Source, 0, 5, -2
TestParameter, Measurement.Bias.Compliance, 0.1, 0.001, 0.001
TestParameter, Measurement.Monitor.Unit, SMU4:MP, SMU3:MP, SMU1:MP
TestParameter, Measurement.Monitor.Adc, HR ADC, HR ADC, HR ADC
TestParameter, Measurement.Monitor.RangingMode, AUTO, AUTO, AUTO
TestParameter, Measurement.Monitor.RangeBoundary, , , 
TestParameter, Measurement.Monitor.RangeRating, BY FULL RANGE, BY FULL RANGE, BY FULL RANGE
TestParameter, Measurement.Monitor.RangeRatingCoeff, 50, 50, 50
TestParameter, Measurement.Timing.Hold, 0.5
TestParameter, Measurement.Timing.Delay, 0.05
TestParameter, Measurement.Adc.HighResolution.AutoZero, OFF
TestParameter, Measurement.Adc.HighResolution.Mode, AUTO
TestParameter, Measurement.Adc.HighResolution.Coeff, 1
TestParameter, Measurement.Ag16440ASelector.SemiconductorRelay.Channel1, DEFAULT
TestParameter, Measurement.Ag16440ASelector.SemiconductorRelay.Channel3, DEFAULT
TestParameter, Function.User.Name, absID, sqrtID, gm2, absIG
TestParameter, Function.User.Unit, A, A, A/V, A
TestParameter, Function.User.Definition, abs(ID), sqrt(abs(ID)), (delta(sqrtID)/delta(VG))^2, abs(IG)
TestParameter, Output.Graph.Enabled, true
TestParameter, Output.Graph.XAxis.Data, VG
TestParameter, Output.Graph.XAxis.Scale, Linear
TestParameter, Output.Graph.XAxis.Left, -5
TestParameter, Output.Graph.XAxis.Right, 7
TestParameter, Output.Graph.YAxis.Data, ID, absIG, gm2
TestParameter, Output.Graph.YAxis.Scale, Log, Log, Linear
TestParameter, Output.Graph.YAxis.Bottom, 1E-14, 1E-14, 0
TestParameter, Output.Graph.YAxis.Top, 0.01, 0.01, 1E-05
TestParameter, Output.Graph.YAxis.Group, , , 
TestParameter, Output.List.Data, VG, IG, VD, ID, VS, IS, sqrtID, gm2, absIG
TestParameter, AutoAnalysis.Interpolation, false
TestParameter, AutoAnalysis.Line1.Enabled, false
TestParameter, AutoAnalysis.Line1.Type, 1
TestParameter, AutoAnalysis.Line1.Fix, True
TestParameter, AutoAnalysis.Line1.YAxis, 0
TestParameter, AutoAnalysis.Line1.Point1.Type, 0
TestParameter, AutoAnalysis.Line1.Point1.XY.X, 
TestParameter, AutoAnalysis.Line1.Point1.XY.Y, 
TestParameter, AutoAnalysis.Line1.Point1.Data.Var, 
TestParameter, AutoAnalysis.Line1.Point1.Data.Condition, 
TestParameter, AutoAnalysis.Line1.Point1.Data.Start, false
TestParameter, AutoAnalysis.Line1.Point1.Data.StartVar, 
TestParameter, AutoAnalysis.Line1.Point1.Data.StartCondition, 
TestParameter, AutoAnalysis.Line1.Point2.Type, 0
TestParameter, AutoAnalysis.Line1.Point2.XY.X, 
TestParameter, AutoAnalysis.Line1.Point2.XY.Y, 
TestParameter, AutoAnalysis.Line1.Point2.Data.Var, 
TestParameter, AutoAnalysis.Line1.Point2.Data.Condition, 
TestParameter, AutoAnalysis.Line1.Point2.Data.Start, false
TestParameter, AutoAnalysis.Line1.Point2.Data.StartVar, 
TestParameter, AutoAnalysis.Line1.Point2.Data.StartCondition, 
TestParameter, AutoAnalysis.Line1.GradientExpr, 0
TestParameter, AutoAnalysis.Line2.Enabled, false
TestParameter, AutoAnalysis.Line2.Type, 1
TestParameter, AutoAnalysis.Line2.Fix, True
TestParameter, AutoAnalysis.Line2.YAxis, 0
TestParameter, AutoAnalysis.Line2.Point1.Type, 0
TestParameter, AutoAnalysis.Line2.Point1.XY.X, 
TestParameter, AutoAnalysis.Line2.Point1.XY.Y, 
TestParameter, AutoAnalysis.Line2.Point1.Data.Var, 
TestParameter, AutoAnalysis.Line2.Point1.Data.Condition, 
TestParameter, AutoAnalysis.Line2.Point1.Data.Start, false
TestParameter, AutoAnalysis.Line2.Point1.Data.StartVar, 
TestParameter, AutoAnalysis.Line2.Point1.Data.StartCondition, 
TestParameter, AutoAnalysis.Line2.Point2.Type, 0
TestParameter, AutoAnalysis.Line2.Point2.XY.X, 
TestParameter, AutoAnalysis.Line2.Point2.XY.Y, 
TestParameter, AutoAnalysis.Line2.Point2.Data.Var, 
TestParameter, AutoAnalysis.Line2.Point2.Data.Condition, 
TestParameter, AutoAnalysis.Line2.Point2.Data.Start, false
TestParameter, AutoAnalysis.Line2.Point2.Data.StartVar, 
TestParameter, AutoAnalysis.Line2.Point2.Data.StartCondition, 
TestParameter, AutoAnalysis.Line2.GradientExpr, 0
TestParameter, AutoAnalysis.Marker.Enabled, false
TestParameter, AutoAnalysis.Marker.Data.Var, 
TestParameter, AutoAnalysis.Marker.Data.Condition, 
TestParameter, AutoAnalysis.Marker.Data.Start, false
TestParameter, AutoAnalysis.Marker.Data.StartVar, 
TestParameter, AutoAnalysis.Marker.Data.StartCondition, 
MetaData, TestRecord.EntryPoint, true
MetaData, TestRecord.RecordTime, 06/18/2019 15:27:19
MetaData, TestRecord.TestTarget, 4-39
MetaData, TestRecord.IterationIndex, 1
MetaData, TestRecord.Preservation, true
MetaData, TestRecord.Flag, 
MetaData, TestRecord.Remarks, someleak
MetaData, TestRecord.LinkKey, f1084272-f612-4267-9076-3da07af03d9c
Dimension1, 202, 202, 202, 202, 202, 202, 202, 202, 202, 202
Dimension2, 1, 1, 1, 1, 1, 1, 1, 1, 1, 1
DataName, VG, VS, VD, ID, IS, IG, absID, sqrtID, gm2, absIG
DataValue, -2, 0, 5, 1.5663E-11, 8.427E-12, -1.8345000000000002E-11, 1.5663E-11, 3.9576508183517155E-06, 4.7090854141642344E-10, 1.8345000000000002E-11
DataValue, -1.9500000000000002, 0, 5, 8.252E-12, 7.514E-12, -1.6641000000000002E-11, 8.252E-12, 2.872629457483161E-06, 1.4393152216730664E-11, 1.6641000000000002E-11
DataValue, -1.9000000000000001, 0, 5, 1.2804E-11, 6.2150000000000005E-12, -1.7032000000000003E-11, 1.2804E-11, 3.5782677373276585E-06, 2.2511118076862085E-11, 1.7032000000000003E-11
DataValue, -1.85, 0, 5, 1.1203E-11, 5.3070000000000007E-12, -1.8928000000000002E-11, 1.1203E-11, 3.3470882868547106E-06, 1.2309874123812792E-11, 1.8928000000000002E-11
DataValue, -1.8, 0, 5, 1.5438000000000003E-11, 4.6660000000000005E-12, -2.7524E-11, 1.5438000000000003E-11, 3.9291220393365239E-06, 2.4112178751786415E-10, 2.7524E-11
DataValue, -1.75, 0, 5, 2.4009E-11, 4.5190000000000004E-12, -2.6889E-11, 2.4009E-11, 4.8998979581211688E-06, 2.0408485110321285E-10, 2.6889E-11
DataValue, -1.7000000000000002, 0, 5, 2.8705000000000003E-11, 3.7740000000000007E-12, -4.8225000000000007E-11, 2.8705000000000003E-11, 5.35770473243907E-06, 3.1825247040145619E-10, 4.8225000000000007E-11
DataValue, -1.6500000000000001, 0, 5, 4.4674E-11, 3.2770000000000003E-12, -4.84E-11, 4.4674E-11, 6.6838611595394472E-06, 2.068351280011241E-10, 4.84E-11
DataValue, -1.6, 0, 5, 4.6184000000000004E-11, 6.195E-12, -5.4191000000000004E-11, 4.6184000000000004E-11, 6.7958811054932391E-06, 1.5701551587638389E-11, 5.4191000000000004E-11
DataValue, -1.55, 0, 5, 5.0128E-11, 2.373E-12, -5.5706000000000005E-11, 5.0128E-11, 7.0801129934486219E-06, 3.0859504875990933E-11, 5.5706000000000005E-11
DataValue, -1.5, 0, 5, 5.4043E-11, 2.324E-12, -5.5700000000000005E-11, 5.4043E-11, 7.3513944255494822E-06, 1.6547819881681476E-12, 5.5700000000000005E-11
DataValue, -1.4500000000000002, 0, 5, 4.8323E-11, 2.929E-12, -4.9977000000000005E-11, 4.8323E-11, 6.9514746636954669E-06, 9.2504673480325952E-11, 4.9977000000000005E-11
DataValue, -1.4000000000000001, 0, 5, 4.0827E-11, 1.8530000000000003E-12, -4.2101000000000004E-11, 4.0827E-11, 6.389600926505505E-06, 9.9296593874504779E-11, 4.2101000000000004E-11
DataValue, -1.35, 0, 5, 3.5462000000000004E-11, 6.83E-13, -3.5827E-11, 3.5462000000000004E-11, 5.9549979009232237E-06, 3.86799935147925E-11, 3.5827E-11
DataValue, -1.3, 0, 5, 3.3266E-11, 1.3130000000000002E-12, -3.2502E-11, 3.3266E-11, 5.7676685064244115E-06, 3.5254800734854251E-10, 3.2502E-11
DataValue, -1.25, 0, 5, 6.135E-11, 1.2110000000000002E-12, -6.4754E-11, 6.135E-11, 7.8326240813663466E-06, 4.9676864123627847E-10, 6.4754E-11
DataValue, -1.2, 0, 5, 6.3944000000000009E-11, 7.110000000000001E-13, -5.9347000000000007E-11, 6.3944000000000009E-11, 7.9964992340398563E-06, 5.0687273981458732E-11, 5.9347000000000007E-11
DataValue, -1.1500000000000001, 0, 5, 5.0704000000000005E-11, 5.4800000000000009E-13, -4.9494000000000004E-11, 5.0704000000000005E-11, 7.1206741253900954E-06, 1.5002997307908646E-10, 4.9494000000000004E-11
DataValue, -1.1, 0, 5, 4.5855000000000006E-11, 6.29E-13, -4.2773000000000004E-11, 4.5855000000000006E-11, 6.7716320041774273E-06, 7.3974293714645244E-11, 4.2773000000000004E-11
DataValue, -1.05, 0, 5, 3.9195E-11, 5.3100000000000006E-13, -3.7337000000000004E-11, 3.9195E-11, 6.2605910264127618E-06, 1.1034311611810143E-10, 3.7337000000000004E-11
DataValue, -1, 0, 5, 3.2732000000000004E-11, 2.733E-12, -3.2980000000000005E-11, 3.2732000000000004E-11, 5.7211886876767146E-06, 6.7059739463786427E-11, 3.2980000000000005E-11
DataValue, -0.95000000000000007, 0, 5, 2.9612E-11, 5.7400000000000008E-13, -3.1925E-11, 2.9612E-11, 5.4416909136774759E-06, 1.4018581263915006E-11, 3.1925E-11
DataValue, -0.9, 0, 5, 2.8588000000000004E-11, 4.6080000000000006E-12, -2.8056000000000002E-11, 2.8588000000000004E-11, 5.3467747287500341E-06, 9.885423480562967E-12, 2.8056000000000002E-11
DataValue, -0.85000000000000009, 0, 5, 2.6289E-11, 9.6800000000000012E-13, -2.6050000000000003E-11, 2.6289E-11, 5.12727998065251E-06, 2.0483954230418068E-12, 2.6050000000000003E-11
DataValue, -0.8, 0, 5, 2.7078E-11, -1.858E-12, -2.3921000000000002E-11, 2.7078E-11, 5.2036525633443289E-06, 9.2607064261868915E-12, 2.3921000000000002E-11
DataValue, -0.75, 0, 5, 2.3261E-11, 7.6200000000000009E-13, -2.2458E-11, 2.3261E-11, 4.8229658924773664E-06, 1.1491016836602036E-11, 2.2458E-11
DataValue, -0.70000000000000007, 0, 5, 2.3665000000000003E-11, -2.9130000000000002E-12, -2.0702E-11, 2.3665000000000003E-11, 4.8646685395821163E-06, 1.1763548196742351E-11, 2.0702E-11
DataValue, -0.65, 0, 5, 2.6687E-11, -6.0040000000000007E-12, -1.886E-11, 2.6687E-11, 5.1659461863244378E-06, 1.4147597790306877E-11, 1.886E-11
DataValue, -0.6, 0, 5, 2.7466E-11, -9.296E-12, -1.7941E-11, 2.7466E-11, 5.2408014654249213E-06, 5.2510243842932005E-11, 1.7941E-11
DataValue, -0.55, 0, 5, 3.4699000000000005E-11, -1.5435000000000003E-11, -1.8568000000000002E-11, 3.4699000000000005E-11, 5.8905857094180376E-06, 1.6586976888500249E-10, 1.8568000000000002E-11
DataValue, -0.5, 0, 5, 4.2624000000000006E-11, -2.2118000000000002E-11, -1.7416E-11, 4.2624000000000006E-11, 6.5287058441930128E-06, 2.37168207526231E-10, 1.7416E-11
DataValue, -0.45, 0, 5, 5.5214000000000004E-11, -3.7641E-11, -1.5541E-11, 5.5214000000000004E-11, 7.4306123569999266E-06, 4.6391253925824884E-10, 1.5541E-11
DataValue, -0.4, 0, 5, 7.5387000000000011E-11, -5.3465000000000006E-11, -1.4865000000000002E-11, 7.5387000000000011E-11, 8.6825687443290653E-06, 7.8357776200747682E-10, 1.4865000000000002E-11
DataValue, -0.35000000000000003, 0, 5, 1.0465000000000001E-10, -8.6038E-11, -1.5666E-11, 1.0465000000000001E-10, 1.022985825903761E-05, 9.2196657734156232E-10, 1.5666E-11
DataValue, -0.3, 0, 5, 1.3733400000000001E-10, -1.2239200000000002E-10, -1.3728000000000001E-11, 1.3733400000000001E-10, 1.1718958998136311E-05, 1.3572530737191894E-09, 1.3728000000000001E-11
DataValue, -0.25, 0, 5, 1.9359800000000002E-10, -1.7440100000000002E-10, -1.3806000000000002E-11, 1.9359800000000002E-10, 1.3913949834608432E-05, 2.044493433383378E-09, 1.3806000000000002E-11
DataValue, -0.2, 0, 5, 2.6375600000000005E-10, -2.42941E-10, -1.1805000000000002E-11, 2.6375600000000005E-10, 1.6240566492582702E-05, 2.4858058181544841E-09, 1.1805000000000002E-11
DataValue, -0.15, 0, 5, 3.572E-10, -3.3275400000000005E-10, -1.3507E-11, 3.572E-10, 1.8899735447883921E-05, 3.350652977956214E-09, 1.3507E-11
DataValue, -0.1, 0, 5, 4.85279E-10, -4.48465E-10, -1.2239E-11, 4.85279E-10, 2.2029049003531676E-05, 3.6066089878961803E-09, 1.2239E-11
DataValue, -0.05, 0, 5, 6.2027100000000008E-10, -5.9464E-10, -1.1804000000000001E-11, 6.2027100000000008E-10, 2.49052404124112E-05, 4.2955445599161548E-09, 1.1804000000000001E-11
DataValue, 0, 0, 5, 8.16993E-10, -7.8105900000000008E-10, -1.1304000000000001E-11, 8.16993E-10, 2.8583089406150625E-05, 5.3155081161168373E-09, 1.1304000000000001E-11
DataValue, 0.05, 0, 5, 1.0365820000000002E-09, -9.8479E-10, -9.8810000000000012E-12, 1.0365820000000002E-09, 3.219599353956949E-05, 4.9420478148389229E-09, 9.8810000000000012E-12
DataValue, 0.1, 0, 5, 1.26829E-09, -1.24411E-09, -9.954E-12, 1.26829E-09, 3.5613059402415847E-05, 7.2510455056377763E-09, 9.954E-12
DataValue, 0.15, 0, 5, 1.65741E-09, -1.62206E-09, -9.3230000000000014E-12, 1.65741E-09, 4.0711300642450615E-05, 1.0196497561662952E-08, 9.3230000000000014E-12
DataValue, 0.2, 0, 5, 2.08948E-09, -2.05645E-09, -9.299E-12, 2.08948E-09, 4.5710830226544781E-05, 1.0232858175871895E-08, 9.299E-12
DataValue, 0.25, 0, 5, 2.58339E-09, -2.53952E-09, -8.362E-12, 2.58339E-09, 5.0827059722159807E-05, 1.0805339681315298E-08, 8.362E-12
DataValue, 0.3, 0, 5, 3.14785E-09, -3.10314E-09, -7.8670000000000011E-12, 3.14785E-09, 5.6105703809862325E-05, 1.1391512507108127E-08, 7.8670000000000011E-12
DataValue, 0.35000000000000003, 0, 5, 3.78227E-09, -3.72414E-09, -6.894E-12, 3.78227E-09, 6.1500162601411059E-05, 1.1621688186405753E-08, 6.894E-12
DataValue, 0.4, 0, 5, 4.47375E-09, -4.42052E-09, -6.618E-12, 4.47375E-09, 6.6886097210107866E-05, 1.1957078592813669E-08, 6.618E-12
DataValue, 0.45, 0, 5, 5.24683E-09, -5.16671E-09, -7.118E-12, 5.24683E-09, 7.243500534962361E-05, 1.2404651541629835E-08, 7.118E-12
DataValue, 0.5, 0, 5, 6.0877E-09, -6.02279E-09, -5.748E-12, 6.0877E-09, 7.80237143437814E-05, 1.2592999160434873E-08, 5.748E-12
DataValue, 0.55, 0, 5, 6.99847E-09, -6.91239E-09, -4.983E-12, 6.99847E-09, 8.3656858654864631E-05, 1.2791198306431424E-08, 4.983E-12
DataValue, 0.6, 0, 5, 7.98048E-09, -7.88149E-09, -4.1080000000000007E-12, 7.98048E-09, 8.93335323380868E-05, 1.3149227158332658E-08, 4.1080000000000007E-12
DataValue, 0.65, 0, 5, 9.04855E-09, -8.92412E-09, -4.4000000000000006E-12, 9.04855E-09, 9.51238666161127E-05, 1.3169153970377347E-08, 4.4000000000000006E-12
DataValue, 0.70000000000000007, 0, 5, 1.01625E-08, -1.00352E-08, -4.7920000000000006E-12, 1.01625E-08, 0.00010080922576827975, 1.2607647938549695E-08, 4.7920000000000006E-12
DataValue, 0.75, 0, 5, 1.1310799999999999E-08, -1.11516E-08, -5.106E-12, 1.1310799999999999E-08, 0.00010635224492223941, 1.252733978262761E-08, 5.106E-12
DataValue, 0.8, 0, 5, 1.2544399999999998E-08, -1.2408E-08, -4.3190000000000005E-12, 1.2544399999999998E-08, 0.00011200178570005032, 1.3394773599828422E-08, 4.3190000000000005E-12
DataValue, 0.85000000000000009, 0, 5, 1.39065E-08, -1.3744199999999998E-08, -4.005E-12, 1.39065E-08, 0.00011792582414382356, 1.3811905027096223E-08, 4.005E-12
DataValue, 0.9, 0, 5, 1.5315099999999997E-08, -1.5122799999999998E-08, -3.1480000000000003E-12, 1.5315099999999997E-08, 0.00012375419184819557, 1.3572302124182347E-08, 3.1480000000000003E-12
DataValue, 0.95000000000000007, 0, 5, 1.6789899999999998E-08, -1.6599599999999998E-08, -3.037E-12, 1.6789899999999998E-08, 0.00012957584651469579, 1.364378960755719E-08, 3.037E-12
DataValue, 1, 0, 5, 1.83426E-08, -1.8127799999999998E-08, -2.5050000000000003E-12, 1.83426E-08, 0.00013543485518875855, 1.372409506507701E-08, 2.5050000000000003E-12
DataValue, 1.05, 0, 5, 1.9963099999999997E-08, -1.97382E-08, -2.1620000000000003E-12, 1.9963099999999997E-08, 0.00014129083480537581, 1.4349280852258234E-08, 2.1620000000000003E-12
DataValue, 1.1, 0, 5, 2.1730799999999997E-08, -2.1459799999999997E-08, -1.619E-12, 2.1730799999999997E-08, 0.00014741370356924081, 1.4178624102226011E-08, 1.619E-12
DataValue, 1.1500000000000001, 0, 5, 2.3469699999999998E-08, -2.32408E-08, -1.835E-12, 2.3469699999999998E-08, 0.00015319823758777384, 1.4763959528917403E-08, 1.835E-12
DataValue, 1.2, 0, 5, 2.5460799999999998E-08, -2.5198599999999998E-08, -2.7390000000000003E-12, 2.5460799999999998E-08, 0.0001595644070587172, 1.5167173889825335E-08, 2.7390000000000003E-12
DataValue, 1.25, 0, 5, 2.7394799999999997E-08, -2.7122299999999996E-08, -2.8440000000000004E-12, 2.7394799999999997E-08, 0.00016551374565274026, 1.5069121074267432E-08, 2.8440000000000004E-12
DataValue, 1.3, 0, 5, 2.9528999999999996E-08, -2.9181899999999997E-08, -1.8690000000000002E-12, 2.9528999999999996E-08, 0.00017184004189943621, 1.4389659575745199E-08, 1.8690000000000002E-12
DataValue, 1.35, 0, 5, 3.1509599999999994E-08, -3.1187999999999994E-08, -1.6430000000000002E-12, 3.1509599999999994E-08, 0.00017750943636888714, 1.393450780482611E-08, 1.6430000000000002E-12
DataValue, 1.4000000000000001, 0, 5, 3.3725299999999996E-08, -3.3335399999999996E-08, -1.7490000000000001E-12, 3.3725299999999996E-08, 0.00018364449351940829, 1.4985317050069739E-08, 1.7490000000000001E-12
DataValue, 1.4500000000000002, 0, 5, 3.60054E-08, -3.5647999999999996E-08, -1.3320000000000002E-12, 3.60054E-08, 0.00018975088932597918, 1.62770496564642E-08, 1.3320000000000002E-12
DataValue, 1.5, 0, 5, 3.8574E-08, -3.8111699999999994E-08, -1.1000000000000002E-12, 3.8574E-08, 0.00019640264763999492, 1.7688583049803198E-08, 1.1000000000000002E-12
DataValue, 1.55, 0, 5, 4.12296E-08, -4.07232E-08, -5.5400000000000006E-13, 4.12296E-08, 0.00020305073257686118, 1.7879108310333475E-08, 5.5400000000000006E-13
DataValue, 1.6, 0, 5, 4.4005099999999995E-08, -4.3416799999999993E-08, -6.7000000000000007E-13, 4.4005099999999995E-08, 0.0002097739259297971, 1.8098530802818259E-08, 6.7000000000000007E-13
DataValue, 1.6500000000000001, 0, 5, 4.6873899999999995E-08, -4.6316799999999993E-08, -6.5100000000000005E-13, 4.6873899999999995E-08, 0.0002165038105900217, 1.6719426944495562E-08, 6.5100000000000005E-13
DataValue, 1.7000000000000002, 0, 5, 4.9597199999999995E-08, -4.89478E-08, -1.99E-13, 4.9597199999999995E-08, 0.00022270428823891109, 1.7038482981487025E-08, 1.99E-13
DataValue, 1.75, 0, 5, 5.2696399999999993E-08, -5.2146099999999995E-08, 4.1500000000000005E-13, 5.2696399999999993E-08, 0.00022955696460791599, 1.6584208962212833E-08, 4.1500000000000005E-13
DataValue, 1.8, 0, 5, 5.5498999999999993E-08, -5.4876399999999996E-08, 6.09E-13, 5.5498999999999993E-08, 0.00023558225739643465, 1.7298911190176605E-08, 6.09E-13
DataValue, 1.85, 0, 5, 5.8907899999999995E-08, -5.8229899999999994E-08, 1.521E-12, 5.8907899999999995E-08, 0.00024270949713597941, 2.0382424338557643E-08, 1.521E-12
DataValue, 1.9000000000000001, 0, 5, 6.24295E-08, -6.1624399999999992E-08, 1.519E-12, 6.24295E-08, 0.00024985896021555842, 2.0005719689926977E-08, 1.519E-12
DataValue, 1.9500000000000002, 0, 5, 6.59738E-08, -6.5299199999999992E-08, 1.956E-12, 6.59738E-08, 0.00025685365483091728, 2.0104165483114071E-08, 1.956E-12
DataValue, 2, 0, 5, 6.9715999999999987E-08, -6.87438E-08, 2.72E-12, 6.9715999999999987E-08, 0.00026403787607083947, 2.2153055011452508E-08, 2.72E-12
DataValue, 2.05, 0, 5, 7.38413E-08, -7.30087E-08, 3.3350000000000002E-12, 7.38413E-08, 0.00027173755721283726, 2.2007823530371474E-08, 3.3350000000000002E-12
DataValue, 2.1, 0, 5, 7.7770099999999993E-08, -7.6819E-08, 4.033E-12, 7.7770099999999993E-08, 0.0002788729101221558, 2.0911980599553342E-08, 4.033E-12
