
SetupTitle, Transfer sat
PrimitiveTest, I/V Sweep
TestParameter, Context.MainFrame, 4155C
TestParameter, Channel.UnitType, SMU, SMU, SMU
TestParameter, Channel.Unit, SMU3:MP, SMU4:MP, SMU1:MP
TestParameter, Channel.IName, IS, ID, IG
TestParameter, Channel.VName, VS, VD, VG
TestParameter, Channel.Mode, COMMON, V, V
TestParameter, Channel.Func, CONST, CONST, VAR1
TestParameter, Channel.Index, 
TestParameter, Channel.Time, 
TestParameter, Measurement.Port.Unit, SMU3:MP, SMU4:MP, SMU1:MP
TestParameter, Measurement.Port.SeriesResistor, NONE, NONE, NONE
TestParameter, Measurement.Port.Filter, ON, ON, ON
TestParameter, Measurement.Primary.Locus, Double
TestParameter, Measurement.Primary.Scale, LINEAR
TestParameter, Measurement.Primary.Start, -2
TestParameter, Measurement.Primary.Stop, 3
TestParameter, Measurement.Primary.Step, 0.05
TestParameter, Measurement.Primary.Compliance, 0.001
TestParameter, Measurement.Primary.PowerCompliance, 0
TestParameter, Measurement.Aborting.Condition, CONTINUE AT ANY
TestParameter, Measurement.PostOutput.Value, START
TestParameter, Measurement.PostOutput.Retention, OFF
TestParameter, Measurement.Bias.Source, 0, 5, -2
TestParameter, Measurement.Bias.Compliance, 0.1, 0.001, 0.001
TestParameter, Measurement.Monitor.Unit, SMU4:MP, SMU3:MP, SMU1:MP
TestParameter, Measurement.Monitor.Adc, HR ADC, HR ADC, HR ADC
TestParameter, Measurement.Monitor.RangingMode, AUTO, AUTO, AUTO
TestParameter, Measurement.Monitor.RangeBoundary, , , 
TestParameter, Measurement.Monitor.RangeRating, BY FULL RANGE, BY FULL RANGE, BY FULL RANGE
TestParameter, Measurement.Monitor.RangeRatingCoeff, 50, 50, 50
TestParameter, Measurement.Timing.Hold, 0.5
TestParameter, Measurement.Timing.Delay, 0.05
TestParameter, Measurement.Adc.HighResolution.AutoZero, OFF
TestParameter, Measurement.Adc.HighResolution.Mode, AUTO
TestParameter, Measurement.Adc.HighResolution.Coeff, 1
TestParameter, Measurement.Ag16440ASelector.SemiconductorRelay.Channel1, DEFAULT
TestParameter, Measurement.Ag16440ASelector.SemiconductorRelay.Channel3, DEFAULT
TestParameter, Function.User.Name, absID, sqrtID, gm2, absIG
TestParameter, Function.User.Unit, A, A, A/V, A
TestParameter, Function.User.Definition, abs(ID), sqrt(abs(ID)), (delta(sqrtID)/delta(VG))^2, abs(IG)
TestParameter, Output.Graph.Enabled, true
TestParameter, Output.Graph.XAxis.Data, VG
TestParameter, Output.Graph.XAxis.Scale, Linear
TestParameter, Output.Graph.XAxis.Left, -5
TestParameter, Output.Graph.XAxis.Right, 7
TestParameter, Output.Graph.YAxis.Data, ID, absIG, gm2
TestParameter, Output.Graph.YAxis.Scale, Log, Log, Linear
TestParameter, Output.Graph.YAxis.Bottom, 1E-14, 1E-14, 0
TestParameter, Output.Graph.YAxis.Top, 0.01, 0.01, 1E-05
TestParameter, Output.Graph.YAxis.Group, , , 
TestParameter, Output.List.Data, VG, IG, VD, ID, VS, IS, sqrtID, gm2, absIG
TestParameter, AutoAnalysis.Interpolation, false
TestParameter, AutoAnalysis.Line1.Enabled, false
TestParameter, AutoAnalysis.Line1.Type, 1
TestParameter, AutoAnalysis.Line1.Fix, True
TestParameter, AutoAnalysis.Line1.YAxis, 0
TestParameter, AutoAnalysis.Line1.Point1.Type, 0
TestParameter, AutoAnalysis.Line1.Point1.XY.X, 
TestParameter, AutoAnalysis.Line1.Point1.XY.Y, 
TestParameter, AutoAnalysis.Line1.Point1.Data.Var, 
TestParameter, AutoAnalysis.Line1.Point1.Data.Condition, 
TestParameter, AutoAnalysis.Line1.Point1.Data.Start, false
TestParameter, AutoAnalysis.Line1.Point1.Data.StartVar, 
TestParameter, AutoAnalysis.Line1.Point1.Data.StartCondition, 
TestParameter, AutoAnalysis.Line1.Point2.Type, 0
TestParameter, AutoAnalysis.Line1.Point2.XY.X, 
TestParameter, AutoAnalysis.Line1.Point2.XY.Y, 
TestParameter, AutoAnalysis.Line1.Point2.Data.Var, 
TestParameter, AutoAnalysis.Line1.Point2.Data.Condition, 
TestParameter, AutoAnalysis.Line1.Point2.Data.Start, false
TestParameter, AutoAnalysis.Line1.Point2.Data.StartVar, 
TestParameter, AutoAnalysis.Line1.Point2.Data.StartCondition, 
TestParameter, AutoAnalysis.Line1.GradientExpr, 0
TestParameter, AutoAnalysis.Line2.Enabled, false
TestParameter, AutoAnalysis.Line2.Type, 1
TestParameter, AutoAnalysis.Line2.Fix, True
TestParameter, AutoAnalysis.Line2.YAxis, 0
TestParameter, AutoAnalysis.Line2.Point1.Type, 0
TestParameter, AutoAnalysis.Line2.Point1.XY.X, 
TestParameter, AutoAnalysis.Line2.Point1.XY.Y, 
TestParameter, AutoAnalysis.Line2.Point1.Data.Var, 
TestParameter, AutoAnalysis.Line2.Point1.Data.Condition, 
TestParameter, AutoAnalysis.Line2.Point1.Data.Start, false
TestParameter, AutoAnalysis.Line2.Point1.Data.StartVar, 
TestParameter, AutoAnalysis.Line2.Point1.Data.StartCondition, 
TestParameter, AutoAnalysis.Line2.Point2.Type, 0
TestParameter, AutoAnalysis.Line2.Point2.XY.X, 
TestParameter, AutoAnalysis.Line2.Point2.XY.Y, 
TestParameter, AutoAnalysis.Line2.Point2.Data.Var, 
TestParameter, AutoAnalysis.Line2.Point2.Data.Condition, 
TestParameter, AutoAnalysis.Line2.Point2.Data.Start, false
TestParameter, AutoAnalysis.Line2.Point2.Data.StartVar, 
TestParameter, AutoAnalysis.Line2.Point2.Data.StartCondition, 
TestParameter, AutoAnalysis.Line2.GradientExpr, 0
TestParameter, AutoAnalysis.Marker.Enabled, false
TestParameter, AutoAnalysis.Marker.Data.Var, 
TestParameter, AutoAnalysis.Marker.Data.Condition, 
TestParameter, AutoAnalysis.Marker.Data.Start, false
TestParameter, AutoAnalysis.Marker.Data.StartVar, 
TestParameter, AutoAnalysis.Marker.Data.StartCondition, 
MetaData, TestRecord.EntryPoint, true
MetaData, TestRecord.RecordTime, 06/18/2019 13:48:29
MetaData, TestRecord.TestTarget, 6-49
MetaData, TestRecord.IterationIndex, 1
MetaData, TestRecord.Preservation, true
MetaData, TestRecord.Flag, 
MetaData, TestRecord.Remarks, big histeresis
MetaData, TestRecord.LinkKey, 5510eacc-3f53-4469-a75e-8ca25998a715
Dimension1, 202, 202, 202, 202, 202, 202, 202, 202, 202, 202
Dimension2, 1, 1, 1, 1, 1, 1, 1, 1, 1, 1
DataName, VG, VS, VD, ID, IS, IG, absID, sqrtID, gm2, absIG
DataValue, -2, 0, 5, 8.108E-12, 6.1916000000000009E-11, -6.5761000000000009E-11, 8.108E-12, 2.8474550040343045E-06, 2.4175949035511805E-10, 6.5761000000000009E-11
DataValue, -1.9500000000000002, 0, 5, 4.2850000000000004E-12, 5.6753000000000004E-11, -6.0547E-11, 4.2850000000000004E-12, 2.0700241544484453E-06, 1.3286987330031716E-11, 6.0547E-11
DataValue, -1.9000000000000001, 0, 5, 6.1650000000000005E-12, 5.1786E-11, -5.4737E-11, 6.1650000000000005E-12, 2.4829418035870274E-06, 2.4941192750913064E-11, 5.4737E-11
DataValue, -1.85, 0, 5, 6.602E-12, 4.4273000000000006E-11, -4.9753E-11, 6.602E-12, 2.5694357357209776E-06, 2.18614790258891E-13, 4.9753E-11
DataValue, -1.8, 0, 5, 5.9350000000000009E-12, 4.2468000000000005E-11, -4.5716E-11, 5.9350000000000009E-12, 2.4361855430159668E-06, 5.1933981241303363E-11, 4.5716E-11
DataValue, -1.75, 0, 5, 3.418E-12, 3.8687000000000004E-11, -4.1518000000000005E-11, 3.418E-12, 1.8487833837418596E-06, 2.0771876075426636E-12, 4.1518000000000005E-11
DataValue, -1.7000000000000002, 0, 5, 6.6580000000000009E-12, 3.3931E-11, -3.6880000000000006E-11, 6.6580000000000009E-12, 2.5803100588882728E-06, 4.150023866351551E-11, 3.6880000000000006E-11
DataValue, -1.6500000000000001, 0, 5, 6.2150000000000005E-12, 2.9260000000000004E-11, -3.3497E-11, 6.2150000000000005E-12, 2.492990172463582E-06, 3.4524232101903321E-11, 3.3497E-11
DataValue, -1.6, 0, 5, 3.971E-12, 2.3499E-11, -2.9717E-11, 3.971E-12, 1.9927368115232879E-06, 9.8272412689367886E-11, 2.9717E-11
DataValue, -1.55, 0, 5, 2.255E-12, 2.3456E-11, -2.6431E-11, 2.255E-12, 1.5016657417681207E-06, 2.5731594238356017E-11, 2.6431E-11
DataValue, -1.5, 0, 5, 6.25E-12, 1.9569E-11, -2.2717E-11, 6.25E-12, 2.5E-06, 1.8929818539750182E-11, 2.2717E-11
DataValue, -1.4500000000000002, 0, 5, 3.7510000000000005E-12, 1.7466E-11, -2.1142000000000002E-11, 3.7510000000000005E-12, 1.936749854782491E-06, 3.0147181123722693E-12, 2.1142000000000002E-11
DataValue, -1.4000000000000001, 0, 5, 5.4120000000000008E-12, 1.4385E-11, -1.8202E-11, 5.4120000000000008E-12, 2.3263705637752557E-06, 6.0761644079068719E-11, 1.8202E-11
DataValue, -1.35, 0, 5, 7.378E-12, 1.2692000000000001E-11, -1.5465000000000002E-11, 7.378E-12, 2.71624741141156E-06, 9.8670236122128539E-11, 1.5465000000000002E-11
DataValue, -1.3, 0, 5, 1.7770000000000002E-12, 1.252E-11, -1.4307E-11, 1.7770000000000002E-12, 1.3330416347586449E-06, 6.7099747719805611E-11, 1.4307E-11
DataValue, -1.25, 0, 5, 3.5990000000000003E-12, 1.0612E-11, -1.2688000000000001E-11, 3.5990000000000003E-12, 1.8971030546599203E-06, 1.520976322753623E-10, 1.2688000000000001E-11
DataValue, -1.2, 0, 5, 6.5860000000000004E-12, 9.159E-12, -1.0168000000000001E-11, 6.5860000000000004E-12, 2.5663203229526903E-06, 2.0284450939855482E-11, 1.0168000000000001E-11
DataValue, -1.1500000000000001, 0, 5, 2.093E-12, 7.0960000000000005E-12, -9.269E-12, 2.093E-12, 1.4467204291085407E-06, 1.0584507146595612E-11, 9.269E-12
DataValue, -1.1, 0, 5, 5.022E-12, 4.738E-12, -7.553E-12, 5.022E-12, 2.2409819276379721E-06, 3.8486526120806256E-10, 7.553E-12
DataValue, -1.05, 0, 5, 1.1618000000000002E-11, 1.825E-12, -6.857E-12, 1.1618000000000002E-11, 3.4085187398634031E-06, 4.7806608096959088E-11, 6.857E-12
DataValue, -1, 0, 5, 8.5990000000000008E-12, -1.0560000000000002E-12, -6.5330000000000005E-12, 8.5990000000000008E-12, 2.9324051561815261E-06, 2.1753889640547795E-11, 6.5330000000000005E-12
DataValue, -0.95000000000000007, 0, 5, 8.656E-12, -5.2360000000000007E-12, -5.488E-12, 8.656E-12, 2.9421080877493268E-06, 7.0025477392811409E-11, 5.488E-12
DataValue, -0.9, 0, 5, 1.4207E-11, -1.1843000000000001E-11, -4.2740000000000006E-12, 1.4207E-11, 3.7692174254080914E-06, 4.4551089736962797E-10, 4.2740000000000006E-12
DataValue, -0.85000000000000009, 0, 5, 2.5531000000000003E-11, -2.0958E-11, -3.0350000000000003E-12, 2.5531000000000003E-11, 5.0528209942565754E-06, 5.9884549550486994E-10, 3.0350000000000003E-12
DataValue, -0.8, 0, 5, 3.8643E-11, -3.3748E-11, -2.4010000000000004E-12, 3.8643E-11, 6.2163494110289523E-06, 4.9009772584941274E-10, 2.4010000000000004E-12
DataValue, -0.75, 0, 5, 5.2804E-11, -5.1108000000000007E-11, -3.0150000000000004E-12, 5.2804E-11, 7.2666360855625624E-06, 7.6998953393163424E-10, 3.0150000000000004E-12
DataValue, -0.70000000000000007, 0, 5, 8.0842E-11, -7.624E-11, -1.864E-12, 8.0842E-11, 8.9912179375210343E-06, 1.2323394546137224E-09, 1.864E-12
DataValue, -0.65, 0, 5, 1.1614600000000001E-10, -1.0999100000000001E-10, -2.0370000000000003E-12, 1.1614600000000001E-10, 1.0777105362758593E-05, 1.2353682829009526E-09, 2.0370000000000003E-12
DataValue, -0.6, 0, 5, 1.5640000000000002E-10, -1.51495E-10, -1.141E-12, 1.5640000000000002E-10, 1.2505998560690786E-05, 1.5129718472847116E-09, 1.141E-12
DataValue, -0.55, 0, 5, 2.15115E-10, -2.0679700000000003E-10, -4.72E-13, 2.15115E-10, 1.4666799241825056E-05, 1.7666810614260609E-09, 4.72E-13
DataValue, -0.5, 0, 5, 2.79197E-10, -2.7231300000000004E-10, -5.7E-13, 2.79197E-10, 1.6709189088642214E-05, 1.965883977942283E-09, 5.7E-13
DataValue, -0.45, 0, 5, 3.64834E-10, -3.50569E-10, 2.9000000000000003E-13, 3.64834E-10, 1.9100628261918506E-05, 2.1257328130865291E-09, 2.9000000000000003E-13
DataValue, -0.4, 0, 5, 4.5453200000000005E-10, -4.4438300000000005E-10, -2.1000000000000002E-14, 4.5453200000000005E-10, 2.1319756096165831E-05, 2.1494542644558257E-09, 2.1000000000000002E-14
DataValue, -0.35000000000000003, 0, 5, 5.6343800000000006E-10, -5.4242000000000008E-10, 4.36E-13, 5.6343800000000006E-10, 2.3736848990546323E-05, 2.2545524362126882E-09, 4.36E-13
DataValue, -0.3, 0, 5, 6.79539E-10, -6.5048700000000007E-10, 1.7300000000000002E-13, 6.79539E-10, 2.6067968850679564E-05, 2.2138385805392963E-09, 1.7300000000000002E-13
DataValue, -0.25, 0, 5, 8.0894700000000006E-10, -7.766610000000001E-10, 3.27E-13, 8.0894700000000006E-10, 2.8441993601011869E-05, 1.5111992573724926E-09, 3.27E-13
DataValue, -0.2, 0, 5, 8.973250000000001E-10, -8.7675800000000007E-10, 1.2100000000000002E-13, 8.973250000000001E-10, 2.9955383489449774E-05, 1.3476885970486129E-09, 1.2100000000000002E-13
DataValue, -0.15, 0, 5, 1.03125E-09, -9.7688E-10, -1.52E-13, 1.03125E-09, 3.2113081446662818E-05, 2.6250534597435238E-09, 1.52E-13
DataValue, -0.1, 0, 5, 1.23053E-09, -1.20677E-09, 2.55E-13, 1.23053E-09, 3.5078911043531555E-05, 3.4911824352951597E-09, 2.55E-13
DataValue, -0.05, 0, 5, 1.44565E-09, -1.41936E-09, 5.9600000000000009E-13, 1.44565E-09, 3.8021704327923018E-05, 3.4982789272637192E-09, 5.9600000000000009E-13
DataValue, 0, 0, 5, 1.68047E-09, -1.64789E-09, 5.12E-13, 1.68047E-09, 4.0993536075825419E-05, 3.4436613315716022E-09, 5.12E-13
DataValue, 0.05, 0, 5, 1.92633E-09, -1.87597E-09, 4.3200000000000003E-13, 1.92633E-09, 4.3889976076548505E-05, 2.8664842341041619E-09, 4.3200000000000003E-13
DataValue, 0.1, 0, 5, 2.14809E-09, -2.09458E-09, 5.18E-13, 2.14809E-09, 4.6347491841522556E-05, 2.5986294776405437E-09, 5.18E-13
DataValue, 0.15, 0, 5, 2.39979E-09, -2.34935E-09, 4.6100000000000006E-13, 2.39979E-09, 4.898765150525181E-05, 2.6703619553682831E-09, 4.6100000000000006E-13
DataValue, 0.2, 0, 5, 2.6538E-09, -2.58201E-09, 4.94E-13, 2.6538E-09, 5.15150463457037E-05, 2.6231629123233421E-09, 4.94E-13
DataValue, 0.25, 0, 5, 2.92782E-09, -2.85445E-09, 3.39E-13, 2.92782E-09, 5.410933376045209E-05, 2.7848909996324628E-09, 3.39E-13
DataValue, 0.3, 0, 5, 3.22536E-09, -3.10587E-09, 2.0100000000000003E-13, 3.22536E-09, 5.6792252992815846E-05, 2.2806726479667575E-09, 2.0100000000000003E-13
DataValue, 0.35000000000000003, 0, 5, 3.46744E-09, -3.4017E-09, 3.14E-13, 3.46744E-09, 5.888497261610979E-05, 2.5403433195916522E-09, 3.14E-13
DataValue, 0.4, 0, 5, 3.82325E-09, -3.69577E-09, 2.46E-13, 3.82325E-09, 6.1832434854209E-05, 3.0463501088495504E-09, 2.46E-13
DataValue, 0.45, 0, 5, 4.14792E-09, -4.03697E-09, 2.67E-13, 4.14792E-09, 6.4404347679329854E-05, 3.2741989701127078E-09, 2.67E-13
DataValue, 0.5, 0, 5, 4.56361E-09, -4.42761E-09, 2.8700000000000004E-13, 4.56361E-09, 6.7554496519476776E-05, 3.6682820634881451E-09, 2.8700000000000004E-13
DataValue, 0.55, 0, 5, 4.96475E-09, -4.87048E-09, 2.85E-13, 4.96475E-09, 7.0460982110668886E-05, 4.7767473678407151E-09, 2.85E-13
DataValue, 0.6, 0, 5, 5.54517E-09, -5.41114E-09, 3.8500000000000003E-13, 5.54517E-09, 7.4465898235366769E-05, 5.5668886415973318E-09, 3.8500000000000003E-13
DataValue, 0.65, 0, 5, 6.07186E-09, -5.92056E-09, 5.3200000000000006E-13, 6.07186E-09, 7.7922140627680389E-05, 4.9741281686820974E-09, 5.3200000000000006E-13
DataValue, 0.70000000000000007, 0, 5, 6.64529E-09, -6.44684E-09, 4.48E-13, 6.64529E-09, 8.15186481732861E-05, 5.434548293148316E-09, 4.48E-13
DataValue, 0.75, 0, 5, 7.27508E-09, -7.085E-09, 5.86E-13, 7.27508E-09, 8.5294079513176059E-05, 6.2802417727604734E-09, 5.86E-13
DataValue, 0.8, 0, 5, 8.00013E-09, -7.83248E-09, 6.32E-13, 8.00013E-09, 8.9443445819132E-05, 7.3024051000924051E-09, 6.32E-13
DataValue, 0.85000000000000009, 0, 5, 8.80585E-09, -8.58298E-09, 6.0300000000000006E-13, 8.80585E-09, 9.383949062095339E-05, 4.7514823290981226E-09, 6.0300000000000006E-13
DataValue, 0.9, 0, 5, 9.28073E-09, -8.62472E-09, 5.13E-13, 9.28073E-09, 9.6336545505846326E-05, 1.8341768414484205E-09, 5.13E-13
DataValue, 0.95000000000000007, 0, 5, 9.62797E-09, -9.04348E-09, 3.6800000000000005E-13, 9.62797E-09, 9.8122219705834221E-05, 1.6005920058459815E-10, 3.6800000000000005E-13
DataValue, 1, 0, 5, 9.52609E-09, -9.07462E-09, 4.8000000000000008E-13, 9.52609E-09, 9.7601690559129142E-05, 3.95500229624381E-10, 4.8000000000000008E-13
DataValue, 1.05, 0, 5, 1.00222E-08, -9.6722E-09, -9.3000000000000008E-14, 1.00222E-08, 0.00010011093846328682, 6.994642663172858E-09, 9.3000000000000008E-14
DataValue, 1.1, 0, 5, 1.1228599999999999E-08, -1.1061199999999998E-08, 5.4900000000000008E-13, 1.1228599999999999E-08, 0.00010596508859053532, 1.3037030274471928E-08, 5.4900000000000008E-13
DataValue, 1.1500000000000001, 0, 5, 1.2438699999999998E-08, -1.22483E-08, 1.114E-12, 1.2438699999999998E-08, 0.00011152892001628994, 1.08998564236477E-08, 1.114E-12
DataValue, 1.2, 0, 5, 1.3550199999999998E-08, -1.3254199999999998E-08, 1.1920000000000002E-12, 1.3550199999999998E-08, 0.00011640532633861734, 8.9240091044657E-09, 1.1920000000000002E-12
DataValue, 1.25, 0, 5, 1.4635099999999999E-08, -1.4324899999999999E-08, 9.1000000000000016E-13, 1.4635099999999999E-08, 0.00012097561737804853, 7.8747195441113444E-09, 9.1000000000000016E-13
DataValue, 1.3, 0, 5, 1.5694899999999997E-08, -1.5409399999999998E-08, 7.56E-13, 1.5694899999999997E-08, 0.00012527928799286814, 7.2609157601100778E-09, 7.56E-13
DataValue, 1.35, 0, 5, 1.6769399999999998E-08, -1.6327599999999997E-08, 8.7300000000000012E-13, 1.6769399999999998E-08, 0.00012949671810513191, 6.3510567714467609E-09, 8.7300000000000012E-13
DataValue, 1.4000000000000001, 0, 5, 1.7755199999999997E-08, -1.7428E-08, 1.0350000000000001E-12, 1.7755199999999997E-08, 0.00013324863976791658, 6.876744442660154E-09, 1.0350000000000001E-12
DataValue, 1.4500000000000002, 0, 5, 1.8985899999999997E-08, -1.8634199999999998E-08, 8.93E-13, 1.8985899999999997E-08, 0.00013778933195280393, 7.2287370356990749E-09, 8.93E-13
DataValue, 1.5, 0, 5, 2.00933E-08, -1.9677599999999997E-08, 8.530000000000001E-13, 2.00933E-08, 0.00014175083774002888, 6.801807746041472E-09, 8.530000000000001E-13
DataValue, 1.55, 0, 5, 2.1326699999999997E-08, -2.0839899999999998E-08, 1.0410000000000001E-12, 2.1326699999999997E-08, 0.00014603663923824046, 7.005879993535465E-09, 1.0410000000000001E-12
DataValue, 1.6, 0, 5, 2.2536299999999997E-08, -2.2098799999999997E-08, 1.218E-12, 2.2536299999999997E-08, 0.00015012095123599504, 6.8669770963042609E-09, 1.218E-12
DataValue, 1.6500000000000001, 0, 5, 2.3815699999999997E-08, -2.3375799999999996E-08, 1.366E-12, 2.3815699999999997E-08, 0.00015432336180889786, 6.4810143779628686E-09, 1.366E-12
DataValue, 1.7000000000000002, 0, 5, 2.5018199999999997E-08, -2.4532799999999998E-08, 1.2840000000000002E-12, 2.5018199999999997E-08, 0.00015817142599091656, 7.096875676593567E-09, 1.2840000000000002E-12
DataValue, 1.75, 0, 5, 2.6486799999999997E-08, -2.60557E-08, 1.1020000000000002E-12, 2.6486799999999997E-08, 0.00016274765743321776, 8.6557843427903465E-09, 1.1020000000000002E-12
DataValue, 1.8, 0, 5, 2.80479E-08, -2.7471999999999996E-08, 1.3970000000000002E-12, 2.80479E-08, 0.00016747507277203972, 8.1984955868176866E-09, 1.3970000000000002E-12
DataValue, 1.85, 0, 5, 2.9515999999999998E-08, -2.9000199999999996E-08, 1.013E-12, 2.9515999999999998E-08, 0.00017180221186003397, 7.8320929616086272E-09, 1.013E-12
DataValue, 1.9000000000000001, 0, 5, 3.1090499999999996E-08, -3.0522499999999994E-08, 1.4490000000000002E-12, 3.1090499999999996E-08, 0.00017632498404933998, 7.7515107354410183E-09, 1.4490000000000002E-12
DataValue, 1.9500000000000002, 0, 5, 3.26187E-08, -3.19914E-08, 1.8240000000000003E-12, 3.26187E-08, 0.00018060647828912449, 8.2421517655026086E-09, 1.8240000000000003E-12
DataValue, 2, 0, 5, 3.4374499999999995E-08, -3.38688E-08, 1.352E-12, 3.4374499999999995E-08, 0.00018540361377276333, 9.57814327699651E-09, 1.352E-12
DataValue, 2.05, 0, 5, 3.6249599999999995E-08, -3.5585199999999995E-08, 1.153E-12, 3.6249599999999995E-08, 0.000190393277192237, 8.8468702134646009E-09, 1.153E-12
DataValue, 2.1, 0, 5, 3.79507E-08, -3.72703E-08, 1.2520000000000001E-12, 3.79507E-08, 0.00019480939402400491, 7.1230538751156363E-09, 1.2520000000000001E-12
DataValue, 2.15, 0, 5, 3.9534599999999995E-08, -3.88818E-08, 1.7060000000000002E-12, 3.9534599999999995E-08, 0.00019883309583668409, 8.1895728735700164E-09, 1.7060000000000002E-12
DataValue, 2.2, 0, 5, 4.1558499999999995E-08, -4.0874899999999995E-08, 1.7560000000000002E-12, 4.1558499999999995E-08, 0.00020385901991327239, 1.1141938347802298E-08, 1.7560000000000002E-12
DataValue, 2.25, 0, 5, 4.38436E-08, -4.28319E-08, 1.69E-12, 4.38436E-08, 0.00020938863388445897, 1.1799233224243117E-08, 1.69E-12
DataValue, 2.3000000000000003, 0, 5, 4.61053E-08, -4.53753E-08, 1.6760000000000001E-12, 4.61053E-08, 0.00021472144746158918, 9.35713694245884E-09, 1.6760000000000001E-12
