
SetupTitle, Transfer stab
PrimitiveTest, I/V Sweep
TestParameter, Context.MainFrame, 4155C
TestParameter, Channel.UnitType, SMU, SMU, SMU
TestParameter, Channel.Unit, SMU3:MP, SMU4:MP, SMU1:MP
TestParameter, Channel.IName, ID, IS, IG
TestParameter, Channel.VName, VD, VS, VG
TestParameter, Channel.Mode, V, COMMON, V
TestParameter, Channel.Func, CONST, CONST, VAR1
TestParameter, Channel.Index, 
TestParameter, Channel.Time, 
TestParameter, Measurement.Port.Unit, SMU3:MP, SMU4:MP, SMU1:MP
TestParameter, Measurement.Port.SeriesResistor, NONE, NONE, NONE
TestParameter, Measurement.Port.Filter, ON, ON, ON
TestParameter, Measurement.Primary.Locus, Single
TestParameter, Measurement.Primary.Scale, LINEAR
TestParameter, Measurement.Primary.Start, -2
TestParameter, Measurement.Primary.Stop, 3
TestParameter, Measurement.Primary.Step, 0.05
TestParameter, Measurement.Primary.Compliance, 0.1
TestParameter, Measurement.Primary.PowerCompliance, 0
TestParameter, Measurement.Aborting.Condition, CONTINUE AT ANY
TestParameter, Measurement.PostOutput.Value, START
TestParameter, Measurement.PostOutput.Retention, OFF
TestParameter, Measurement.Bias.Source, 3, 0, -2
TestParameter, Measurement.Bias.Compliance, 0.1, 0.1, 0.1
TestParameter, Measurement.Monitor.Unit, SMU3:MP, SMU4:MP, SMU1:MP
TestParameter, Measurement.Monitor.Adc, HR ADC, HR ADC, HR ADC
TestParameter, Measurement.Monitor.RangingMode, AUTO, AUTO, AUTO
TestParameter, Measurement.Monitor.RangeBoundary, , , 
TestParameter, Measurement.Monitor.RangeRating, BY FULL RANGE, BY FULL RANGE, BY FULL RANGE
TestParameter, Measurement.Monitor.RangeRatingCoeff, 50, 50, 50
TestParameter, Measurement.Timing.Hold, 0.5
TestParameter, Measurement.Timing.Delay, 0.05
TestParameter, Measurement.Adc.HighResolution.AutoZero, OFF
TestParameter, Measurement.Adc.HighResolution.Mode, AUTO
TestParameter, Measurement.Adc.HighResolution.Coeff, 1
TestParameter, Measurement.Ag16440ASelector.SemiconductorRelay.Channel1, DEFAULT
TestParameter, Measurement.Ag16440ASelector.SemiconductorRelay.Channel3, DEFAULT
TestParameter, Function.User.Name, absID, sqrtID, gm2, absIG
TestParameter, Function.User.Unit, A, A, A/V, A
TestParameter, Function.User.Definition, abs(ID), sqrt(abs(ID)), (delta(sqrtID)/delta(VG))^2, abs(IG)
TestParameter, Output.Graph.Enabled, true
TestParameter, Output.Graph.XAxis.Data, VG
TestParameter, Output.Graph.XAxis.Scale, Linear
TestParameter, Output.Graph.XAxis.Left, -5
TestParameter, Output.Graph.XAxis.Right, 7
TestParameter, Output.Graph.YAxis.Data, ID, absIG, gm2
TestParameter, Output.Graph.YAxis.Scale, Log, Log, Linear
TestParameter, Output.Graph.YAxis.Bottom, 1E-14, 1E-14, 0
TestParameter, Output.Graph.YAxis.Top, 0.01, 0.01, 1E-05
TestParameter, Output.Graph.YAxis.Group, , , 
TestParameter, Output.List.Data, VG, IG, VD, ID, VS, IS, sqrtID, gm2, absIG
TestParameter, AutoAnalysis.Interpolation, false
TestParameter, AutoAnalysis.Line1.Enabled, false
TestParameter, AutoAnalysis.Line1.Type, 1
TestParameter, AutoAnalysis.Line1.Fix, True
TestParameter, AutoAnalysis.Line1.YAxis, 0
TestParameter, AutoAnalysis.Line1.Point1.Type, 0
TestParameter, AutoAnalysis.Line1.Point1.XY.X, 
TestParameter, AutoAnalysis.Line1.Point1.XY.Y, 
TestParameter, AutoAnalysis.Line1.Point1.Data.Var, 
TestParameter, AutoAnalysis.Line1.Point1.Data.Condition, 
TestParameter, AutoAnalysis.Line1.Point1.Data.Start, false
TestParameter, AutoAnalysis.Line1.Point1.Data.StartVar, 
TestParameter, AutoAnalysis.Line1.Point1.Data.StartCondition, 
TestParameter, AutoAnalysis.Line1.Point2.Type, 0
TestParameter, AutoAnalysis.Line1.Point2.XY.X, 
TestParameter, AutoAnalysis.Line1.Point2.XY.Y, 
TestParameter, AutoAnalysis.Line1.Point2.Data.Var, 
TestParameter, AutoAnalysis.Line1.Point2.Data.Condition, 
TestParameter, AutoAnalysis.Line1.Point2.Data.Start, false
TestParameter, AutoAnalysis.Line1.Point2.Data.StartVar, 
TestParameter, AutoAnalysis.Line1.Point2.Data.StartCondition, 
TestParameter, AutoAnalysis.Line1.GradientExpr, 0
TestParameter, AutoAnalysis.Line2.Enabled, false
TestParameter, AutoAnalysis.Line2.Type, 1
TestParameter, AutoAnalysis.Line2.Fix, True
TestParameter, AutoAnalysis.Line2.YAxis, 0
TestParameter, AutoAnalysis.Line2.Point1.Type, 0
TestParameter, AutoAnalysis.Line2.Point1.XY.X, 
TestParameter, AutoAnalysis.Line2.Point1.XY.Y, 
TestParameter, AutoAnalysis.Line2.Point1.Data.Var, 
TestParameter, AutoAnalysis.Line2.Point1.Data.Condition, 
TestParameter, AutoAnalysis.Line2.Point1.Data.Start, false
TestParameter, AutoAnalysis.Line2.Point1.Data.StartVar, 
TestParameter, AutoAnalysis.Line2.Point1.Data.StartCondition, 
TestParameter, AutoAnalysis.Line2.Point2.Type, 0
TestParameter, AutoAnalysis.Line2.Point2.XY.X, 
TestParameter, AutoAnalysis.Line2.Point2.XY.Y, 
TestParameter, AutoAnalysis.Line2.Point2.Data.Var, 
TestParameter, AutoAnalysis.Line2.Point2.Data.Condition, 
TestParameter, AutoAnalysis.Line2.Point2.Data.Start, false
TestParameter, AutoAnalysis.Line2.Point2.Data.StartVar, 
TestParameter, AutoAnalysis.Line2.Point2.Data.StartCondition, 
TestParameter, AutoAnalysis.Line2.GradientExpr, 0
TestParameter, AutoAnalysis.Marker.Enabled, false
TestParameter, AutoAnalysis.Marker.Data.Var, 
TestParameter, AutoAnalysis.Marker.Data.Condition, 
TestParameter, AutoAnalysis.Marker.Data.Start, false
TestParameter, AutoAnalysis.Marker.Data.StartVar, 
TestParameter, AutoAnalysis.Marker.Data.StartCondition, 
MetaData, TestRecord.EntryPoint, true
MetaData, TestRecord.RecordTime, 06/18/2019 16:52:39
MetaData, TestRecord.TestTarget, 8-11
MetaData, TestRecord.IterationIndex, 5
MetaData, TestRecord.Preservation, true
MetaData, TestRecord.Flag, 
MetaData, TestRecord.Remarks, bad
MetaData, TestRecord.LinkKey, 07ac8804-8b80-4597-969a-13a7608d90e3
Dimension1, 101, 101, 101, 101, 101, 101, 101, 101, 101, 101
Dimension2, 1, 1, 1, 1, 1, 1, 1, 1, 1, 1
DataName, VG, VD, VS, ID, IS, IG, absID, sqrtID, gm2, absIG
DataValue, -2, 3, 0, 2.8122000000000003E-11, 1.934E-12, -2.3947000000000002E-11, 2.8122000000000003E-11, 5.3030180086437577E-06, 2.8325968436469241E-10, 2.3947000000000002E-11
DataValue, -1.9500000000000002, 3, 0, 1.9905E-11, 7.3900000000000008E-13, -3.4031E-11, 1.9905E-11, 4.4615019892408435E-06, 7.5672057464327489E-14, 3.4031E-11
DataValue, -1.9000000000000001, 3, 0, 2.7831E-11, 1.9360000000000002E-12, -2.6258E-11, 2.7831E-11, 5.275509454071711E-06, 3.6204118065578893E-11, 2.6258E-11
DataValue, -1.85, 3, 0, 2.5636000000000003E-11, 3.07E-13, -2.2525E-11, 2.5636000000000003E-11, 5.0632005688102069E-06, 1.7527504220556353E-11, 2.2525E-11
DataValue, -1.8, 3, 0, 2.3589E-11, 3.1200000000000003E-13, -2.1598E-11, 2.3589E-11, 4.85685083155742E-06, 7.0818854939719706E-12, 2.1598E-11
DataValue, -1.75, 3, 0, 2.3012E-11, 1.477E-12, -1.9539000000000002E-11, 2.3012E-11, 4.7970824466544247E-06, 1.3806751511387306E-14, 1.9539000000000002E-11
DataValue, -1.7000000000000002, 3, 0, 2.3475000000000002E-11, 1.3360000000000002E-12, -2.3163E-11, 2.3475000000000002E-11, 4.8451006181502568E-06, 3.1029458213422888E-12, 2.3163E-11
DataValue, -1.6500000000000001, 3, 0, 2.1353000000000002E-11, 2.2600000000000002E-13, -2.5172000000000003E-11, 2.1353000000000002E-11, 4.6209306421975222E-06, 1.0739576424040726E-11, 2.5172000000000003E-11
DataValue, -1.6, 3, 0, 2.6758000000000002E-11, -2.2900000000000003E-13, -2.8567E-11, 2.6758000000000002E-11, 5.1728135477706907E-06, 8.8885512185174264E-11, 2.8567E-11
DataValue, -1.55, 3, 0, 3.0955000000000005E-11, 3.06E-13, -2.6344000000000002E-11, 3.0955000000000005E-11, 5.5637217759338044E-06, 1.456443878030715E-14, 2.6344000000000002E-11
DataValue, -1.5, 3, 0, 2.6883000000000002E-11, 9.6600000000000012E-13, -2.6328000000000003E-11, 2.6883000000000002E-11, 5.1848818694354074E-06, 2.5499165941331355E-11, 2.6328000000000003E-11
DataValue, -1.4500000000000002, 3, 0, 2.5591E-11, -2.1000000000000002E-14, -2.7114000000000003E-11, 2.5591E-11, 5.0587547874946462E-06, 1.3310866638418857E-13, 2.7114000000000003E-11
DataValue, -1.4000000000000001, 3, 0, 2.6506000000000002E-11, 5.0600000000000007E-13, -3.1014E-11, 2.6506000000000002E-11, 5.1483978090275816E-06, 1.047918563891448E-10, 3.1014E-11
DataValue, -1.35, 3, 0, 3.6996000000000006E-11, 4.97E-13, -3.3045E-11, 3.6996000000000006E-11, 6.0824337234366972E-06, 2.3658959124814952E-11, 3.3045E-11
DataValue, -1.3, 3, 0, 3.1751E-11, 1.4E-13, -3.2421000000000005E-11, 3.1751E-11, 5.6348025697445692E-06, 4.1848280653556312E-11, 3.2421000000000005E-11
DataValue, -1.25, 3, 0, 2.9545E-11, 9.74E-13, -3.0181E-11, 2.9545E-11, 5.4355312527847728E-06, 6.9230842734925187E-12, 3.0181E-11
DataValue, -1.2, 3, 0, 2.8855000000000003E-11, -3.98E-13, -2.8929000000000002E-11, 2.8855000000000003E-11, 5.37168502427311E-06, 1.9406998954806189E-11, 2.8929000000000002E-11
DataValue, -1.1500000000000001, 3, 0, 2.4950000000000002E-11, 4.2700000000000005E-13, -2.8078000000000004E-11, 2.4950000000000002E-11, 4.9949974974968705E-06, 7.55817460637774E-12, 2.8078000000000004E-11
DataValue, -1.1, 3, 0, 2.5977E-11, 2.9800000000000004E-13, -2.4633000000000003E-11, 2.5977E-11, 5.0967636790418292E-06, 3.6755139051981894E-12, 2.4633000000000003E-11
DataValue, -1.05, 3, 0, 2.6902000000000003E-11, 4.7800000000000008E-13, -2.3080000000000003E-11, 2.6902000000000003E-11, 5.1867137958441471E-06, 1.091102868273735E-11, 2.3080000000000003E-11
DataValue, -1, 3, 0, 2.2719E-11, -2.0300000000000002E-13, -2.4711000000000003E-11, 2.2719E-11, 4.7664452163011375E-06, 7.3334351725282934E-13, 2.4711000000000003E-11
DataValue, -0.95000000000000007, 3, 0, 2.6021000000000003E-11, 8.5E-14, -2.5825000000000002E-11, 2.6021000000000003E-11, 5.1010783173756508E-06, 1.9131833677368905E-11, 2.5825000000000002E-11
DataValue, -0.9, 3, 0, 2.7080000000000002E-11, 7.54E-13, -2.8656000000000002E-11, 2.7080000000000002E-11, 5.203844732503075E-06, 3.189785395100455E-12, 2.8656000000000002E-11
DataValue, -0.85000000000000009, 3, 0, 2.7875E-11, -1.2000000000000001E-14, -3.1444000000000005E-11, 2.7875E-11, 5.2796780204857191E-06, 2.5106274527303258E-13, 3.1444000000000005E-11
DataValue, -0.8, 3, 0, 2.7604000000000002E-11, -5.0000000000000008E-15, -2.7044000000000003E-11, 2.7604000000000002E-11, 5.2539508943270496E-06, 2.8411675324600763E-13, 2.7044000000000003E-11
DataValue, -0.75, 3, 0, 2.7315E-11, 7.8000000000000011E-13, -2.6229E-11, 2.7315E-11, 5.2263754170553042E-06, 7.2724940577936713E-12, 2.6229E-11
DataValue, -0.70000000000000007, 3, 0, 2.4843E-11, 4.48E-13, -2.3891000000000003E-11, 2.4843E-11, 4.9842752732970115E-06, 1.5620397474807142E-11, 2.3891000000000003E-11
DataValue, -0.65, 3, 0, 2.334E-11, 4.1400000000000005E-13, -2.1327000000000002E-11, 2.334E-11, 4.8311489316724653E-06, 2.4963495283815383E-11, 2.1327000000000002E-11
DataValue, -0.6, 3, 0, 2.0112000000000003E-11, -2.46E-13, -1.9228E-11, 2.0112000000000003E-11, 4.4846404538156685E-06, 2.068877262930754E-11, 1.9228E-11
DataValue, -0.55, 3, 0, 1.9152E-11, -6.400000000000001E-13, -1.7891E-11, 1.9152E-11, 4.376299806914513E-06, 1.1250903185610309E-11, 1.7891E-11
DataValue, -0.5, 3, 0, 1.7216E-11, -6.4300000000000009E-13, -1.6013E-11, 1.7216E-11, 4.1492167935647807E-06, 7.0469264614786906E-12, 1.6013E-11
DataValue, -0.45, 3, 0, 1.6899000000000002E-11, -1.7640000000000002E-12, -1.4845E-11, 1.6899000000000002E-11, 4.110839330355785E-06, 6.2428956148264227E-12, 1.4845E-11
DataValue, -0.4, 3, 0, 1.5205E-11, -3E-12, -1.4944E-11, 1.5205E-11, 3.8993589216690483E-06, 1.0550263583650218E-11, 1.4944E-11
DataValue, -0.35000000000000003, 3, 0, 1.9675000000000002E-11, -6.0020000000000005E-12, -1.3824000000000001E-11, 1.9675000000000002E-11, 4.4356510232433751E-06, 4.9242205470738466E-11, 1.3824000000000001E-11
DataValue, -0.3, 3, 0, 2.1170000000000003E-11, -7.295E-12, -1.2435E-11, 2.1170000000000003E-11, 4.6010868281309368E-06, 8.5940476550495549E-13, 1.2435E-11
DataValue, -0.25, 3, 0, 2.0506E-11, -1.0058000000000001E-11, -1.2170000000000002E-11, 2.0506E-11, 4.5283551097501174E-06, 4.8771297803847835E-12, 1.2170000000000002E-11
DataValue, -0.2, 3, 0, 2.3251000000000003E-11, -1.1172000000000001E-11, -1.1093E-11, 2.3251000000000003E-11, 4.8219290745509727E-06, 3.3179575901313856E-13, 1.1093E-11
DataValue, -0.15, 3, 0, 2.1031000000000003E-11, -1.097E-11, -1.0343000000000002E-11, 2.1031000000000003E-11, 4.5859568249166937E-06, 1.5390192824906532E-12, 1.0343000000000002E-11
DataValue, -0.1, 3, 0, 2.207E-11, -1.1865000000000001E-11, -9.835E-12, 2.207E-11, 4.6978718586185388E-06, 3.861663490526159E-12, 9.835E-12
DataValue, -0.05, 3, 0, 2.2872000000000002E-11, -1.3136E-11, -9.231E-12, 2.2872000000000002E-11, 4.7824679821196922E-06, 1.2710625055176631E-12, 9.231E-12
DataValue, 0, 3, 0, 2.3142E-11, -1.3551000000000002E-11, -8.411E-12, 2.3142E-11, 4.8106132665181061E-06, 7.0667557238130869E-13, 8.411E-12
DataValue, 0.05, 3, 0, 2.2075000000000002E-11, -1.3452E-11, -7.827E-12, 2.2075000000000002E-11, 4.6984039843334039E-06, 1.4323048393784278E-11, 7.827E-12
DataValue, 0.1, 3, 0, 1.9644E-11, -1.4158000000000002E-11, -7.2060000000000006E-12, 1.9644E-11, 4.4321552319385206E-06, 4.3761741881870121E-13, 7.2060000000000006E-12
DataValue, 0.15, 3, 0, 2.2701000000000002E-11, -1.4899000000000003E-11, -6.5820000000000008E-12, 2.2701000000000002E-11, 4.7645566425429347E-06, 7.8079025574584478E-12, 6.5820000000000008E-12
DataValue, 0.2, 3, 0, 2.2199000000000003E-11, -1.4793E-11, -5.693E-12, 2.2199000000000003E-11, 4.7115814754708425E-06, 1.0968020910533572E-12, 5.693E-12
DataValue, 0.25, 3, 0, 2.1714E-11, -1.4978000000000002E-11, -5.1920000000000005E-12, 2.1714E-11, 4.65982832301792E-06, 1.1909222931422988E-13, 5.1920000000000005E-12
DataValue, 0.3, 3, 0, 2.1875000000000002E-11, -1.6587E-11, -5.1020000000000007E-12, 2.1875000000000002E-11, 4.677071733467427E-06, 3.15564516510477E-12, 5.1020000000000007E-12
DataValue, 0.35000000000000003, 3, 0, 2.0090000000000002E-11, -1.6438000000000002E-11, -4.4420000000000007E-12, 2.0090000000000002E-11, 4.4821869662029944E-06, 3.8530692016913862E-14, 4.4420000000000007E-12
DataValue, 0.4, 3, 0, 2.2059E-11, -1.7142000000000003E-11, -4.2400000000000005E-12, 2.2059E-11, 4.6967009698297805E-06, 8.9104256240308876E-12, 4.2400000000000005E-12
DataValue, 0.45, 3, 0, 2.2855E-11, -1.8226000000000003E-11, -3.841E-12, 2.2855E-11, 4.7806903267206087E-06, 7.4639685651773483E-13, 3.841E-12
DataValue, 0.5, 3, 0, 2.2878000000000002E-11, -1.8470000000000002E-11, -3.389E-12, 2.2878000000000002E-11, 4.7830952321692284E-06, 3.6962810508003504E-13, 3.389E-12
DataValue, 0.55, 3, 0, 2.3440000000000002E-11, -1.8311E-11, -3.3400000000000003E-12, 2.3440000000000002E-11, 4.8414873747640816E-06, 1.2427524980729668E-12, 3.3400000000000003E-12
DataValue, 0.6, 3, 0, 2.1824E-11, -1.9441000000000002E-11, -3.0470000000000002E-12, 2.1824E-11, 4.6716164226100585E-06, 6.6620528026884611E-13, 3.0470000000000002E-12
DataValue, 0.65, 3, 0, 2.4237000000000002E-11, -2.0668E-11, -2.6550000000000003E-12, 2.4237000000000002E-11, 4.9231087739354292E-06, 4.7686921051681093E-12, 2.6550000000000003E-12
DataValue, 0.70000000000000007, 3, 0, 2.3912000000000002E-11, -2.0054E-11, -2.324E-12, 2.3912000000000002E-11, 4.8899897750404344E-06, 6.0107933016216287E-14, 2.324E-12
DataValue, 0.75, 3, 0, 2.4479000000000003E-11, -2.1895000000000002E-11, -2.0570000000000002E-12, 2.4479000000000003E-11, 4.9476256931987086E-06, 1.9162715304366627E-12, 2.0570000000000002E-12
DataValue, 0.8, 3, 0, 2.5285000000000003E-11, -2.2686000000000002E-11, -2.077E-12, 2.5285000000000003E-11, 5.028419234709851E-06, 1.6671897102050216E-12, 2.077E-12
DataValue, 0.85000000000000009, 3, 0, 2.3218E-11, -2.2473E-11, -1.5800000000000001E-12, 2.3218E-11, 4.8185059925250692E-06, 4.8005838807249123E-13, 1.5800000000000001E-12
DataValue, 0.9, 3, 0, 2.4593000000000002E-11, -2.3453E-11, -1.5950000000000002E-12, 2.4593000000000002E-11, 4.95913298873906E-06, 1.2752748985770805E-11, 1.5950000000000002E-12
DataValue, 0.95000000000000007, 3, 0, 2.6787000000000002E-11, -2.4303000000000003E-11, -1.245E-12, 2.6787000000000002E-11, 5.1756159053778322E-06, 2.4642750122673527E-11, 1.245E-12
DataValue, 1, 3, 0, 2.9763E-11, -2.4489000000000002E-11, -1.0520000000000002E-12, 2.9763E-11, 5.4555476352058373E-06, 3.9919229924138743E-13, 1.0520000000000002E-12
DataValue, 1.05, 3, 0, 2.7445000000000002E-11, -2.5037000000000002E-11, -8.8300000000000007E-13, 2.7445000000000002E-11, 5.2387975719624822E-06, 8.0760647384046655E-12, 8.8300000000000007E-13
DataValue, 1.1, 3, 0, 2.6743000000000003E-11, -2.6856000000000003E-11, -9.42E-13, 2.6743000000000003E-11, 5.1713634565750648E-06, 2.4834642359908239E-12, 9.42E-13
DataValue, 1.1500000000000001, 3, 0, 2.9121E-11, -2.7778000000000002E-11, -4.6100000000000006E-13, 2.9121E-11, 5.3963876806619443E-06, 1.5069055907927135E-13, 4.6100000000000006E-13
DataValue, 1.2, 3, 0, 2.7146000000000002E-11, -2.7662000000000002E-11, -3.8100000000000004E-13, 2.7146000000000002E-11, 5.2101823384599505E-06, 3.9197858851158335E-12, 3.8100000000000004E-13
DataValue, 1.25, 3, 0, 3.1297000000000004E-11, -2.9009000000000003E-11, -4.8300000000000006E-13, 3.1297000000000004E-11, 5.5943721721029615E-06, 1.4664184592390713E-11, 4.8300000000000006E-13
DataValue, 1.3, 3, 0, 3.1283E-11, -2.9961E-11, -2.7800000000000003E-13, 3.1283E-11, 5.5931207746659645E-06, 7.0130093983191755E-13, 2.7800000000000003E-13
DataValue, 1.35, 3, 0, 3.2241000000000005E-11, -3.1317E-11, -6.4E-14, 3.2241000000000005E-11, 5.6781158846927386E-06, 3.3788369632535579E-12, 6.4E-14
DataValue, 1.4000000000000001, 3, 0, 3.3373000000000003E-11, -3.1698E-11, 1.3E-13, 3.3373000000000003E-11, 5.7769369046234185E-06, 2.7112069060159949E-12, 1.3E-13
DataValue, 1.4500000000000002, 3, 0, 3.4138E-11, -3.1745E-11, 4.9000000000000006E-14, 3.4138E-11, 5.8427733141035E-06, 3.4296664692462612E-12, 4.9000000000000006E-14
DataValue, 1.5, 3, 0, 3.5547E-11, -3.409E-11, 3.15E-13, 3.5547E-11, 5.9621304916950623E-06, 1.4994780185823477E-13, 3.15E-13
DataValue, 1.55, 3, 0, 3.4592000000000004E-11, -3.4366000000000004E-11, 2.95E-13, 3.4592000000000004E-11, 5.8814964082280967E-06, 2.3936488984659053E-13, 2.95E-13
DataValue, 1.6, 3, 0, 3.4966E-11, -3.6503E-11, 4.09E-13, 3.4966E-11, 5.913205560438433E-06, 1.0775068151249007E-11, 4.09E-13
DataValue, 1.6500000000000001, 3, 0, 3.8561E-11, -3.8031000000000005E-11, 6.5100000000000005E-13, 3.8561E-11, 6.2097503975602756E-06, 1.7936311986666807E-11, 6.5100000000000005E-13
DataValue, 1.7000000000000002, 3, 0, 4.0154E-11, -3.8515E-11, 8.2800000000000011E-13, 4.0154E-11, 6.3367183936166831E-06, 3.9234255859244219E-13, 8.2800000000000011E-13
DataValue, 1.75, 3, 0, 3.7787000000000006E-11, -4.0035E-11, 1.1230000000000002E-12, 3.7787000000000006E-11, 6.1471131435821165E-06, 6.3965726203847316E-13, 1.1230000000000002E-12
DataValue, 1.8, 3, 0, 4.1174E-11, -3.9790000000000006E-11, 1.1670000000000002E-12, 4.1174E-11, 6.4166969696254163E-06, 1.7302721594748032E-11, 1.1670000000000002E-12
DataValue, 1.85, 3, 0, 4.3074E-11, -4.2973E-11, 1.166E-12, 4.3074E-11, 6.5630785459264468E-06, 4.3874876614938775E-12, 1.166E-12
DataValue, 1.9000000000000001, 3, 0, 4.3906000000000005E-11, -4.4408E-11, 1.5610000000000001E-12, 4.3906000000000005E-11, 6.626160275755485E-06, 2.5037001991324E-12, 1.5610000000000001E-12
DataValue, 1.9500000000000002, 3, 0, 4.5176000000000004E-11, -4.5823E-11, 1.6160000000000002E-12, 4.5176000000000004E-11, 6.7213093962411817E-06, 7.8519657092211619E-12, 1.6160000000000002E-12
DataValue, 2, 3, 0, 4.7698E-11, -4.6313000000000006E-11, 2.0040000000000003E-12, 4.7698E-11, 6.9063738676674609E-06, 9.1295401567893963E-12, 2.0040000000000003E-12
DataValue, 2.05, 3, 0, 4.9329000000000004E-11, -4.7916000000000005E-11, 2.6510000000000003E-12, 4.9329000000000004E-11, 7.0234606854456022E-06, 1.0532103396641352E-11, 2.6510000000000003E-12
