
SetupTitle, Transfer stab
PrimitiveTest, I/V Sweep
TestParameter, Context.MainFrame, 4155C
TestParameter, Channel.UnitType, SMU, SMU, SMU
TestParameter, Channel.Unit, SMU3:MP, SMU4:MP, SMU1:MP
TestParameter, Channel.IName, ID, IS, IG
TestParameter, Channel.VName, VD, VS, VG
TestParameter, Channel.Mode, V, COMMON, V
TestParameter, Channel.Func, CONST, CONST, VAR1
TestParameter, Channel.Index, 
TestParameter, Channel.Time, 
TestParameter, Measurement.Port.Unit, SMU3:MP, SMU4:MP, SMU1:MP
TestParameter, Measurement.Port.SeriesResistor, NONE, NONE, NONE
TestParameter, Measurement.Port.Filter, ON, ON, ON
TestParameter, Measurement.Primary.Locus, Single
TestParameter, Measurement.Primary.Scale, LINEAR
TestParameter, Measurement.Primary.Start, -2
TestParameter, Measurement.Primary.Stop, 3
TestParameter, Measurement.Primary.Step, 0.05
TestParameter, Measurement.Primary.Compliance, 0.1
TestParameter, Measurement.Primary.PowerCompliance, 0
TestParameter, Measurement.Aborting.Condition, CONTINUE AT ANY
TestParameter, Measurement.PostOutput.Value, START
TestParameter, Measurement.PostOutput.Retention, OFF
TestParameter, Measurement.Bias.Source, 3, 0, -2
TestParameter, Measurement.Bias.Compliance, 0.1, 0.1, 0.1
TestParameter, Measurement.Monitor.Unit, SMU3:MP, SMU4:MP, SMU1:MP
TestParameter, Measurement.Monitor.Adc, HR ADC, HR ADC, HR ADC
TestParameter, Measurement.Monitor.RangingMode, AUTO, AUTO, AUTO
TestParameter, Measurement.Monitor.RangeBoundary, , , 
TestParameter, Measurement.Monitor.RangeRating, BY FULL RANGE, BY FULL RANGE, BY FULL RANGE
TestParameter, Measurement.Monitor.RangeRatingCoeff, 50, 50, 50
TestParameter, Measurement.Timing.Hold, 0.5
TestParameter, Measurement.Timing.Delay, 0.05
TestParameter, Measurement.Adc.HighResolution.AutoZero, OFF
TestParameter, Measurement.Adc.HighResolution.Mode, AUTO
TestParameter, Measurement.Adc.HighResolution.Coeff, 1
TestParameter, Measurement.Ag16440ASelector.SemiconductorRelay.Channel1, DEFAULT
TestParameter, Measurement.Ag16440ASelector.SemiconductorRelay.Channel3, DEFAULT
TestParameter, Function.User.Name, absID, sqrtID, gm2, absIG
TestParameter, Function.User.Unit, A, A, A/V, A
TestParameter, Function.User.Definition, abs(ID), sqrt(abs(ID)), (delta(sqrtID)/delta(VG))^2, abs(IG)
TestParameter, Output.Graph.Enabled, true
TestParameter, Output.Graph.XAxis.Data, VG
TestParameter, Output.Graph.XAxis.Scale, Linear
TestParameter, Output.Graph.XAxis.Left, -5
TestParameter, Output.Graph.XAxis.Right, 7
TestParameter, Output.Graph.YAxis.Data, ID, absIG, gm2
TestParameter, Output.Graph.YAxis.Scale, Log, Log, Linear
TestParameter, Output.Graph.YAxis.Bottom, 1E-14, 1E-14, 0
TestParameter, Output.Graph.YAxis.Top, 0.01, 0.01, 1E-05
TestParameter, Output.Graph.YAxis.Group, , , 
TestParameter, Output.List.Data, VG, IG, VD, ID, VS, IS, sqrtID, gm2, absIG
TestParameter, AutoAnalysis.Interpolation, false
TestParameter, AutoAnalysis.Line1.Enabled, false
TestParameter, AutoAnalysis.Line1.Type, 1
TestParameter, AutoAnalysis.Line1.Fix, True
TestParameter, AutoAnalysis.Line1.YAxis, 0
TestParameter, AutoAnalysis.Line1.Point1.Type, 0
TestParameter, AutoAnalysis.Line1.Point1.XY.X, 
TestParameter, AutoAnalysis.Line1.Point1.XY.Y, 
TestParameter, AutoAnalysis.Line1.Point1.Data.Var, 
TestParameter, AutoAnalysis.Line1.Point1.Data.Condition, 
TestParameter, AutoAnalysis.Line1.Point1.Data.Start, false
TestParameter, AutoAnalysis.Line1.Point1.Data.StartVar, 
TestParameter, AutoAnalysis.Line1.Point1.Data.StartCondition, 
TestParameter, AutoAnalysis.Line1.Point2.Type, 0
TestParameter, AutoAnalysis.Line1.Point2.XY.X, 
TestParameter, AutoAnalysis.Line1.Point2.XY.Y, 
TestParameter, AutoAnalysis.Line1.Point2.Data.Var, 
TestParameter, AutoAnalysis.Line1.Point2.Data.Condition, 
TestParameter, AutoAnalysis.Line1.Point2.Data.Start, false
TestParameter, AutoAnalysis.Line1.Point2.Data.StartVar, 
TestParameter, AutoAnalysis.Line1.Point2.Data.StartCondition, 
TestParameter, AutoAnalysis.Line1.GradientExpr, 0
TestParameter, AutoAnalysis.Line2.Enabled, false
TestParameter, AutoAnalysis.Line2.Type, 1
TestParameter, AutoAnalysis.Line2.Fix, True
TestParameter, AutoAnalysis.Line2.YAxis, 0
TestParameter, AutoAnalysis.Line2.Point1.Type, 0
TestParameter, AutoAnalysis.Line2.Point1.XY.X, 
TestParameter, AutoAnalysis.Line2.Point1.XY.Y, 
TestParameter, AutoAnalysis.Line2.Point1.Data.Var, 
TestParameter, AutoAnalysis.Line2.Point1.Data.Condition, 
TestParameter, AutoAnalysis.Line2.Point1.Data.Start, false
TestParameter, AutoAnalysis.Line2.Point1.Data.StartVar, 
TestParameter, AutoAnalysis.Line2.Point1.Data.StartCondition, 
TestParameter, AutoAnalysis.Line2.Point2.Type, 0
TestParameter, AutoAnalysis.Line2.Point2.XY.X, 
TestParameter, AutoAnalysis.Line2.Point2.XY.Y, 
TestParameter, AutoAnalysis.Line2.Point2.Data.Var, 
TestParameter, AutoAnalysis.Line2.Point2.Data.Condition, 
TestParameter, AutoAnalysis.Line2.Point2.Data.Start, false
TestParameter, AutoAnalysis.Line2.Point2.Data.StartVar, 
TestParameter, AutoAnalysis.Line2.Point2.Data.StartCondition, 
TestParameter, AutoAnalysis.Line2.GradientExpr, 0
TestParameter, AutoAnalysis.Marker.Enabled, false
TestParameter, AutoAnalysis.Marker.Data.Var, 
TestParameter, AutoAnalysis.Marker.Data.Condition, 
TestParameter, AutoAnalysis.Marker.Data.Start, false
TestParameter, AutoAnalysis.Marker.Data.StartVar, 
TestParameter, AutoAnalysis.Marker.Data.StartCondition, 
MetaData, TestRecord.EntryPoint, true
MetaData, TestRecord.RecordTime, 06/18/2019 12:53:12
MetaData, TestRecord.TestTarget, 6-16
MetaData, TestRecord.IterationIndex, 12
MetaData, TestRecord.Preservation, true
MetaData, TestRecord.Flag, 
MetaData, TestRecord.Remarks, leak
MetaData, TestRecord.LinkKey, 4ed08818-1145-4bbb-8eee-7e02480982c6
Dimension1, 101, 101, 101, 101, 101, 101, 101, 101, 101, 101
Dimension2, 1, 1, 1, 1, 1, 1, 1, 1, 1, 1
DataName, VG, VD, VS, ID, IS, IG, absID, sqrtID, gm2, absIG
DataValue, -2, 3, 0, 1.4325000000000001E-11, 1.55621E-09, -1.54248E-09, 1.4325000000000001E-11, 3.7848381735551128E-06, 1.9322030039393178E-11, 1.54248E-09
DataValue, -1.9500000000000002, 3, 0, 1.6037E-11, 1.50126E-09, -1.48902E-09, 1.6037E-11, 4.0046223292590275E-06, 6.9498139154852648E-13, 1.48902E-09
DataValue, -1.9000000000000001, 3, 0, 1.4963000000000002E-11, 1.4454E-09, -1.43839E-09, 1.4963000000000002E-11, 3.868203717489554E-06, 1.1718243635788098E-13, 1.43839E-09
DataValue, -1.85, 3, 0, 1.5764E-11, 1.38601E-09, -1.38271E-09, 1.5764E-11, 3.9703904090152139E-06, 9.0005985125059669E-14, 1.38271E-09
DataValue, -1.8, 3, 0, 1.5196E-11, 1.33833E-09, -1.33161E-09, 1.5196E-11, 3.8982047149938138E-06, 7.119593185706465E-12, 1.33161E-09
DataValue, -1.75, 3, 0, 1.7954000000000002E-11, 1.28593E-09, -1.2842E-09, 1.7954000000000002E-11, 4.2372160671837356E-06, 3.1189153744402148E-14, 1.2842E-09
DataValue, -1.7000000000000002, 3, 0, 1.5334000000000002E-11, 1.22686E-09, -1.23333E-09, 1.5334000000000002E-11, 3.9158651662180611E-06, 2.9470963869169146E-13, 1.23333E-09
DataValue, -1.6500000000000001, 3, 0, 1.8417000000000003E-11, 1.18439E-09, -1.18911E-09, 1.8417000000000003E-11, 4.2915032331340494E-06, 1.8366071177869226E-11, 1.18911E-09
DataValue, -1.6, 3, 0, 1.8874E-11, 1.1229E-09, -1.14133E-09, 1.8874E-11, 4.34442171065379E-06, 5.4818535343907908E-13, 1.14133E-09
DataValue, -1.55, 3, 0, 1.7787E-11, 1.08035E-09, -1.08836E-09, 1.7787E-11, 4.2174636927897793E-06, 2.6854636516605962E-15, 1.08836E-09
DataValue, -1.5, 3, 0, 1.8829000000000002E-11, 1.04169E-09, -1.04214E-09, 1.8829000000000002E-11, 4.3392395647163805E-06, 2.7895919210653994E-11, 1.04214E-09
DataValue, -1.4500000000000002, 3, 0, 2.2521000000000002E-11, 9.8609E-10, -9.9869E-10, 2.2521000000000002E-11, 4.7456295683502316E-06, 5.5867157145849374E-11, 9.9869E-10
DataValue, -1.4000000000000001, 3, 0, 1.2901000000000001E-11, 9.4385300000000013E-10, -9.4954300000000014E-10, 1.2901000000000001E-11, 3.5917962080273988E-06, 2.2224459456651566E-10, 9.4954300000000014E-10
DataValue, -1.35, 3, 0, 1.0594000000000001E-11, 8.9389600000000005E-10, -9.0308100000000006E-10, 1.0594000000000001E-11, 3.2548425461149425E-06, 5.0576458356499462E-11, 9.0308100000000006E-10
DataValue, -1.3, 3, 0, 8.298E-12, 8.5270200000000008E-10, -8.593700000000001E-10, 8.298E-12, 2.8806249321978731E-06, 1.9445169517664363E-13, 8.593700000000001E-10
DataValue, -1.25, 3, 0, 1.0883E-11, 8.09823E-10, -8.1179500000000009E-10, 1.0883E-11, 3.2989392234474405E-06, 1.1502792454931989E-11, 8.1179500000000009E-10
DataValue, -1.2, 3, 0, 1.0367E-11, 7.6085500000000006E-10, -7.67962E-10, 1.0367E-11, 3.2197826013568058E-06, 1.0612575349730428E-13, 7.67962E-10
DataValue, -1.1500000000000001, 3, 0, 1.1099E-11, 7.20199E-10, -7.2608400000000007E-10, 1.1099E-11, 3.3315161713550183E-06, 2.2595698680080218E-11, 7.2608400000000007E-10
DataValue, -1.1, 3, 0, 1.3654000000000001E-11, 6.82277E-10, -6.8364300000000006E-10, 1.3654000000000001E-11, 3.6951319326919846E-06, 4.5699440336483307E-13, 6.8364300000000006E-10
DataValue, -1.05, 3, 0, 1.1554E-11, 6.372800000000001E-10, -6.4061500000000007E-10, 1.1554E-11, 3.3991175325369378E-06, 1.9022190262073404E-11, 6.4061500000000007E-10
DataValue, -1, 3, 0, 1.0621E-11, 5.90406E-10, -5.96616E-10, 1.0621E-11, 3.2589875728514217E-06, 5.03186733091629E-14, 5.96616E-10
DataValue, -0.95000000000000007, 3, 0, 1.1707000000000001E-11, 5.5085500000000006E-10, -5.56456E-10, 1.1707000000000001E-11, 3.4215493566511651E-06, 4.5664734533163764E-15, 5.56456E-10
DataValue, -0.9, 3, 0, 1.0577E-11, 5.10151E-10, -5.1454300000000009E-10, 1.0577E-11, 3.2522300041663721E-06, 2.3241496989870743E-12, 5.1454300000000009E-10
DataValue, -0.85000000000000009, 3, 0, 1.0687000000000001E-11, 4.72517E-10, -4.73099E-10, 1.0687000000000001E-11, 3.269097734849786E-06, 5.2108321662955654E-14, 4.73099E-10
DataValue, -0.8, 3, 0, 1.0726000000000001E-11, 4.3366900000000006E-10, -4.3340200000000004E-10, 1.0726000000000001E-11, 3.2750572514079813E-06, 8.4646026541596005E-13, 4.3340200000000004E-10
DataValue, -0.75, 3, 0, 1.1297000000000001E-11, 3.92213E-10, -3.93106E-10, 1.1297000000000001E-11, 3.3611010100858319E-06, 3.2265735484196319E-11, 3.93106E-10
DataValue, -0.70000000000000007, 3, 0, 7.3280000000000011E-12, 3.5268800000000003E-10, -3.54163E-10, 7.3280000000000011E-12, 2.7070278905101813E-06, 3.2309737583871902E-12, 3.54163E-10
DataValue, -0.65, 3, 0, 1.0121E-11, 3.16074E-10, -3.16448E-10, 1.0121E-11, 3.1813519138881823E-06, 1.1656374788887211E-11, 3.16448E-10
DataValue, -0.6, 3, 0, 9.2930000000000009E-12, 2.80733E-10, -2.76788E-10, 9.2930000000000009E-12, 3.0484422251372914E-06, 3.5542490529222655E-12, 2.76788E-10
DataValue, -0.55, 3, 0, 8.957E-12, 2.4740400000000003E-10, -2.41159E-10, 8.957E-12, 2.9928247526375481E-06, 8.9550503087477034E-13, 2.41159E-10
DataValue, -0.5, 3, 0, 8.7250000000000009E-12, 2.1120700000000001E-10, -2.0635300000000002E-10, 8.7250000000000009E-12, 2.953811097548386E-06, 1.7835073571446821E-13, 2.0635300000000002E-10
DataValue, -0.45, 3, 0, 8.7060000000000011E-12, 1.7865500000000002E-10, -1.7212900000000002E-10, 8.7060000000000011E-12, 2.9505931607051489E-06, 1.1672339668932489E-13, 1.7212900000000002E-10
DataValue, -0.4, 3, 0, 8.928E-12, 1.5115700000000002E-10, -1.39279E-10, 8.928E-12, 2.9879759035172957E-06, 3.7730684139751963E-12, 1.39279E-10
DataValue, -0.35000000000000003, 3, 0, 9.8900000000000009E-12, 1.2381700000000002E-10, -1.09941E-10, 9.8900000000000009E-12, 3.1448370387032777E-06, 2.4610538886870145E-13, 1.09941E-10
DataValue, -0.3, 3, 0, 8.634E-12, 9.7399000000000012E-11, -8.2463E-11, 8.634E-12, 2.9383668933610044E-06, 6.0877770872831955E-12, 8.2463E-11
DataValue, -0.25, 3, 0, 8.3990000000000009E-12, 7.4302000000000009E-11, -5.6794000000000007E-11, 8.3990000000000009E-12, 2.89810282771333E-06, 7.6599965021476673E-13, 5.6794000000000007E-11
DataValue, -0.2, 3, 0, 9.156E-12, 5.2712E-11, -3.2174000000000006E-11, 9.156E-12, 3.0258882993263319E-06, 6.7787857868517578E-13, 3.2174000000000006E-11
DataValue, -0.15, 3, 0, 8.8830000000000008E-12, 3.1308E-11, -9.805E-12, 8.8830000000000008E-12, 2.98043620968475E-06, 1.120622383335915E-10, 9.805E-12
DataValue, -0.1, 3, 0, 1.6683E-11, 5.829E-12, 1.2561E-11, 1.6683E-11, 4.0844828313998331E-06, 4.7401106559368468E-10, 1.2561E-11
DataValue, -0.05, 3, 0, 2.6601000000000003E-11, -2.4463000000000002E-11, 3.5233000000000004E-11, 2.6601000000000003E-11, 5.1576157282217141E-06, 8.0851039333745841E-10, 3.5233000000000004E-11
DataValue, 0, 3, 0, 4.7996000000000007E-11, -6.5220000000000008E-11, 5.6599E-11, 4.7996000000000007E-11, 6.9279145491265987E-06, 1.3442383600377648E-09, 5.6599E-11
DataValue, 0.05, 3, 0, 7.7863E-11, -1.21392E-10, 7.979E-11, 7.7863E-11, 8.8240013599273656E-06, 1.8592316228962937E-09, 7.979E-11
DataValue, 0.1, 3, 0, 1.2633300000000002E-10, -1.9497500000000002E-10, 1.0481100000000001E-10, 1.2633300000000002E-10, 1.1239795371802817E-05, 2.5818730522684738E-09, 1.0481100000000001E-10
DataValue, 0.15, 3, 0, 1.9335500000000003E-10, -2.82044E-10, 1.31128E-10, 1.9335500000000003E-10, 1.3905214849113264E-05, 2.8648525360503187E-09, 1.31128E-10
DataValue, 0.2, 3, 0, 2.7530200000000004E-10, -3.92876E-10, 1.5886400000000002E-10, 2.7530200000000004E-10, 1.65922270958422E-05, 2.6263988375652486E-09, 1.5886400000000002E-10
DataValue, 0.25, 3, 0, 3.6214300000000003E-10, -5.08772E-10, 1.8670100000000002E-10, 3.6214300000000003E-10, 1.9030055175957847E-05, 2.0354851365106017E-09, 1.8670100000000002E-10
DataValue, 0.3, 3, 0, 4.4537300000000006E-10, -6.19652E-10, 2.15082E-10, 4.4537300000000006E-10, 2.1103862205766982E-05, 1.3269773038399119E-09, 2.15082E-10
DataValue, 0.35000000000000003, 3, 0, 5.1405700000000006E-10, -7.1335400000000006E-10, 2.4318000000000003E-10, 5.1405700000000006E-10, 2.2672825143770682E-05, 7.8368811383511813E-10, 2.4318000000000003E-10
DataValue, 0.4, 3, 0, 5.71368E-10, -7.9526900000000008E-10, 2.7163700000000003E-10, 5.71368E-10, 2.3903305210786228E-05, 4.6436863754289557E-10, 2.7163700000000003E-10
DataValue, 0.45, 3, 0, 6.16417E-10, -8.6839300000000006E-10, 3.00509E-10, 6.16417E-10, 2.4827746575152568E-05, 1.6952344373292835E-10, 3.00509E-10
DataValue, 0.5, 3, 0, 6.35308E-10, -9.01115E-10, 3.2668900000000003E-10, 6.35308E-10, 2.5205316899416281E-05, 4.02864390908215E-11, 3.2668900000000003E-10
DataValue, 0.55, 3, 0, 6.48337E-10, -9.3899400000000012E-10, 3.52992E-10, 6.48337E-10, 2.5462462567473712E-05, 3.2953879723840522E-11, 3.52992E-10
DataValue, 0.6, 3, 0, 6.6457600000000006E-10, -9.9378E-10, 3.8242300000000003E-10, 6.6457600000000006E-10, 2.5779371598237226E-05, 1.1630121475178388E-10, 3.8242300000000003E-10
DataValue, 0.65, 3, 0, 7.04419E-10, -1.07436E-09, 4.11981E-10, 7.04419E-10, 2.6540892976687881E-05, 2.1735812851783586E-10, 4.11981E-10
DataValue, 0.70000000000000007, 3, 0, 7.4276300000000005E-10, -1.14244E-09, 4.4199100000000005E-10, 7.4276300000000005E-10, 2.7253678650780339E-05, 2.4669498854392938E-10, 4.4199100000000005E-10
DataValue, 0.75, 3, 0, 7.90259E-10, -1.20685E-09, 4.69588E-10, 7.90259E-10, 2.811154567077378E-05, 2.6835878573089928E-11, 4.69588E-10
DataValue, 0.8, 3, 0, 7.71268E-10, -1.23057E-09, 4.9155500000000007E-10, 7.71268E-10, 2.77717122266525E-05, 2.333033345086099E-14, 4.9155500000000007E-10
DataValue, 0.85000000000000009, 3, 0, 7.91118E-10, -1.27698E-09, 5.1324000000000008E-10, 7.91118E-10, 2.81268199411167E-05, 7.0527484456643425E-11, 5.1324000000000008E-10
DataValue, 0.9, 3, 0, 8.1861900000000011E-10, -1.32084E-09, 5.33554E-10, 8.1861900000000011E-10, 2.8611518659449032E-05, 9.5314188752328476E-11, 5.33554E-10
DataValue, 0.95000000000000007, 3, 0, 8.469910000000001E-10, -1.37138E-09, 5.5327700000000005E-10, 8.469910000000001E-10, 2.9103109799469886E-05, 7.5404185003797778E-11, 5.5327700000000005E-10
DataValue, 1, 3, 0, 8.69063E-10, -1.41323E-09, 5.7478200000000007E-10, 8.69063E-10, 2.9479874490913287E-05, 7.7907718187499517E-11, 5.7478200000000007E-10
DataValue, 1.05, 3, 0, 8.9914600000000011E-10, -1.44928E-09, 5.985050000000001E-10, 8.9914600000000011E-10, 2.9985763288600811E-05, 9.31276261508577E-11, 5.985050000000001E-10
DataValue, 1.1, 3, 0, 9.2689200000000011E-10, -1.50526E-09, 6.18514E-10, 9.2689200000000011E-10, 3.0444901050914917E-05, 1.6360282240001976E-10, 6.18514E-10
DataValue, 1.1500000000000001, 3, 0, 9.7749E-10, -1.57882E-09, 6.3785800000000009E-10, 9.7749E-10, 3.1264836478062696E-05, 7.9385329505220047E-10, 6.3785800000000009E-10
DataValue, 1.2, 3, 0, 1.10639E-09, -1.70533E-09, 6.64125E-10, 1.10639E-09, 3.3262441281421304E-05, 9.1768531080729142E-10, 6.64125E-10
DataValue, 1.25, 3, 0, 1.17609E-09, -1.81216E-09, 6.903130000000001E-10, 1.17609E-09, 3.4294168600506996E-05, 4.0329733480597275E-10, 6.903130000000001E-10
DataValue, 1.3, 3, 0, 1.24402E-09, -1.91409E-09, 7.1634300000000006E-10, 1.24402E-09, 3.52706676999458E-05, 3.1898669727030774E-10, 7.1634300000000006E-10
DataValue, 1.35, 3, 0, 1.30178E-09, -1.96909E-09, 7.4081400000000008E-10, 1.30178E-09, 3.6080188469574271E-05, 3.7005705596449179E-10, 7.4081400000000008E-10
DataValue, 1.4000000000000001, 3, 0, 1.38342E-09, -2.0710499999999998E-09, 7.675010000000001E-10, 1.38342E-09, 3.7194354410313403E-05, 4.7119118911048557E-10, 7.675010000000001E-10
DataValue, 1.4500000000000002, 3, 0, 1.46313E-09, -2.18995E-09, 7.9390500000000006E-10, 1.46313E-09, 3.8250882342764331E-05, 4.3155540242705983E-10, 7.9390500000000006E-10
DataValue, 1.5, 3, 0, 1.54227E-09, -2.29267E-09, 8.2118200000000007E-10, 1.54227E-09, 3.9271745568538206E-05, 3.1235737264731614E-10, 8.2118200000000007E-10
DataValue, 1.55, 3, 0, 1.60146E-09, -2.37715E-09, 8.4814900000000011E-10, 1.60146E-09, 4.0018245838617166E-05, 3.0130527075393981E-10, 8.4814900000000011E-10
DataValue, 1.6, 3, 0, 1.68162E-09, -2.48269E-09, 8.7893000000000009E-10, 1.68162E-09, 4.1007560278563272E-05, 5.0649166468384035E-10, 8.7893000000000009E-10
DataValue, 1.6500000000000001, 3, 0, 1.78665E-09, -2.62347E-09, 9.071120000000001E-10, 1.78665E-09, 4.2268782807173428E-05, 6.0380926825065483E-10, 9.071120000000001E-10
DataValue, 1.7000000000000002, 3, 0, 1.88919E-09, -2.72449E-09, 9.37309E-10, 1.88919E-09, 4.3464813355172712E-05, 2.8593846620085706E-10, 9.37309E-10
DataValue, 1.75, 3, 0, 1.93246E-09, -2.82205E-09, 9.6946800000000015E-10, 1.93246E-09, 4.39597543214245E-05, 2.7862596488309153E-10, 9.6946800000000015E-10
DataValue, 1.8, 3, 0, 2.03708E-09, -2.94311E-09, 9.99248E-10, 2.03708E-09, 4.5134022643677574E-05, 2.4104168020569926E-10, 9.99248E-10
DataValue, 1.85, 3, 0, 2.07137E-09, -3.0447E-09, 1.03245E-09, 2.07137E-09, 4.5512306028150236E-05, 2.1632686199537239E-10, 1.03245E-09
DataValue, 1.9000000000000001, 3, 0, 2.17201E-09, -3.197E-09, 1.06614E-09, 2.17201E-09, 4.6604828076069543E-05, 6.5633697001506614E-10, 1.06614E-09
DataValue, 1.9500000000000002, 3, 0, 2.31113E-09, -3.32465E-09, 1.09574E-09, 2.31113E-09, 4.8074213462104608E-05, 9.7357473616282267E-10, 1.09574E-09
DataValue, 2, 3, 0, 2.47258E-09, -3.52248E-09, 1.12905E-09, 2.47258E-09, 4.97250439919363E-05, 9.3996705741777017E-10, 1.12905E-09
DataValue, 2.05, 3, 0, 2.61531E-09, -3.72233E-09, 1.16462E-09, 2.61531E-09, 5.114010168155711E-05, 4.6282963052641304E-10, 1.16462E-09
DataValue, 2.1, 3, 0, 2.69116E-09, -3.8552E-09, 1.1954E-09, 2.69116E-09, 5.1876391547600918E-05, 6.1839616730533162E-10, 1.1954E-09
DataValue, 2.15, 3, 0, 2.87584E-09, -4.02011E-09, 1.23234E-09, 2.87584E-09, 5.3626858942138313E-05, 1.0684925947725377E-09, 1.23234E-09
DataValue, 2.2, 3, 0, 3.04099E-09, -4.2405E-09, 1.26428E-09, 3.04099E-09, 5.5145172046154682E-05, 7.56834360355691E-10, 1.26428E-09
DataValue, 2.25, 3, 0, 3.17847E-09, -4.40487E-09, 1.29987E-09, 3.17847E-09, 5.6377921210346164E-05, 6.5901650010783177E-10, 1.29987E-09
DataValue, 2.3000000000000003, 3, 0, 3.33071E-09, -4.6053E-09, 1.33742E-09, 3.33071E-09, 5.7712303714199453E-05, 8.5267220577597112E-10, 1.33742E-09
DataValue, 2.35, 3, 0, 3.51625E-09, -4.7939E-09, 1.36783E-09, 3.51625E-09, 5.9297976356702089E-05, 8.0767904277376563E-10, 1.36783E-09
